# cantool TX/RX capture bitrate=33333.333 fclk=170000000 brp=255 prop=1 phase1=13 phase2=5 sjw=4
# listen-only profile: adapter opened listen-only and no TX schedule is active
(1780155973.620000) can0 100#
(1780155973.684000) can0 13FFE040#
(1780155973.690000) can0 621#0152000000000000
(1780155973.703000) can0 0C2F6040#00
(1780155973.708000) can0 0C2F8040#00
(1780155973.727000) can0 0C2FA040#00
(1780155973.728000) can0 0C394040#C020FFFF00
(1780155973.728000) can0 0C630040#81
(1780155973.729000) can0 1020C040#0100000001
(1780155973.734000) can0 10210040#0000800000008000
(1780155973.761000) can0 10242040#01
(1780155973.761000) can0 10248040#000061A6A300
(1780155973.762000) can0 10250040#0000
(1780155973.762000) can0 10288040#000000
(1780155973.762000) can0 102C0040#803C96B503
(1780155973.764000) can0 102CA040#0000000000000F00
(1780155973.770000) can0 102CC040#0800800000000000
(1780155973.788000) can0 103A6040#8329
(1780155973.789000) can0 103B4040#04
(1780155973.789000) can0 103D4040#2424393B393B
(1780155973.789000) can0 103DC040#0585
(1780155973.793000) can0 10428040#00
(1780155973.799000) can0 1062C040#000BF7B513
(1780155973.803000) can0 10632040#0000
(1780155973.808000) can0 10644040#0000FF
(1780155973.815000) can0 10210040#0000800000008000
(1780155973.836000) can0 10220040#1000000040120000
(1780155973.838000) can0 1022C040#00000000
(1780155973.838000) can0 1022E040#1000000010000000
(1780155973.839000) can0 10242040#01
(1780155973.844000) can0 10230040#2000000020000000
(1780155973.863000) can0 10248040#000061A6A300
(1780155973.864000) can0 102CC040#0800800000000000
(1780155973.864000) can0 102CE040#0700070000000000
(1780155973.864000) can0 10240040#8004880100000007
(1780155973.882000) can0 10250040#0000
(1780155973.885000) can0 102C0040#803C96B503
(1780155973.886000) can0 102D0040#0000000000000000
(1780155973.886000) can0 102CA040#0000000000000F00
(1780155973.889000) can0 102E0040#840000000000005A
(1780155973.892000) can0 10646040#00
(1780155973.898000) can0 1064A040#2D2D
(1780155973.904000) can0 1020C040#0000000401
(1780155973.910000) can0 10264040#000F000000000000
(1780155973.930000) can0 10210040#0000800000008000
(1780155973.930000) can0 106AA040#00
(1780155973.931000) can0 10220040#1000000040120000
(1780155973.931000) can0 106B0040#00
(1780155973.935000) can0 1022E040#3000000030000000
(1780155973.940000) can0 106B8040#0000000000000000
(1780155973.964000) can0 106C0040#00B5D1DE00
(1780155973.969000) can0 10714040#09
(1780155973.969000) can0 10728040#04
(1780155973.970000) can0 10240040#8004880100000007
(1780155973.972000) can0 10644040#02FAFA
(1780155973.979000) can0 102C0040#803C96B503
(1780155973.981000) can0 106C0040#00B5D1DE00
(1780155973.985000) can0 102CA040#0000000000000F00
(1780155973.988000) can0 10754040#040400
(1780155974.007000) can0 10758040#000000
(1780155974.007000) can0 1077C040#303003B9
(1780155974.008000) can0 10264040#0002000000000000
(1780155974.010000) can0 10780040#0000000008000000
(1780155974.015000) can0 10210040#0000800000008000
(1780155974.019000) can0 10788040#180A00000000
(1780155974.039000) can0 10220040#1000000040120000
(1780155974.040000) can0 10780040#0000000008000000
(1780155974.041000) can0 1022E040#1000000010000000
(1780155974.041000) can0 10788040#180A00000000
(1780155974.045000) can0 10230040#2000000020000000
(1780155974.050000) can0 10800040#000000000000
(1780155974.055000) can0 10806040#0000000000
(1780155974.061000) can0 1080A040#00000000
(1780155974.064000) can0 1022A040#00B00080000000
(1780155974.071000) can0 1022C040#00000000
(1780155974.078000) can0 10240040#83FE880100000000
(1780155974.079000) can0 102C0040#803C96B503
(1780155974.100000) can0 102CA040#0000000000000F00
(1780155974.101000) can0 106B8040#0000000000000000
(1780155974.102000) can0 102CC040#0800000000000000
(1780155974.103000) can0 1080E040#0000000000000000
(1780155974.105000) can0 10264040#0002000000000000
(1780155974.109000) can0 102CE040#0700070000000000
(1780155974.131000) can0 10814040#00000000
(1780155974.131000) can0 10220040#1000000040080000
(1780155974.132000) can0 10ACA040#28F0000000000000
(1780155974.135000) can0 1022E040#3000000030000000
(1780155974.140000) can0 10780040#0000000008000000
(1780155974.146000) can0 10230040#0000000000000000
(1780155974.149000) can0 10800040#000000000000
(1780155974.154000) can0 10AEC040#082492393FFFFF28
(1780155974.159000) can0 10EC4040#3056305845503638
(1780155974.179000) can0 10240040#83FE880100D80FFD
(1780155974.180000) can0 10EC8040#4B34303238383139
(1780155974.180000) can0 102C0040#803C96B503
(1780155974.181000) can0 10EC4040#3056305845503638
(1780155974.185000) can0 102CA040#0000000000000F00
(1780155974.189000) can0 10EC8040#4B34303238383139
(1780155974.192000) can0 13FFE040#
(1780155974.204000) can0 10264040#0002000000000000
(1780155974.226000) can0 10210040#0000800000008000
(1780155974.226000) can0 10220040#1000000040060000
(1780155974.235000) can0 1022E040#1000000010000000
(1780155974.258000) can0 10230040#2000000020000000
(1780155974.259000) can0 10ACA040#2C811C0000000000
(1780155974.264000) can0 10240040#83FE880100D80FFD
(1780155974.270000) can0 106B8040#0000000000000000
(1780155974.274000) can0 102C0040#803C96B503
(1780155974.279000) can0 10AEC040#02081E08049FFF2C
(1780155974.284000) can0 102CA040#0000000000000F00
(1780155974.305000) can0 10264040#0002000000000000
(1780155974.314000) can0 10210040#0000800000008000
(1780155974.336000) can0 1022A040#00B00000000000
(1780155974.336000) can0 10220040#1000000040080000
(1780155974.337000) can0 1022C040#00000000
(1780155974.337000) can0 1022E040#3000000030000000
(1780155974.339000) can0 10248040#000060A6A300
(1780155974.345000) can0 10230040#0000000000000000
(1780155974.368000) can0 102CE040#0700070000000000
(1780155974.368000) can0 102D0040#0000000000000000
(1780155974.369000) can0 10240040#83FE880100D80FFD
(1780155974.379000) can0 102C0040#803C96B503
(1780155974.379000) can0 10806040#0000000000
(1780155974.398000) can0 102CA040#0000000000000F00
(1780155974.399000) can0 10780040#0000000008000000
(1780155974.399000) can0 10788040#180A00000000
(1780155974.400000) can0 10800040#000000000000
(1780155974.404000) can0 10264040#0002000000000000
(1780155974.429000) can0 10210040#0000800000008000
(1780155974.430000) can0 10220040#1000000040080000
(1780155974.435000) can0 1022E040#1000000010000000
(1780155974.447000) can0 10230040#2000000020000000
(1780155974.478000) can0 10240040#83FE880100D80000
(1780155974.479000) can0 106B8040#0000000000000000
(1780155974.480000) can0 102C0040#803C96B503
(1780155974.484000) can0 102CA040#0000000000000F00
(1780155974.510000) can0 10264040#0002000000000000
(1780155974.514000) can0 10210040#0000800000008000
(1780155974.540000) can0 10220040#1000000040080000
(1780155974.543000) can0 1022E040#3000000030000000
(1780155974.544000) can0 10230040#0000000000000000
(1780155974.571000) can0 1022A040#00B00000000000
(1780155974.572000) can0 1022C040#00000000
(1780155974.579000) can0 10240040#83FF880100D80FFD
(1780155974.580000) can0 102C0040#803C96B503
(1780155974.585000) can0 102CA040#0000000000000F00
(1780155974.602000) can0 102CC040#0800000000000000
(1780155974.604000) can0 10264040#0002000000000000
(1780155974.609000) can0 102CE040#0700070000000000
(1780155974.614000) can0 10210040#0000800000008000
(1780155974.634000) can0 10220040#1000000040080000
(1780155974.635000) can0 1022E040#1000000010000000
(1780155974.639000) can0 10780040#0000000008000000
(1780155974.644000) can0 10230040#2000000020000000
(1780155974.665000) can0 10800040#000000000000
(1780155974.665000) can0 10240040#83FE880100D80FFD
(1780155974.669000) can0 106B8040#0000000000000000
(1780155974.674000) can0 102C0040#803C96B503
(1780155974.697000) can0 102CA040#0000000000000F00
(1780155974.698000) can0 621#0052000000000000
(1780155974.704000) can0 10264040#0002000000000000
(1780155974.708000) can0 1080A040#00000000
(1780155974.729000) can0 10210040#0000800000008000
(1780155974.729000) can0 1080E040#0000000000000000
(1780155974.730000) can0 10220040#1000000040080000
(1780155974.734000) can0 1022E040#3000000030000000
(1780155974.766000) can0 10240040#83FE880100D80FFD
(1780155974.773000) can0 102C0040#803C96B503
(1780155974.791000) can0 102CA040#0000000000000F00
(1780155974.804000) can0 10264040#0002000000000000
(1780155974.823000) can0 10210040#0000800000008000
(1780155974.823000) can0 1022A040#00B00000000000
(1780155974.825000) can0 10220040#1000000040080000
(1780155974.828000) can0 1022C040#00000000
(1780155974.834000) can0 1022E040#1000000010000000
(1780155974.855000) can0 10230040#2000000020000000
(1780155974.857000) can0 10250040#0000
(1780155974.861000) can0 102CC040#0800000000000000
(1780155974.862000) can0 102CE040#0700070000000000
(1780155974.864000) can0 10240040#83FE880100D80FFD
(1780155974.870000) can0 102D0040#0000000000000000
(1780155974.873000) can0 102C0040#803C96B503
(1780155974.879000) can0 102E0040#840000000000005A
(1780155974.884000) can0 102CA040#0000000000000F00
(1780155974.889000) can0 106B8040#0000000000000000
(1780155974.893000) can0 106C0040#00B5D1DE00
(1780155974.898000) can0 1077C040#303003B9
(1780155974.917000) can0 10264040#0002000000000000
(1780155974.918000) can0 10780040#0000000008000000
(1780155974.918000) can0 10210040#0000800000008000
(1780155974.919000) can0 10788040#180A00000000
(1780155974.926000) can0 10220040#1000000040080000
(1780155974.929000) can0 10800040#000000000000
(1780155974.948000) can0 1022E040#3000000030000000
(1780155974.958000) can0 10806040#0000000000
(1780155974.959000) can0 10230040#0000000000000000
(1780155974.959000) can0 13FFE040#
(1780155974.979000) can0 10240040#83FE880100D80FFD
(1780155974.981000) can0 102C0040#803C96B503
(1780155974.984000) can0 102CA040#0000000000000F00
(1780155975.011000) can0 10264040#0002000000000000
(1780155975.014000) can0 10210040#0000800000008000
(1780155975.024000) can0 10220040#10000000400A0000
(1780155975.042000) can0 1022E040#1000000010000000
(1780155975.044000) can0 10230040#2000000020000000
(1780155975.074000) can0 1022A040#00B00000000000
(1780155975.076000) can0 1022C040#00000000
(1780155975.076000) can0 10240040#83FE880100D80000
(1780155975.078000) can0 102C0040#803C96B503
(1780155975.084000) can0 102CA040#0000000000000F00
(1780155975.105000) can0 102CC040#0800000000000000
(1780155975.106000) can0 10264040#0002000000000000
(1780155975.109000) can0 102CE040#0700070000000000
(1780155975.114000) can0 10210040#0000800000008000
(1780155975.137000) can0 10220040#1000000040080000
(1780155975.137000) can0 1022E040#3000000030000000
(1780155975.139000) can0 10780040#0000000008000000
(1780155975.144000) can0 10230040#0000000000000000
(1780155975.149000) can0 10800040#000000000000
(1780155975.169000) can0 10240040#83FF880100D80000
(1780155975.173000) can0 102C0040#803C96B503
(1780155975.185000) can0 102CA040#0000000000000F00
(1780155975.216000) can0 10264040#0002000000000000
(1780155975.217000) can0 10210040#0000800000008000
(1780155975.224000) can0 10220040#1000000040080000
(1780155975.247000) can0 1022E040#1000000010000000
(1780155975.248000) can0 10230040#2000000020000000
(1780155975.278000) can0 10240040#83FE880100D80000
(1780155975.278000) can0 106B8040#0000000000000000
(1780155975.279000) can0 102C0040#803C96B503
(1780155975.284000) can0 102CA040#0000000000000F00
(1780155975.310000) can0 10264040#0002000000000000
(1780155975.314000) can0 10210040#0000800000008000
(1780155975.319000) can0 1022A040#00B00000000000
(1780155975.324000) can0 10220040#1000000040080000
(1780155975.328000) can0 1022C040#00000000
(1780155975.334000) can0 1022E040#3000000030000000
(1780155975.338000) can0 10248040#000060A6A300
(1780155975.356000) can0 10230040#0000000000000000
(1780155975.357000) can0 102CC040#0800000000000000
(1780155975.358000) can0 102CE040#0700070000000000
(1780155975.359000) can0 102D0040#0000000000000000
(1780155975.364000) can0 10240040#83FF880100D80000
(1780155975.389000) can0 102C0040#803C96B503
(1780155975.389000) can0 10806040#0000000000
(1780155975.390000) can0 102CA040#0000000000000F00
(1780155975.391000) can0 10780040#0000000008000000
(1780155975.394000) can0 10788040#100A00000000
(1780155975.399000) can0 10800040#000000000000
(1780155975.417000) can0 10264040#0002000000000000
(1780155975.418000) can0 10210040#0000800000008000
(1780155975.424000) can0 10220040#1000000040080000
(1780155975.449000) can0 1022E040#1000000010000000
(1780155975.449000) can0 10230040#2000000020000000
(1780155975.464000) can0 10240040#83FE880100D80FFD
(1780155975.482000) can0 106B8040#0000000000000000
(1780155975.483000) can0 102C0040#803C96B503
(1780155975.484000) can0 102CA040#0000000000000F00
(1780155975.514000) can0 10264040#0002000000000000
(1780155975.514000) can0 10210040#0000800000008000
(1780155975.524000) can0 10220040#1000000040080000
(1780155975.545000) can0 1022E040#3000000030000000
(1780155975.545000) can0 10230040#0000000000000000
(1780155975.576000) can0 1022A040#00B00000000000
(1780155975.576000) can0 1022C040#00000000
(1780155975.576000) can0 10240040#83FF880100D80FFD
(1780155975.578000) can0 102C0040#803C96B503
(1780155975.584000) can0 102CA040#0000000000000F00
(1780155975.609000) can0 102CC040#0800000000000000
(1780155975.610000) can0 10264040#0002000000000000
(1780155975.611000) can0 102CE040#0700070000000000
(1780155975.614000) can0 10210040#0000800000008000
(1780155975.639000) can0 10220040#1000000040080000
(1780155975.640000) can0 1022E040#1000000010000000
(1780155975.640000) can0 10780040#0000000008000000
(1780155975.644000) can0 10230040#2000000020000000
(1780155975.649000) can0 10800040#000000000000
(1780155975.670000) can0 10240040#83FF880100D80FFD
(1780155975.671000) can0 106B8040#0000000000000000
(1780155975.673000) can0 102C0040#803C96B503
(1780155975.684000) can0 102CA040#0000000000000F00
(1780155975.704000) can0 621#0052000000000000
(1780155975.704000) can0 10264040#0002000000000000
(1780155975.708000) can0 1080A040#00000000
(1780155975.714000) can0 10210040#0000800000008000
(1780155975.735000) can0 1080E040#0000000000000000
(1780155975.736000) can0 10220040#1000000040080000
(1780155975.736000) can0 1022E040#3000000030000000
(1780155975.744000) can0 10230040#0000000000000000
(1780155975.765000) can0 10240040#83FF880100D80FFD
(1780155975.773000) can0 102C0040#803C96B503
(1780155975.797000) can0 102CA040#0000000000000F00
(1780155975.804000) can0 10264040#0002000000000000
(1780155975.828000) can0 10210040#0000800000008000
(1780155975.828000) can0 1022A040#00B00000000000
(1780155975.829000) can0 10220040#1000000040080000
(1780155975.829000) can0 1022C040#00000000
(1780155975.834000) can0 1022E040#1000000010000000
(1780155975.838000) can0 10248040#00005FA6A300
(1780155975.858000) can0 10230040#2000000020000000
(1780155975.858000) can0 10250040#0000
(1780155975.859000) can0 102CC040#0800000000000000
(1780155975.859000) can0 102CE040#0700070000000000
(1780155975.864000) can0 10240040#83FF880100D80FFD
(1780155975.869000) can0 102D0040#0000000000000000
(1780155975.873000) can0 102C0040#803C96B503
(1780155975.879000) can0 102E0040#840000000000005A
(1780155975.884000) can0 102CA040#0000000000000F00
(1780155975.889000) can0 106B8040#0000000000000000
(1780155975.893000) can0 106C0040#00B5D1DE00
(1780155975.898000) can0 1077C040#303003B9
(1780155975.904000) can0 10264040#0002000000000000
(1780155975.909000) can0 10780040#0000000008000000
(1780155975.914000) can0 10210040#0000800000008000
(1780155975.919000) can0 10788040#100A00000000
(1780155975.937000) can0 10220040#1000000040080000
(1780155975.938000) can0 10800040#000000000000
(1780155975.938000) can0 1022E040#3000000030000000
(1780155975.939000) can0 10806040#0000000000
(1780155975.944000) can0 10230040#0000000000000000
(1780155975.968000) can0 10240040#83FF880100D80FFD
(1780155975.973000) can0 102C0040#803C96B503
(1780155975.999000) can0 102CA040#0000000000000F00
(1780155976.004000) can0 10264040#0002000000000000
(1780155976.014000) can0 10210040#0000800000008000
(1780155976.024000) can0 10220040#1000000040080000
(1780155976.045000) can0 1022E040#1000000010000000
(1780155976.046000) can0 10230040#2000000020000000
(1780155976.077000) can0 1022A040#00B00000000000
(1780155976.078000) can0 1022C040#00000000
(1780155976.078000) can0 10240040#83FF880100D80000
(1780155976.078000) can0 102C0040#803C96B503
(1780155976.085000) can0 102CA040#0000000000000F00
(1780155976.090000) can0 106B8040#0000000000000000
(1780155976.108000) can0 102CC040#0800000000000000
(1780155976.108000) can0 10264040#0002000000000000
(1780155976.109000) can0 102CE040#0700070000000000
(1780155976.114000) can0 10210040#0000800000008000
(1780155976.117000) can0 13FFE040#
(1780155976.139000) can0 10220040#1000000040080000
(1780155976.140000) can0 1022E040#3000000030000000
(1780155976.140000) can0 10780040#0000000008000000
(1780155976.156000) can0 10230040#0000000000000000
(1780155976.156000) can0 10800040#000000000000
(1780155976.165000) can0 10240040#83FE880100D80000
(1780155976.185000) can0 102C0040#803C96B503
(1780155976.186000) can0 102CA040#0000000000000F00
(1780155976.217000) can0 10264040#0002000000000000
(1780155976.218000) can0 10814040#00000000
(1780155976.218000) can0 10210040#0000800000008000
(1780155976.224000) can0 10220040#1000000040080000
(1780155976.249000) can0 1022E040#1000000010000000
(1780155976.249000) can0 10230040#2000000020000000
(1780155976.280000) can0 106B8040#0000000000000000
(1780155976.281000) can0 102C0040#803C96B503
(1780155976.284000) can0 102CA040#0000000000000F00
(1780155976.311000) can0 10264040#0002000000000000
(1780155976.314000) can0 10210040#0000800000008000
(1780155976.319000) can0 1022A040#00B00000000000
(1780155976.324000) can0 10220040#1000000040080000
(1780155976.343000) can0 1022C040#00000000
(1780155976.344000) can0 1022E040#3000000030000000
(1780155976.344000) can0 10248040#00005FA6A300
(1780155976.344000) can0 10230040#0000000000000000
(1780155976.350000) can0 102CC040#0800000000000000
(1780155976.354000) can0 102CE040#0700070000000000
(1780155976.375000) can0 102D0040#0000000000000000
(1780155976.376000) can0 10240040#83FF880100D80FFD
(1780155976.378000) can0 102C0040#803C96B503
(1780155976.378000) can0 10806040#0000000000
(1780155976.384000) can0 102CA040#0000000000000F00
(1780155976.404000) can0 10780040#0000000000000000
(1780155976.404000) can0 10788040#100A00000000
(1780155976.405000) can0 10800040#000000000000
(1780155976.405000) can0 10264040#0002000000000000
(1780155976.414000) can0 10210040#0000800000008000
(1780155976.436000) can0 10220040#1000000040080000
(1780155976.437000) can0 1022E040#1000000010000000
(1780155976.445000) can0 10230040#2000000020000000
(1780155976.468000) can0 10240040#83FE880100D80FFD
(1780155976.469000) can0 106B8040#0000000000000000
(1780155976.474000) can0 102C0040#803C96B503
(1780155976.504000) can0 10264040#0002000000000000
(1780155976.514000) can0 10210040#0000800000008000
(1780155976.531000) can0 10220040#1000000040080000
(1780155976.535000) can0 1022E040#3000000030000000
(1780155976.544000) can0 10230040#0000000000000000
(1780155976.564000) can0 1022A040#00B00000000000
(1780155976.568000) can0 1022C040#00000000
(1780155976.574000) can0 10240040#83FF880100D80000
(1780155976.579000) can0 102C0040#803C96B503
(1780155976.584000) can0 102CA040#0000000000000F00
(1780155976.594000) can0 102CC040#0800000000000000
(1780155976.604000) can0 10264040#0002000000000000
(1780155976.609000) can0 102CE040#0700070000000000
(1780155976.625000) can0 10210040#0000800000008000
(1780155976.626000) can0 10220040#10000000400A0000
(1780155976.634000) can0 1022E040#1000000010000000
(1780155976.640000) can0 10780040#0000000000000000
(1780155976.659000) can0 10230040#2000000020000000
(1780155976.660000) can0 10800040#000000000000
(1780155976.664000) can0 10240040#83FE880100D80FFD
(1780155976.670000) can0 106B8040#0000000000000000
(1780155976.689000) can0 102C0040#803C96B503
(1780155976.689000) can0 102CA040#0000000000000F00
(1780155976.693000) can0 621#0052000000000000
(1780155976.721000) can0 1080A040#00000000
(1780155976.721000) can0 10210040#0000800000008000
(1780155976.722000) can0 1080E040#0000000000000000
(1780155976.724000) can0 10220040#1000000040080000
(1780155976.734000) can0 1022E040#3000000030000000
(1780155976.753000) can0 10230040#0000000000000000
(1780155976.764000) can0 10240040#83FE880100D80FFD
(1780155976.784000) can0 102C0040#803C96B503
(1780155976.784000) can0 102CA040#0000000000000F00
(1780155976.815000) can0 10264040#0002000000000000
(1780155976.816000) can0 10210040#0000800000008000
(1780155976.819000) can0 1022A040#00B00000000000
(1780155976.824000) can0 10220040#1000000040080000
(1780155976.828000) can0 1022C040#00000000
(1780155976.845000) can0 1022E040#1000000010000000
(1780155976.846000) can0 10248040#00005FA6A300
(1780155976.846000) can0 10230040#2000000020000000
(1780155976.847000) can0 10250040#0000
(1780155976.855000) can0 102CC040#0800000000000000
(1780155976.859000) can0 102CE040#0700070000000000
(1780155976.877000) can0 10240040#83FF880100D80000
(1780155976.878000) can0 102D0040#0000000000000000
(1780155976.878000) can0 102C0040#803C96B503
(1780155976.879000) can0 102E0040#840000000000005A
(1780155976.885000) can0 102CA040#0000000000000F00
(1780155976.890000) can0 106B8040#0000000000000000
(1780155976.909000) can0 106C0040#00B5D1DE00
(1780155976.910000) can0 1077C040#303003B9
(1780155976.911000) can0 10264040#0002000000000000
(1780155976.911000) can0 10780040#0000000000000000
(1780155976.914000) can0 10210040#0000800000008000
(1780155976.919000) can0 10788040#100A00000000
(1780155976.926000) can0 10220040#1000000040080000
(1780155976.928000) can0 10800040#000000000000
(1780155976.934000) can0 1022E040#3000000030000000
(1780155976.939000) can0 10806040#0000000000
(1780155976.955000) can0 10230040#0000000000000000
(1780155976.964000) can0 10240040#83FF880100D80FFD
(1780155976.986000) can0 102C0040#803C96B503
(1780155976.987000) can0 102CA040#0000000000000F00
(1780155977.019000) can0 10264040#0002000000000000
(1780155977.020000) can0 10210040#0000800000008000
(1780155977.024000) can0 10220040#1000000040080000
(1780155977.034000) can0 1022E040#1000000010000000
(1780155977.050000) can0 10230040#2000000020000000
(1780155977.064000) can0 1022A040#00B00000000000
(1780155977.068000) can0 1022C040#00000000
(1780155977.074000) can0 10240040#83FF880100D80000
(1780155977.078000) can0 102C0040#803C96B503
(1780155977.096000) can0 102CA040#0000000000000F00
(1780155977.096000) can0 106B8040#0000000000000000
(1780155977.096000) can0 102CC040#0800000000000000
(1780155977.105000) can0 10264040#0002000000000000
(1780155977.109000) can0 102CE040#0700070000000000
(1780155977.128000) can0 10210040#0000800000008000
(1780155977.129000) can0 10220040#1000000040080000
(1780155977.134000) can0 1022E040#3000000030000000
(1780155977.140000) can0 10780040#0000000000000000
(1780155977.160000) can0 10230040#0000000000000000
(1780155977.162000) can0 10800040#000000000000
(1780155977.164000) can0 10240040#83FE880100D80FFD
(1780155977.173000) can0 102C0040#803C96B503
(1780155977.192000) can0 102CA040#0000000000000F00
(1780155977.204000) can0 10264040#0002000000000000
(1780155977.223000) can0 10210040#0000800000008000
(1780155977.224000) can0 10220040#1000000040080000
(1780155977.234000) can0 1022E040#1000000010000000
(1780155977.254000) can0 10230040#2000000020000000
(1780155977.264000) can0 10240040#83FE880100D80FFD
(1780155977.285000) can0 102C0040#803C96B503
(1780155977.286000) can0 102CA040#0000000000000F00
(1780155977.316000) can0 10264040#0002000000000000
(1780155977.317000) can0 13FFE040#
(1780155977.319000) can0 10210040#0000800000008000
(1780155977.319000) can0 1022A040#00B00000000000
(1780155977.326000) can0 10220040#1000000040080000
(1780155977.328000) can0 1022C040#00000000
(1780155977.348000) can0 1022E040#3000000030000000
(1780155977.349000) can0 10248040#00005FA6A300
(1780155977.349000) can0 10230040#0000000000000000
(1780155977.349000) can0 102CC040#0800000000000000
(1780155977.354000) can0 102CE040#0700070000000000
(1780155977.359000) can0 102D0040#0000000000000000
(1780155977.379000) can0 102C0040#803C96B503
(1780155977.380000) can0 10806040#0000000000
(1780155977.384000) can0 102CA040#0000000000000F00
(1780155977.389000) can0 10780040#0000000000000000
(1780155977.394000) can0 10788040#100A00000000
(1780155977.413000) can0 10800040#000000000000
(1780155977.413000) can0 10264040#0002000000000000
(1780155977.414000) can0 10210040#0000800000008000
(1780155977.429000) can0 10220040#1000000040080000
(1780155977.434000) can0 1022E040#1000000010000000
(1780155977.464000) can0 10240040#83FE880100D80FFD
(1780155977.469000) can0 106B8040#0000000000000000
(1780155977.473000) can0 102C0040#803C96B503
(1780155977.484000) can0 102CA040#0000000000000F00
(1780155977.505000) can0 10264040#0000000000000000
(1780155977.514000) can0 10210040#0000800000008000
(1780155977.546000) can0 10220040#1000000040080000
(1780155977.549000) can0 1022E040#3000000030000000
(1780155977.549000) can0 10230040#0000000000000000
(1780155977.567000) can0 1022A040#00B00000000000
(1780155977.568000) can0 1022C040#00000000
(1780155977.574000) can0 10240040#83FE880100D80000
(1780155977.579000) can0 102C0040#803C96B503
(1780155977.599000) can0 102CA040#0000000000000F00
(1780155977.600000) can0 102CC040#0800000000000000
(1780155977.604000) can0 10264040#0000000000000000
(1780155977.609000) can0 102CE040#0700070000000000
(1780155977.631000) can0 10220040#1000000040080000
(1780155977.634000) can0 1022E040#1000000010000000
(1780155977.639000) can0 10780040#0000000000000000
(1780155977.644000) can0 10230040#2000000020000000
(1780155977.648000) can0 10800040#000000000000
(1780155977.677000) can0 10240040#83FE880100D80FFD
(1780155977.679000) can0 106B8040#0000000000000000
(1780155977.680000) can0 102C0040#803C96B503
(1780155977.684000) can0 102CA040#0000000000000F00
(1780155977.710000) can0 10264040#0000000000000000
(1780155977.712000) can0 1080A040#00000000
(1780155977.714000) can0 10210040#0000800000008000
(1780155977.719000) can0 1080E040#0000000000000000
(1780155977.724000) can0 10220040#1000000040080000
(1780155977.744000) can0 1022E040#3000000030000000
(1780155977.744000) can0 10230040#0000000000000000
(1780155977.772000) can0 10240040#83FE880100D80FFD
(1780155977.773000) can0 102C0040#803C96B503
(1780155977.784000) can0 102CA040#0000000000000F00
(1780155977.805000) can0 10264040#0000000000000000
(1780155977.814000) can0 10210040#0000800000008000
(1780155977.820000) can0 1022A040#00B00000000000
(1780155977.828000) can0 10220040#1000000040080000
(1780155977.828000) can0 1022C040#00000000
(1780155977.835000) can0 1022E040#1000000010000000
(1780155977.839000) can0 10248040#00005EA6A300
(1780155977.845000) can0 10230040#2000000020000000
(1780155977.848000) can0 10250040#0000
(1780155977.867000) can0 102CC040#0800000000000000
(1780155977.867000) can0 102CE040#0700070000000000
(1780155977.869000) can0 10240040#83FF880100D80000
(1780155977.869000) can0 102D0040#0000000000000000
(1780155977.873000) can0 102C0040#803C96B503
(1780155977.879000) can0 102E0040#840000000000005A
(1780155977.884000) can0 102CA040#0000000000000F00
(1780155977.889000) can0 106B8040#0000000000000000
(1780155977.893000) can0 106C0040#00B5D1DE00
(1780155977.913000) can0 10264040#0000000000000000
(1780155977.914000) can0 10780040#0000000000000000
(1780155977.914000) can0 10210040#0000800000008000
(1780155977.918000) can0 10788040#100A00000000
(1780155977.924000) can0 10220040#1000000040080000
(1780155977.944000) can0 10800040#000000000000
(1780155977.944000) can0 1022E040#3000000030000000
(1780155977.945000) can0 10806040#0000000000
(1780155977.945000) can0 10230040#0000000000000000
(1780155977.979000) can0 10240040#83FE880100D80FFD
(1780155977.981000) can0 102C0040#803C96B503
(1780155977.984000) can0 102CA040#0000000000000F00
(1780155978.006000) can0 10264040#0000000000000000
(1780155978.014000) can0 10210040#0000800000008000
(1780155978.038000) can0 10220040#1000000040080000
(1780155978.039000) can0 1022E040#1000000010000000
(1780155978.044000) can0 10230040#2000000020000000
(1780155978.070000) can0 1022A040#00B00000000000
(1780155978.071000) can0 1022C040#00000000
(1780155978.075000) can0 10240040#83FF880100D80FFD
(1780155978.078000) can0 102C0040#803C96B503
(1780155978.103000) can0 106B8040#0000000000000000
(1780155978.103000) can0 102CC040#0800000000000000
(1780155978.104000) can0 10264040#0000000000000000
(1780155978.109000) can0 102CE040#0700070000000000
(1780155978.114000) can0 10210040#0000800000008000
(1780155978.132000) can0 10220040#1000000040080000
(1780155978.134000) can0 1022E040#3000000030000000
(1780155978.139000) can0 10780040#0000000000000000
(1780155978.144000) can0 10230040#0000000000000000
(1780155978.164000) can0 10240040#83FF880100D80000
(1780155978.174000) can0 102C0040#803C96B503
(1780155978.195000) can0 102CA040#0000000000000F00
(1780155978.204000) can0 10264040#0000000000000000
(1780155978.228000) can0 10210040#0000800000008000
(1780155978.230000) can0 10220040#1000000040080000
(1780155978.234000) can0 1022E040#1000000010000000
(1780155978.264000) can0 10240040#83FF880100D80FFD
(1780155978.269000) can0 106B8040#0000000000000000
(1780155978.292000) can0 102CA040#0000000000000F00
(1780155978.305000) can0 10264040#0000000000000000
(1780155978.314000) can0 10210040#0000800000008000
(1780155978.319000) can0 1022A040#00B00000000000
(1780155978.338000) can0 10220040#1000000040080000
(1780155978.338000) can0 1022C040#00000000
(1780155978.339000) can0 1022E040#3000000030000000
(1780155978.339000) can0 10248040#00005EA6A300
(1780155978.344000) can0 10230040#0000000000000000
(1780155978.349000) can0 102CC040#0800000000000000
(1780155978.370000) can0 102CE040#0700070000000000
(1780155978.370000) can0 102D0040#0000000000000000
(1780155978.371000) can0 10240040#83FE880100D80000
(1780155978.383000) can0 102C0040#803C96B503
(1780155978.384000) can0 10806040#0000000000
(1780155978.384000) can0 102CA040#0000000000000F00
(1780155978.389000) can0 10780040#0000000000000000
(1780155978.393000) can0 10788040#100A00000000
(1780155978.398000) can0 10800040#000000000000
(1780155978.415000) can0 10264040#0000000000000000
(1780155978.416000) can0 10210040#0000800000008000
(1780155978.424000) can0 10220040#1000000040080000
(1780155978.447000) can0 1022E040#1000000010000000
(1780155978.448000) can0 10230040#2000000020000000
(1780155978.480000) can0 106B8040#0000000000000000
(1780155978.480000) can0 102C0040#803C96B503
(1780155978.485000) can0 102CA040#0000000000000F00
(1780155978.514000) can0 10264040#0000000000000000
(1780155978.517000) can0 13FFE040#
(1780155978.518000) can0 10210040#0000800000008000
(1780155978.524000) can0 10220040#1000000040080000
(1780155978.542000) can0 1022E040#3000000030000000
(1780155978.544000) can0 10230040#0000000000000000
(1780155978.579000) can0 1022A040#00B00000000000
(1780155978.580000) can0 1022C040#00000000
(1780155978.581000) can0 10240040#83FE880100D80000
(1780155978.583000) can0 102C0040#803C96B503
(1780155978.584000) can0 102CA040#0000000000000F00
(1780155978.604000) can0 10264040#0000000000000000
(1780155978.609000) can0 102CE040#0700070000000000
(1780155978.614000) can0 10210040#0000800000008000
(1780155978.635000) can0 10220040#1000000040080000
(1780155978.635000) can0 1022E040#1000000010000000
(1780155978.639000) can0 10780040#0000000000000000
(1780155978.644000) can0 10230040#2000000020000000
(1780155978.648000) can0 10800040#000000000000
(1780155978.666000) can0 10240040#83FE880100D80FFD
(1780155978.669000) can0 106B8040#0000000000000000
(1780155978.673000) can0 102C0040#803C96B503
(1780155978.700000) can0 102CA040#0000000000000F00
(1780155978.701000) can0 621#0052000000000000
(1780155978.704000) can0 10264040#0000000000000000
(1780155978.712000) can0 1080A040#00000000
(1780155978.730000) can0 1080E040#0000000000000000
(1780155978.730000) can0 10220040#1000000040080000
(1780155978.731000) can0 10814040#00000000
(1780155978.734000) can0 1022E040#3000000030000000
(1780155978.744000) can0 10230040#0000000000000000
(1780155978.780000) can0 10240040#83FF880100D80000
(1780155978.784000) can0 102C0040#803C96B503
(1780155978.785000) can0 102CA040#0000000000000F00
(1780155978.818000) can0 10264040#0000000000000000
(1780155978.823000) can0 10210040#0000800000008000
(1780155978.829000) can0 1022A040#00B00000000000
(1780155978.830000) can0 10220040#1000000040080000
(1780155978.830000) can0 1022C040#00000000
(1780155978.833000) can0 1022E040#1000000010000000
(1780155978.837000) can0 10242040#01
(1780155978.855000) can0 10230040#2000000020000000
(1780155978.856000) can0 10248040#00005EA6A300
(1780155978.856000) can0 10250040#0000
(1780155978.858000) can0 102CC040#0800000000000000
(1780155978.863000) can0 10240040#83FE880100D80FFD
(1780155978.868000) can0 102CE040#0700070000000000
(1780155978.886000) can0 102C0040#803C96B503
(1780155978.887000) can0 102D0040#0000000000000000
(1780155978.887000) can0 102CA040#0000000000000F00
(1780155978.888000) can0 102E0040#840000000000005A
(1780155978.894000) can0 106B8040#0000000000000000
(1780155978.898000) can0 106C0040#00B5D1DE00
(1780155978.917000) can0 10264040#0000000000000000
(1780155978.918000) can0 1077C040#303003B9
(1780155978.918000) can0 10210040#0000800000008000
(1780155978.918000) can0 10780040#0000000000000000
(1780155978.923000) can0 10220040#1000000040080000
(1780155978.928000) can0 10788040#100A00000000
(1780155978.950000) can0 10800040#000000000000
(1780155978.971000) can0 10230040#0000000000000000
(1780155978.972000) can0 10806040#0000000000
(1780155978.972000) can0 10EC4040#3056305845503638
(1780155978.973000) can0 10EC8040#4B34303238383139
(1780155978.973000) can0 10240040#83FE880100D80FFD
(1780155978.974000) can0 102C0040#803C96B503
(1780155978.996000) can0 102CA040#0000000000000F00
(1780155979.003000) can0 10264040#0000000000000000
(1780155979.028000) can0 10210040#0000800000008000
(1780155979.028000) can0 10220040#1000000040080000
(1780155979.033000) can0 1022E040#1000000010000000
(1780155979.063000) can0 1022A040#00B00000000000
(1780155979.067000) can0 1022C040#00000000
(1780155979.073000) can0 10240040#83FF880100D80FFD
(1780155979.091000) can0 102C0040#803C96B503
(1780155979.092000) can0 102CA040#0000000000000F00
(1780155979.092000) can0 106B8040#0000000000000000
(1780155979.093000) can0 102CC040#0800000000000000
(1780155979.103000) can0 10264040#0000000000000000
(1780155979.122000) can0 102CE040#0700070000000000
(1780155979.123000) can0 10210040#0000800000008000
(1780155979.123000) can0 10220040#1000000040080000
(1780155979.133000) can0 1022E040#3000000030000000
(1780155979.155000) can0 10230040#0000000000000000
(1780155979.156000) can0 10800040#000000000000
(1780155979.163000) can0 10240040#83FE880100D80000
(1780155979.186000) can0 102C0040#803C96B503
(1780155979.187000) can0 102CA040#0000000000000F00
(1780155979.217000) can0 10264040#0000000000000000
(1780155979.218000) can0 10210040#0000800000008000
(1780155979.223000) can0 10220040#1000000040080000
(1780155979.250000) can0 1022E040#1000000010000000
(1780155979.250000) can0 10230040#2000000020000000
(1780155979.263000) can0 10240040#83FF880100D80FFD
(1780155979.281000) can0 106B8040#0000000000000000
(1780155979.281000) can0 102C0040#803C96B503
(1780155979.283000) can0 102CA040#0000000000000F00
(1780155979.312000) can0 10264040#0000000000000000
(1780155979.313000) can0 10210040#0000800000008000
(1780155979.318000) can0 1022A040#00B00000000000
(1780155979.323000) can0 10220040#1000000040080000
(1780155979.343000) can0 1022E040#3000000030000000
(1780155979.344000) can0 10248040#00005EA6A300
(1780155979.345000) can0 10230040#0000000000000000
(1780155979.349000) can0 102CC040#0800000000000000
(1780155979.354000) can0 102CE040#0700070000000000
(1780155979.358000) can0 102D0040#0000000000000000
(1780155979.363000) can0 10240040#83FF880100D80000
(1780155979.372000) can0 102C0040#803C96B503
(1780155979.391000) can0 10806040#0000000000
(1780155979.391000) can0 102CA040#0000000000000F00
(1780155979.391000) can0 10780040#0000000000000000
(1780155979.393000) can0 10788040#100A00000000
(1780155979.398000) can0 10800040#000000000000
(1780155979.403000) can0 10264040#0000000000000000
(1780155979.422000) can0 10210040#0000800000008000
(1780155979.423000) can0 10220040#1000000040080000
(1780155979.433000) can0 1022E040#1000000010000000
(1780155979.454000) can0 10230040#2000000020000000
(1780155979.463000) can0 10240040#83FF880100D80FFD
(1780155979.468000) can0 106B8040#0000000000000000
(1780155979.472000) can0 102C0040#803C96B503
(1780155979.483000) can0 102CA040#0000000000000F00
(1780155979.503000) can0 10264040#0000000000000000
(1780155979.513000) can0 10210040#0000800000008000
(1780155979.532000) can0 10220040#1000000040080000
(1780155979.533000) can0 1022E040#3000000030000000
(1780155979.543000) can0 10230040#0000000000000000
(1780155979.564000) can0 1022A040#00B00000000000
(1780155979.567000) can0 1022C040#00000000
(1780155979.573000) can0 10240040#83FF880100D80FFD
(1780155979.577000) can0 102C0040#803C96B503
(1780155979.597000) can0 102CA040#0000000000000F00
(1780155979.597000) can0 102CC040#0800000000000000
(1780155979.603000) can0 10264040#0000000000000000
(1780155979.608000) can0 102CE040#0700070000000000
(1780155979.627000) can0 10210040#0000800000008000
(1780155979.628000) can0 10220040#1000000040060000
(1780155979.633000) can0 1022E040#1000000010000000
(1780155979.638000) can0 10780040#0000000000000000
(1780155979.659000) can0 10800040#000000000000
(1780155979.663000) can0 10240040#83FF880100D80000
(1780155979.668000) can0 106B8040#0000000000000000
(1780155979.672000) can0 102C0040#803C96B503
(1780155979.690000) can0 102CA040#0000000000000F00
(1780155979.693000) can0 621#0052000000000000
(1780155979.703000) can0 10264040#0000000000000000
(1780155979.722000) can0 1080A040#00000000
(1780155979.723000) can0 10210040#0000800000008000
(1780155979.725000) can0 1080E040#0000000000000000
(1780155979.726000) can0 10220040#1000000040060000
(1780155979.726000) can0 13FFE040#
(1780155979.733000) can0 1022E040#3000000030000000
(1780155979.754000) can0 10230040#0000000000000000
(1780155979.763000) can0 10240040#83FF880100D80000
(1780155979.786000) can0 102C0040#803C96B503
(1780155979.786000) can0 102CA040#0000000000000F00
(1780155979.818000) can0 10264040#0000000000000000
(1780155979.818000) can0 10210040#0000800000008000
(1780155979.819000) can0 1022A040#00B00000000000
(1780155979.823000) can0 10220040#1000000040080000
(1780155979.828000) can0 1022C040#00000000
(1780155979.848000) can0 1022E040#1000000010000000
(1780155979.849000) can0 10248040#00005EA6A300
(1780155979.849000) can0 10230040#2000000020000000
(1780155979.850000) can0 10250040#0000
(1780155979.853000) can0 102CC040#0800000000000000
(1780155979.858000) can0 102CE040#0700070000000000
(1780155979.863000) can0 10240040#83FF880100D80000
(1780155979.868000) can0 102D0040#0000000000000000
(1780155979.872000) can0 102C0040#803C96B503
(1780155979.878000) can0 102E0040#840000000000005A
(1780155979.883000) can0 102CA040#0000000000000F00
(1780155979.888000) can0 106B8040#0000000000000000
(1780155979.892000) can0 106C0040#00B5D1DE00
(1780155979.913000) can0 1077C040#303003B9
(1780155979.913000) can0 10264040#0000000000000000
(1780155979.914000) can0 10780040#0000000000000000
(1780155979.914000) can0 10210040#0000800000008000
(1780155979.918000) can0 10788040#100A00000000
(1780155979.923000) can0 10220040#1000000040080000
(1780155979.942000) can0 10800040#000000000000
(1780155979.943000) can0 1022E040#3000000030000000
(1780155979.944000) can0 10806040#0000000000
(1780155979.944000) can0 10230040#0000000000000000
(1780155979.973000) can0 10240040#83FF880100D80FFD
(1780155979.973000) can0 102C0040#803C96B503
(1780155979.983000) can0 102CA040#0000000000000F00
(1780155980.005000) can0 10264040#0000000000000000
(1780155980.013000) can0 10210040#0000800000008000
(1780155980.036000) can0 10220040#1000000040080000
(1780155980.038000) can0 1022E040#1000000010000000
(1780155980.043000) can0 10230040#2000000020000000
(1780155980.065000) can0 1022A040#00B00000000000
(1780155980.067000) can0 1022C040#00000000
(1780155980.073000) can0 10240040#83FF880100D80FFD
(1780155980.077000) can0 102C0040#803C96B503
(1780155980.097000) can0 102CA040#0000000000000F00
(1780155980.097000) can0 106B8040#0000000000000000
(1780155980.097000) can0 102CC040#0800000000000000
(1780155980.104000) can0 10264040#0000000000000000
(1780155980.108000) can0 102CE040#0700070000000000
(1780155980.130000) can0 10210040#0000800000008000
(1780155980.133000) can0 10220040#1000000040080000
(1780155980.133000) can0 1022E040#3000000030000000
(1780155980.138000) can0 10780040#0000000000000000
(1780155980.143000) can0 10230040#0000000000000000
(1780155980.148000) can0 10800040#000000000000
(1780155980.175000) can0 10240040#83FE880100D80FFD
(1780155980.175000) can0 102C0040#803C96B503
(1780155980.184000) can0 102CA040#0000000000000F00
(1780155980.206000) can0 10264040#0000000000000000
(1780155980.213000) can0 10210040#0000800000008000
(1780155980.238000) can0 10220040#1000000040080000
(1780155980.238000) can0 1022E040#1000000010000000
(1780155980.244000) can0 10230040#2000000020000000
(1780155980.268000) can0 10240040#83FF880100D80FFD
(1780155980.269000) can0 106B8040#0000000000000000
(1780155980.273000) can0 102C0040#803C96B503
(1780155980.283000) can0 102CA040#0000000000000F00
(1780155980.316000) can0 10264040#0000000000000000
(1780155980.317000) can0 10210040#0000800000008000
(1780155980.318000) can0 1022A040#00B00000000000
(1780155980.324000) can0 10220040#1000000040080000
(1780155980.328000) can0 1022C040#00000000
(1780155980.350000) can0 1022E040#3000000030000000
(1780155980.351000) can0 10248040#00005EA6A300
(1780155980.351000) can0 10230040#0000000000000000
(1780155980.351000) can0 102CC040#0800000000000000
(1780155980.353000) can0 102CE040#0700070000000000
(1780155980.358000) can0 102D0040#0000000000000000
(1780155980.379000) can0 102C0040#803C96B503
(1780155980.380000) can0 10806040#0000000000
(1780155980.384000) can0 102CA040#0000000000000F00
(1780155980.389000) can0 10780040#0000000000000000
(1780155980.393000) can0 10788040#100A00000000
(1780155980.413000) can0 10800040#000000000000
(1780155980.414000) can0 10264040#0000000000000000
(1780155980.414000) can0 10210040#0000800000008000
(1780155980.426000) can0 10220040#1000000040080000
(1780155980.434000) can0 1022E040#1000000010000000
(1780155980.463000) can0 10240040#83FE880100D80000
(1780155980.468000) can0 106B8040#0000000000000000
(1780155980.491000) can0 102CA040#0000000000000F00
(1780155980.504000) can0 10264040#0000000000000000
(1780155980.522000) can0 10210040#0000800000008000
(1780155980.526000) can0 10220040#1000000040080000
(1780155980.534000) can0 1022E040#3000000030000000
(1780155980.552000) can0 10230040#0000000000000000
(1780155980.563000) can0 1022A040#00B00000000000
(1780155980.567000) can0 1022C040#00000000
(1780155980.576000) can0 10240040#83FF880100D80FFD
(1780155980.580000) can0 102C0040#803C96B503
(1780155980.599000) can0 102CC040#0800000000000000
(1780155980.603000) can0 10264040#0000000000000000
(1780155980.608000) can0 102CE040#0700070000000000
(1780155980.613000) can0 10210040#0000800000008000
(1780155980.623000) can0 10220040#1000000040080000
(1780155980.646000) can0 1022E040#1000000010000000
(1780155980.647000) can0 10780040#0000000000000000
(1780155980.647000) can0 10230040#2000000020000000
(1780155980.648000) can0 10800040#000000000000
(1780155980.682000) can0 106B8040#0000000000000000
(1780155980.688000) can0 102C0040#803C96B503
(1780155980.689000) can0 102CA040#0000000000000F00
(1780155980.694000) can0 621#0052000000000000
(1780155980.703000) can0 10264040#0000000000000000
(1780155980.712000) can0 1080A040#00000000
(1780155980.713000) can0 10210040#0000800000008000
(1780155980.718000) can0 1080E040#0000000000000000
(1780155980.723000) can0 10220040#1000000040080000
(1780155980.733000) can0 1022E040#3000000030000000
(1780155980.764000) can0 10240040#83FF880100D80000
(1780155980.789000) can0 102CA040#0000000000000F00
(1780155980.819000) can0 10210040#0000800000008000
(1780155980.819000) can0 1022A040#00B00000000000
(1780155980.824000) can0 10220040#1000000040080000
(1780155980.827000) can0 1022C040#00000000
(1780155980.851000) can0 10248040#00005DA6A300
(1780155980.851000) can0 10230040#2000000020000000
(1780155980.852000) can0 10250040#0000
(1780155980.853000) can0 102CC040#0800000000000000
(1780155980.858000) can0 102CE040#0700070000000000
(1780155980.864000) can0 10240040#83FF880100D80FFD
(1780155980.882000) can0 102D0040#0000000000000000
(1780155980.883000) can0 102C0040#803C96B503
(1780155980.884000) can0 102E0040#840000000000005A
(1780155980.884000) can0 102CA040#0000000000000F00
(1780155980.888000) can0 106B8040#0000000000000000
(1780155980.893000) can0 106C0040#00B5D1DE00
(1780155980.914000) can0 10264040#0000000000000000
(1780155980.914000) can0 10780040#0000000000000000
(1780155980.915000) can0 10210040#0000800000008000
(1780155980.918000) can0 10788040#100A00000000
(1780155980.926000) can0 10220040#1000000040080000
(1780155980.947000) can0 1022E040#3000000030000000
(1780155980.948000) can0 10806040#0000000000
(1780155980.949000) can0 10230040#0000000000000000
(1780155980.949000) can0 13FFE040#
(1780155980.978000) can0 10240040#8000880100D80FFD
(1780155980.989000) can0 102C0040#803C96B503
(1780155980.990000) can0 102CA040#0000000000000F00
(1780155981.003000) can0 10264040#0000000000000000
(1780155981.023000) can0 10210040#0000800000008000
(1780155981.025000) can0 10220040#1000000040080000
(1780155981.033000) can0 1022E040#1000000010000000
(1780155981.054000) can0 10230040#2000000020000000
(1780155981.063000) can0 1022A040#00B00000000000
(1780155981.068000) can0 1022C040#00000000
(1780155981.086000) can0 10240040#83FF880100D80FFD
(1780155981.087000) can0 102C0040#803C96B503
(1780155981.087000) can0 102CA040#0000000000000F00
(1780155981.088000) can0 106B8040#0000000000000000
(1780155981.093000) can0 102CC040#0800000000000000
(1780155981.119000) can0 10264040#0000000000000000
(1780155981.120000) can0 102CE040#0700070000000000
(1780155981.120000) can0 10210040#0000800000008000
(1780155981.123000) can0 10220040#1000000040080000
(1780155981.149000) can0 10780040#0000000000000000
(1780155981.150000) can0 10230040#0000000000000000
(1780155981.150000) can0 10800040#000000000000
(1780155981.164000) can0 10240040#83FF880100D80000
(1780155981.182000) can0 102C0040#803C96B503
(1780155981.183000) can0 102CA040#0000000000000F00
(1780155981.212000) can0 10264040#0000000000000000
(1780155981.214000) can0 10814040#00000000
(1780155981.216000) can0 10210040#0000800000008000
(1780155981.223000) can0 10220040#1000000040080000
(1780155981.244000) can0 1022E040#1000000010000000
(1780155981.248000) can0 10230040#2000000020000000
(1780155981.274000) can0 10240040#83FF880100D80000
(1780155981.275000) can0 106B8040#0000000000000000
(1780155981.275000) can0 102C0040#803C96B503
(1780155981.284000) can0 102CA040#0000000000000F00
(1780155981.306000) can0 10264040#0000000000000000
(1780155981.313000) can0 10210040#0000800000008000
(1780155981.318000) can0 1022A040#00B00000000000
(1780155981.338000) can0 10220040#1000000040080000
(1780155981.339000) can0 1022C040#00000000
(1780155981.339000) can0 1022E040#3000000030000000
(1780155981.340000) can0 10248040#00005DA6A300
(1780155981.345000) can0 10230040#0000000000000000
(1780155981.348000) can0 102CC040#0800000000000000
(1780155981.354000) can0 102CE040#0700070000000000
(1780155981.359000) can0 102D0040#0000000000000000
(1780155981.363000) can0 10240040#83FF880100D80000
(1780155981.386000) can0 102C0040#803C96B503
(1780155981.387000) can0 10806040#0000000000
(1780155981.387000) can0 102CA040#0000000000000F00
(1780155981.388000) can0 10780040#0000000000000000
(1780155981.392000) can0 10788040#100A00000000
(1780155981.398000) can0 10800040#000000000000
(1780155981.418000) can0 10264040#0000000000000000
(1780155981.418000) can0 10210040#0000800000008000
(1780155981.426000) can0 10220040#10000000400A0000
(1780155981.450000) can0 10230040#2000000020000000
(1780155981.463000) can0 10240040#83FE880100D80FFD
(1780155981.468000) can0 106B8040#0000000000000000
(1780155981.472000) can0 102C0040#803C96B503
(1780155981.497000) can0 102CA040#0000000000000F00
(1780155981.503000) can0 10264040#0000000000000000
(1780155981.529000) can0 10210040#0000800000008000
(1780155981.531000) can0 10220040#1000000040080000
(1780155981.533000) can0 1022E040#3000000030000000
(1780155981.543000) can0 10230040#0000000000000000
(1780155981.563000) can0 1022A040#00B00000000000
(1780155981.567000) can0 1022C040#00000000
(1780155981.576000) can0 10240040#83FF880100D80FFD
(1780155981.593000) can0 102CA040#0000000000000F00
(1780155981.593000) can0 102CC040#0800000000000000
(1780155981.604000) can0 10264040#0000000000000000
(1780155981.624000) can0 10210040#0000800000008000
(1780155981.625000) can0 10220040#1000000040080000
(1780155981.634000) can0 1022E040#1000000010000000
(1780155981.639000) can0 10780040#0000000000000000
(1780155981.643000) can0 10230040#2000000020000000
(1780155981.647000) can0 10800040#000000000000
(1780155981.671000) can0 10240040#83FF880100D80000
(1780155981.672000) can0 106B8040#0000000000000000
(1780155981.672000) can0 102C0040#803C96B503
(1780155981.683000) can0 102CA040#0000000000000F00
(1780155981.702000) can0 621#0052000000000000
(1780155981.703000) can0 10264040#0000000000000000
(1780155981.708000) can0 1080A040#00000000
(1780155981.713000) can0 10210040#0000800000008000
(1780155981.733000) can0 1080E040#0000000000000000
(1780155981.735000) can0 10220040#1000000040080000
(1780155981.735000) can0 1022E040#3000000030000000
(1780155981.743000) can0 10230040#0000000000000000
(1780155981.765000) can0 10240040#83FF880100D80000
(1780155981.773000) can0 102C0040#803C96B503
(1780155981.799000) can0 102CA040#0000000000000F00
(1780155981.803000) can0 10264040#0000000000000000
(1780155981.828000) can0 1022A040#00B00000000000
(1780155981.830000) can0 10220040#1000000040080000
(1780155981.830000) can0 1022C040#00000000
(1780155981.833000) can0 1022E040#1000000010000000
(1780155981.838000) can0 10248040#00005DA6A300
(1780155981.860000) can0 10250040#0000
(1780155981.861000) can0 102CC040#0800000000000000
(1780155981.862000) can0 102CE040#0700070000000000
(1780155981.863000) can0 10240040#83FF880100D80FFD
(1780155981.869000) can0 102D0040#0000000000000000
(1780155981.873000) can0 102C0040#803C96B503
(1780155981.891000) can0 102CA040#0000000000000F00
(1780155981.893000) can0 106B8040#0000000000000000
(1780155981.893000) can0 106C0040#00B5D1DE00
(1780155981.897000) can0 1077C040#303003B9
(1780155981.903000) can0 10264040#0000000000000000
(1780155981.922000) can0 10780040#0000000000000000
(1780155981.922000) can0 10210040#0000800000008000
(1780155981.923000) can0 10788040#100A00000000
(1780155981.923000) can0 10220040#1000000040080000
(1780155981.927000) can0 10800040#000000000000
(1780155981.933000) can0 1022E040#3000000030000000
(1780155981.954000) can0 10230040#0000000000000000
(1780155981.963000) can0 10240040#83FF880100D80FFD
(1780155981.985000) can0 102C0040#803C96B503
(1780155981.986000) can0 102CA040#0000000000000F00
(1780155982.018000) can0 10264040#0000000000000000
(1780155982.020000) can0 10210040#0000800000008000
(1780155982.023000) can0 10220040#1000000040080000
(1780155982.049000) can0 10230040#2000000020000000
(1780155982.063000) can0 1022A040#00B00000000000
(1780155982.067000) can0 1022C040#00000000
(1780155982.074000) can0 10240040#83FE880100D80000
(1780155982.077000) can0 102C0040#803C96B503
(1780155982.083000) can0 102CA040#0000000000000F00
(1780155982.089000) can0 106B8040#0000000000000000
(1780155982.093000) can0 102CC040#0800000000000000
(1780155982.111000) can0 10264040#0000000000000000
(1780155982.112000) can0 102CE040#0700070000000000
(1780155982.114000) can0 10210040#0000800000008000
(1780155982.117000) can0 13FFE040#
(1780155982.123000) can0 10220040#10000000400A0000
(1780155982.141000) can0 1022E040#3000000030000000
(1780155982.141000) can0 10780040#0000000000000000
(1780155982.143000) can0 10230040#0000000000000000
(1780155982.147000) can0 10800040#000000000000
(1780155982.173000) can0 10240040#83FE880100D80FFD
(1780155982.176000) can0 102C0040#803C96B503
(1780155982.183000) can0 102CA040#0000000000000F00
(1780155982.206000) can0 10264040#0000000000000000
(1780155982.213000) can0 10210040#0000800000008000
(1780155982.238000) can0 10220040#1000000040080000
(1780155982.238000) can0 1022E040#1000000010000000
(1780155982.243000) can0 10230040#2000000020000000
(1780155982.268000) can0 10240040#83FE880100D80000
(1780155982.270000) can0 106B8040#0000000000000000
(1780155982.272000) can0 102C0040#803C96B503
(1780155982.283000) can0 102CA040#0000000000000F00
(1780155982.317000) can0 10264040#0000000000000000
(1780155982.320000) can0 10210040#0000800000008000
(1780155982.320000) can0 1022A040#00B00000000000
(1780155982.323000) can0 10220040#1000000040060000
(1780155982.327000) can0 1022C040#00000000
(1780155982.346000) can0 1022E040#3000000030000000
(1780155982.347000) can0 10248040#00005DA6A300
(1780155982.348000) can0 10230040#0000000000000000
(1780155982.348000) can0 102CC040#0800000000000000
(1780155982.353000) can0 102CE040#0700070000000000
(1780155982.358000) can0 102D0040#0000000000000000
(1780155982.378000) can0 10240040#8000880100D80FFD
(1780155982.379000) can0 102C0040#803C96B503
(1780155982.379000) can0 10806040#0000000000
(1780155982.383000) can0 102CA040#0000000000000F00
(1780155982.388000) can0 10780040#0000000000000000
(1780155982.394000) can0 10788040#100A00000000
(1780155982.398000) can0 10800040#000000000000
(1780155982.403000) can0 10264040#0000000000000000
(1780155982.425000) can0 10210040#0000800000008000
(1780155982.428000) can0 10220040#10000000400A0000
(1780155982.433000) can0 1022E040#1000000010000000
(1780155982.463000) can0 10240040#83FE880100D80FFD
(1780155982.469000) can0 106B8040#0000000000000000
(1780155982.488000) can0 102C0040#803C96B503
(1780155982.488000) can0 102CA040#0000000000000F00
(1780155982.520000) can0 10210040#0000800000008000
(1780155982.523000) can0 10220040#1000000040080000
(1780155982.533000) can0 1022E040#3000000030000000
(1780155982.551000) can0 10230040#0000000000000000
(1780155982.562000) can0 1022A040#00B00000000000
(1780155982.581000) can0 1022C040#00000000
(1780155982.582000) can0 10240040#83FF880100D80000
(1780155982.582000) can0 102C0040#803C96B503
(1780155982.583000) can0 102CA040#0000000000000F00
(1780155982.593000) can0 102CC040#0800000000000000
(1780155982.615000) can0 10264040#0000000000000000
(1780155982.615000) can0 102CE040#0700070000000000
(1780155982.616000) can0 10210040#0000800000008000
(1780155982.626000) can0 10220040#1000000040080000
(1780155982.646000) can0 1022E040#1000000010000000
(1780155982.646000) can0 10780040#0000000000000000
(1780155982.647000) can0 10230040#2000000020000000
(1780155982.647000) can0 10800040#000000000000
(1780155982.680000) can0 10240040#83FF880100D80FFD
(1780155982.681000) can0 106B8040#0000000000000000
(1780155982.681000) can0 102C0040#803C96B503
(1780155982.683000) can0 102CA040#0000000000000F00
(1780155982.693000) can0 621#0052000000000000
(1780155982.703000) can0 10264040#0000000000000000
(1780155982.707000) can0 1080A040#00000000
(1780155982.727000) can0 10210040#0000800000008000
(1780155982.728000) can0 1080E040#0000000000000000
(1780155982.728000) can0 10220040#10000000400A0000
(1780155982.733000) can0 1022E040#3000000030000000
(1780155982.758000) can0 10230040#0000000000000000
(1780155982.763000) can0 10240040#83FF880100D80FFD
(1780155982.789000) can0 102CA040#0000000000000F00
(1780155982.819000) can0 10210040#0000800000008000
(1780155982.820000) can0 1022A040#00B00000000000
(1780155982.823000) can0 10220040#1000000040080000
(1780155982.827000) can0 1022C040#00000000
(1780155982.833000) can0 1022E040#1000000010000000
(1780155982.851000) can0 10248040#00005DA6A300
(1780155982.851000) can0 10230040#2000000020000000
(1780155982.851000) can0 10250040#0000
(1780155982.853000) can0 102CC040#0800000000000000
(1780155982.858000) can0 102CE040#0700070000000000
(1780155982.863000) can0 10240040#83FF880100D80000
(1780155982.883000) can0 102D0040#0000000000000000
(1780155982.884000) can0 102C0040#803C96B503
(1780155982.884000) can0 102E0040#840000000000005A
(1780155982.884000) can0 102CA040#0000000000000F00
(1780155982.888000) can0 106B8040#0000000000000000
(1780155982.892000) can0 106C0040#00B5D1DE00
(1780155982.896000) can0 1077C040#303003B9
(1780155982.914000) can0 10264040#0000000000000000
(1780155982.914000) can0 10780040#0000000000000000
(1780155982.914000) can0 10210040#0000800000008000
(1780155982.917000) can0 10788040#100A00000000
(1780155982.923000) can0 10220040#1000000040080000
(1780155982.927000) can0 10800040#000000000000
(1780155982.944000) can0 1022E040#3000000030000000
(1780155982.945000) can0 10806040#0000000000
(1780155982.945000) can0 10230040#0000000000000000
(1780155982.982000) can0 10240040#83FF880100D80000
(1780155983.004000) can0 102C0040#803C96B503
(1780155983.006000) can0 102CA040#0000000000000F00
(1780155983.006000) can0 10264040#0000000000000000
(1780155983.025000) can0 10210040#0000800000008000
(1780155983.026000) can0 10220040#1000000040080000
(1780155983.033000) can0 1022E040#1000000010000000
(1780155983.057000) can0 10230040#2000000020000000
(1780155983.062000) can0 1022A040#00B00000000000
(1780155983.066000) can0 1022C040#00000000
(1780155983.089000) can0 10240040#83FE880100D80FFD
(1780155983.089000) can0 102C0040#803C96B503
(1780155983.090000) can0 102CA040#0000000000000F00
(1780155983.090000) can0 106B8040#0000000000000000
(1780155983.093000) can0 102CC040#0800000000000000
(1780155983.103000) can0 10264040#0000000000000000
(1780155983.120000) can0 102CE040#0700070000000000
(1780155983.121000) can0 10210040#0000800000008000
(1780155983.123000) can0 10220040#1000000040080000
(1780155983.133000) can0 1022E040#3000000030000000
(1780155983.152000) can0 10780040#0000000000000000
(1780155983.152000) can0 10230040#0000000000000000
(1780155983.152000) can0 10800040#000000000000
(1780155983.163000) can0 10240040#83FF880100D80FFD
(1780155983.183000) can0 102C0040#803C96B503
(1780155983.184000) can0 102CA040#0000000000000F00
(1780155983.215000) can0 10264040#0000000000000000
(1780155983.216000) can0 10210040#0000800000008000
(1780155983.223000) can0 10220040#1000000040080000
(1780155983.247000) can0 1022E040#1000000010000000
(1780155983.248000) can0 10230040#2000000020000000
(1780155983.278000) can0 106B8040#0000000000000000
(1780155983.280000) can0 102C0040#803C96B503
(1780155983.283000) can0 102CA040#0000000000000F00
(1780155983.309000) can0 10264040#0000000000000000
(1780155983.309000) can0 13FFE040#
(1780155983.313000) can0 10210040#0000800000008000
(1780155983.317000) can0 1022A040#00B00000000000
(1780155983.323000) can0 10220040#1000000040080000
(1780155983.341000) can0 1022C040#00000000
(1780155983.341000) can0 1022E040#3000000030000000
(1780155983.341000) can0 10248040#00005DA6A300
(1780155983.343000) can0 10230040#0000000000000000
(1780155983.348000) can0 102CC040#0800000000000000
(1780155983.353000) can0 102CE040#0700070000000000
(1780155983.372000) can0 102D0040#0000000000000000
(1780155983.373000) can0 10240040#83FE880100D80000
(1780155983.374000) can0 102C0040#803C96B503
(1780155983.377000) can0 10806040#0000000000
(1780155983.383000) can0 102CA040#0000000000000F00
(1780155983.405000) can0 10788040#100A00000000
(1780155983.406000) can0 10800040#000000000000
(1780155983.407000) can0 10264040#0000000000000000
(1780155983.413000) can0 10210040#0000800000008000
(1780155983.436000) can0 10220040#1000000040080000
(1780155983.437000) can0 1022E040#1000000010000000
(1780155983.443000) can0 10230040#2000000020000000
(1780155983.467000) can0 10240040#83FE880100D80FFD
(1780155983.468000) can0 106B8040#0000000000000000
(1780155983.472000) can0 102C0040#803C96B503
(1780155983.498000) can0 102CA040#0000000000000F00
(1780155983.503000) can0 10264040#0000000000000000
(1780155983.513000) can0 10210040#0000800000008000
(1780155983.523000) can0 10220040#10000000400A0000
(1780155983.545000) can0 1022E040#3000000030000000
(1780155983.545000) can0 10230040#0000000000000000
(1780155983.576000) can0 1022A040#00B00000000000
(1780155983.577000) can0 1022C040#00000000
(1780155983.577000) can0 10240040#83FF880100D80000
(1780155983.578000) can0 102C0040#803C96B503
(1780155983.583000) can0 102CA040#0000000000000F00
(1780155983.608000) can0 102CC040#0800000000000000
(1780155983.608000) can0 10264040#0000000000000000
(1780155983.609000) can0 102CE040#0700070000000000
(1780155983.612000) can0 10210040#0000800000008000
(1780155983.623000) can0 10220040#1000000040080000
(1780155983.640000) can0 1022E040#1000000010000000
(1780155983.640000) can0 10780040#0000000000000000
(1780155983.642000) can0 10230040#2000000020000000
(1780155983.647000) can0 10800040#000000000000
(1780155983.671000) can0 10240040#83FF880100D80FFD
(1780155983.672000) can0 106B8040#0000000000000000
(1780155983.672000) can0 102C0040#803C96B503
(1780155983.683000) can0 102CA040#0000000000000F00
(1780155983.703000) can0 621#0052000000000000
(1780155983.703000) can0 10264040#0000000000000000
(1780155983.706000) can0 1080A040#00000000
(1780155983.712000) can0 10210040#0000800000008000
(1780155983.718000) can0 1080E040#0000000000000000
(1780155983.722000) can0 10220040#1000000040080000
(1780155983.726000) can0 10814040#00000000
(1780155983.732000) can0 1022E040#3000000030000000
(1780155983.742000) can0 10230040#0000000000000000
(1780155983.766000) can0 10240040#83FF880100D80000
(1780155983.771000) can0 102C0040#803C96B503
(1780155983.798000) can0 102CA040#0000000000000F00
(1780155983.803000) can0 10264040#0000000000000000
(1780155983.812000) can0 10210040#0000800000008000
(1780155983.817000) can0 1022A040#00B00000000000
(1780155983.822000) can0 10220040#1000000040080000
(1780155983.826000) can0 1022C040#00000000
(1780155983.844000) can0 1022E040#1000000010000000
(1780155983.844000) can0 10242040#01
(1780155983.845000) can0 10230040#2000000020000000
(1780155983.847000) can0 10248040#00005DA6A300
(1780155983.851000) can0 10250040#0000
(1780155983.857000) can0 102CC040#0800000000000000
(1780155983.875000) can0 10240040#8000880100D80000
(1780155983.876000) can0 102CE040#0700070000000000
(1780155983.876000) can0 102C0040#803C96B503
(1780155983.877000) can0 102D0040#0000000000000000
(1780155983.883000) can0 102CA040#0000000000000F00
(1780155983.887000) can0 102E0040#840000000000005A
(1780155983.907000) can0 106B8040#0000000000000000
(1780155983.907000) can0 106C0040#00B5D1DE00
(1780155983.908000) can0 10264040#0000000000000000
(1780155983.908000) can0 1077C040#303003B9
(1780155983.912000) can0 10210040#0000800000008000
(1780155983.918000) can0 10780040#0000000000000000
(1780155983.937000) can0 10220040#1000000040080000
(1780155983.937000) can0 10788040#100A00000000
(1780155983.938000) can0 1022E040#3000000030000000
(1780155983.938000) can0 10800040#000000000000
(1780155983.943000) can0 10230040#0000000000000000
(1780155983.947000) can0 10806040#0000000000
(1780155983.968000) can0 10EC8040#4B34303238383139
(1780155983.969000) can0 10240040#83FF880100D80FFD
(1780155983.971000) can0 102C0040#803C96B503
(1780155983.983000) can0 102CA040#0000000000000F00
(1780155984.015000) can0 10264040#0000000000000000
(1780155984.016000) can0 10210040#0000800000008000
(1780155984.022000) can0 10220040#1000000040080000
(1780155984.046000) can0 1022E040#1000000010000000
(1780155984.046000) can0 10230040#2000000020000000
(1780155984.077000) can0 1022A040#00B00000000000
(1780155984.078000) can0 1022C040#00000000
(1780155984.078000) can0 10240040#83FF880100D80000
(1780155984.079000) can0 102C0040#803C96B503
(1780155984.082000) can0 102CA040#0000000000000F00
(1780155984.087000) can0 106B8040#0000000000000000
(1780155984.109000) can0 10264040#0000000000000000
(1780155984.113000) can0 102CE040#0700070000000000
(1780155984.113000) can0 10210040#0000800000008000
(1780155984.122000) can0 10220040#1000000040080000
(1780155984.140000) can0 1022E040#3000000030000000
(1780155984.140000) can0 10780040#0000000000000000
(1780155984.142000) can0 10230040#0000000000000000
(1780155984.147000) can0 10800040#000000000000
(1780155984.171000) can0 10240040#83FF880100D80000
(1780155984.171000) can0 102C0040#803C96B503
(1780155984.182000) can0 102CA040#0000000000000F00
(1780155984.202000) can0 10264040#0000000000000000
(1780155984.213000) can0 10210040#0000800000008000
(1780155984.233000) can0 10220040#1000000040080000
(1780155984.234000) can0 1022E040#1000000010000000
(1780155984.242000) can0 10230040#2000000020000000
(1780155984.265000) can0 10240040#8000880100D80000
(1780155984.267000) can0 106B8040#0000000000000000
(1780155984.271000) can0 102C0040#803C96B503
(1780155984.298000) can0 102CA040#0000000000000F00
(1780155984.302000) can0 10264040#0000000000000000
(1780155984.312000) can0 10210040#0000800000008000
(1780155984.330000) can0 1022A040#00B00000000000
(1780155984.330000) can0 10220040#1000000040080000
(1780155984.331000) can0 1022C040#00000000
(1780155984.332000) can0 1022E040#3000000030000000
(1780155984.337000) can0 10248040#00005DA6A300
(1780155984.342000) can0 10230040#0000000000000000
(1780155984.362000) can0 102CC040#0800000000000000
(1780155984.362000) can0 102CE040#0700070000000000
(1780155984.362000) can0 102D0040#0000000000000000
(1780155984.363000) can0 10240040#83FE880100D80FFD
(1780155984.372000) can0 102C0040#803C96B503
(1780155984.394000) can0 102CA040#0000000000000F00
(1780155984.394000) can0 10780040#0000000000000000
(1780155984.394000) can0 10788040#100A00000000
(1780155984.397000) can0 10800040#000000000000
(1780155984.403000) can0 10264040#0000000000000000
(1780155984.426000) can0 10210040#0000800000008000
(1780155984.429000) can0 10220040#10000000400A0000
(1780155984.433000) can0 1022E040#1000000010000000
(1780155984.456000) can0 10230040#2000000020000000
(1780155984.463000) can0 10240040#83FF880100D80FFD
(1780155984.468000) can0 106B8040#0000000000000000
(1780155984.488000) can0 102CA040#0000000000000F00
(1780155984.503000) can0 10264040#0000000000000000
(1780155984.506000) can0 13FFE040#
(1780155984.512000) can0 10210040#0000800000008000
(1780155984.539000) can0 10220040#1000000040080000
(1780155984.546000) can0 1022E040#3000000030000000
(1780155984.549000) can0 10230040#0000000000000000
(1780155984.568000) can0 1022A040#00B00000000000
(1780155984.570000) can0 1022C040#00000000
(1780155984.572000) can0 10240040#83FF880100D80FFD
(1780155984.576000) can0 102C0040#803C96B503
(1780155984.597000) can0 102CA040#0000000000000F00
(1780155984.598000) can0 102CC040#0800000000000000
(1780155984.602000) can0 10264040#0000000000000000
(1780155984.607000) can0 102CE040#0700070000000000
(1780155984.629000) can0 10220040#1000000040080000
(1780155984.632000) can0 1022E040#1000000010000000
(1780155984.638000) can0 10780040#0000000000000000
(1780155984.643000) can0 10230040#2000000020000000
(1780155984.647000) can0 10800040#000000000000
(1780155984.676000) can0 10240040#83FF880100D80FFD
(1780155984.677000) can0 106B8040#0000000000000000
(1780155984.677000) can0 102C0040#803C96B503
(1780155984.683000) can0 102CA040#0000000000000F00
(1780155984.707000) can0 621#0052000000000000
(1780155984.708000) can0 10264040#0000000000000000
(1780155984.710000) can0 1080A040#00000000
(1780155984.712000) can0 10210040#0000800000008000
(1780155984.718000) can0 1080E040#0000000000000000
(1780155984.738000) can0 1022E040#3000000030000000
(1780155984.742000) can0 10230040#0000000000000000
(1780155984.770000) can0 10240040#83FE880100D80FFD
(1780155984.773000) can0 102C0040#803C96B503
(1780155984.782000) can0 102CA040#0000000000000F00
(1780155984.802000) can0 10264040#0000000000000000
(1780155984.813000) can0 10210040#0000800000008000
(1780155984.834000) can0 1022A040#00B00000000000
(1780155984.835000) can0 10220040#1000000040080000
(1780155984.836000) can0 1022C040#00000000
(1780155984.836000) can0 1022E040#1000000010000000
(1780155984.837000) can0 10248040#00005DA6A300
(1780155984.843000) can0 10230040#2000000020000000
(1780155984.846000) can0 10250040#0000
(1780155984.866000) can0 102CC040#0800000000000000
(1780155984.867000) can0 102CE040#0700070000000000
(1780155984.868000) can0 10240040#83FF880100D80000
(1780155984.868000) can0 102D0040#0000000000000000
(1780155984.871000) can0 102C0040#803C96B503
(1780155984.877000) can0 102E0040#840000000000005A
(1780155984.896000) can0 102CA040#0000000000000F00
(1780155984.896000) can0 106B8040#0000000000000000
(1780155984.897000) can0 106C0040#00B5D1DE00
(1780155984.897000) can0 1077C040#303003B9
(1780155984.902000) can0 10264040#0000000000000000
(1780155984.908000) can0 10780040#0000000000000000
(1780155984.926000) can0 10210040#0000800000008000
(1780155984.928000) can0 10788040#100A00000000
(1780155984.928000) can0 10220040#1000000040080000
(1780155984.929000) can0 10800040#000000000000
(1780155984.933000) can0 1022E040#3000000030000000
(1780155984.937000) can0 10806040#0000000000
(1780155984.962000) can0 10240040#83FF880100D80000
(1780155984.971000) can0 102C0040#803C96B503
(1780155984.989000) can0 102CA040#0000000000000F00
(1780155985.002000) can0 10264040#0000000000000000
(1780155985.019000) can0 10210040#0000800000008000
(1780155985.022000) can0 10220040#1000000040080000
(1780155985.032000) can0 1022E040#1000000010000000
(1780155985.052000) can0 10230040#2000000020000000
(1780155985.063000) can0 1022A040#00B00000000000
(1780155985.083000) can0 10240040#83FE880100D80FFD
(1780155985.086000) can0 102C0040#803C96B503
(1780155985.087000) can0 102CA040#0000000000000F00
(1780155985.088000) can0 106B8040#0000000000000000
(1780155985.092000) can0 102CC040#0800000000000000
(1780155985.112000) can0 10264040#0000000000000000
(1780155985.113000) can0 102CE040#0700070000000000
(1780155985.113000) can0 10210040#0000800000008000
(1780155985.123000) can0 10220040#1000000040080000
(1780155985.145000) can0 1022E040#3000000030000000
(1780155985.148000) can0 10780040#0000000000000000
(1780155985.149000) can0 10230040#0000000000000000
(1780155985.149000) can0 10800040#000000000000
(1780155985.175000) can0 10240040#83FE880100D80FFD
(1780155985.176000) can0 102C0040#803C96B503
(1780155985.182000) can0 102CA040#0000000000000F00
(1780155985.208000) can0 10264040#0000000000000000
(1780155985.212000) can0 10210040#0000800000008000
(1780155985.238000) can0 1022E040#1000000010000000
(1780155985.242000) can0 10230040#2000000020000000
(1780155985.271000) can0 10240040#83FF880100D80000
(1780155985.271000) can0 106B8040#0000000000000000
(1780155985.272000) can0 102C0040#803C96B503
(1780155985.283000) can0 102CA040#0000000000000F00
(1780155985.303000) can0 10264040#0000000000000000
(1780155985.312000) can0 10210040#0000800000008000
(1780155985.333000) can0 1022A040#00B00000000000
(1780155985.334000) can0 10220040#1000000040080000
(1780155985.336000) can0 1022C040#00000000
(1780155985.336000) can0 1022E040#3000000030000000
(1780155985.339000) can0 10248040#00005DA6A300
(1780155985.342000) can0 10230040#0000000000000000
(1780155985.361000) can0 102CC040#0800000000000000
(1780155985.362000) can0 102CE040#0700070000000000
(1780155985.362000) can0 102D0040#0000000000000000
(1780155985.363000) can0 10240040#8000880100D80000
(1780155985.372000) can0 102C0040#803C96B503
(1780155985.393000) can0 10806040#0000000000
(1780155985.396000) can0 102CA040#0000000000000F00
(1780155985.396000) can0 10780040#0000000000000000
(1780155985.396000) can0 10788040#100A00000000
(1780155985.397000) can0 10800040#000000000000
(1780155985.403000) can0 10264040#0000000000000000
(1780155985.423000) can0 10210040#0000800000008000
(1780155985.425000) can0 10220040#1000000040080000
(1780155985.432000) can0 1022E040#1000000010000000
(1780155985.456000) can0 10230040#2000000020000000
(1780155985.462000) can0 10240040#83FF880100D80000
(1780155985.468000) can0 106B8040#0000000000000000
(1780155985.486000) can0 102C0040#803C96B503
(1780155985.487000) can0 102CA040#0000000000000F00
(1780155985.519000) can0 10210040#0000800000008000
(1780155985.523000) can0 10220040#1000000040080000
(1780155985.533000) can0 1022E040#3000000030000000
(1780155985.543000) can0 10230040#0000000000000000
(1780155985.567000) can0 1022A040#00B00000000000
(1780155985.567000) can0 1022C040#00000000
(1780155985.573000) can0 10240040#83FE880100D80FFD
(1780155985.578000) can0 102C0040#803C96B503
(1780155985.596000) can0 102CA040#0000000000000F00
(1780155985.597000) can0 102CC040#0800000000000000
(1780155985.603000) can0 10264040#0000000000000000
(1780155985.609000) can0 102CE040#0700070000000000
(1780155985.629000) can0 10220040#1000000040080000
(1780155985.632000) can0 1022E040#1000000010000000
(1780155985.637000) can0 10780040#0000000000000000
(1780155985.642000) can0 10230040#2000000020000000
(1780155985.647000) can0 10800040#000000000000
(1780155985.675000) can0 10240040#83FF880100D80000
(1780155985.676000) can0 106B8040#0000000000000000
(1780155985.676000) can0 102C0040#803C96B503
(1780155985.683000) can0 102CA040#0000000000000F00
(1780155985.710000) can0 10264040#0000000000000000
(1780155985.713000) can0 1080A040#00000000
(1780155985.714000) can0 10210040#0000800000008000
(1780155985.717000) can0 1080E040#0000000000000000
(1780155985.739000) can0 13FFE040#
(1780155985.739000) can0 1022E040#3000000030000000
(1780155985.742000) can0 10230040#0000000000000000
(1780155985.770000) can0 10240040#83FF880100D80000
(1780155985.771000) can0 102C0040#803C96B503
(1780155985.783000) can0 102CA040#0000000000000F00
(1780155985.804000) can0 10264040#0000000000000000
(1780155985.812000) can0 10210040#0000800000008000
(1780155985.835000) can0 10220040#1000000040080000
(1780155985.835000) can0 1022C040#00000000
(1780155985.836000) can0 1022E040#1000000010000000
(1780155985.836000) can0 10248040#00005DA6A300
(1780155985.842000) can0 10230040#2000000020000000
(1780155985.846000) can0 10250040#0000
(1780155985.869000) can0 102CC040#0800000000000000
(1780155985.870000) can0 102CE040#0700070000000000
(1780155985.870000) can0 10240040#83FE880100D80FFD
(1780155985.871000) can0 102D0040#0000000000000000
(1780155985.871000) can0 102C0040#803C96B503
(1780155985.877000) can0 102E0040#840000000000005A
(1780155985.896000) can0 102CA040#0000000000000F00
(1780155985.896000) can0 106B8040#0000000000000000
(1780155985.896000) can0 106C0040#00B5D1DE00
(1780155985.897000) can0 1077C040#303003B9
(1780155985.903000) can0 10264040#0000000000000000
(1780155985.907000) can0 10780040#0000000000000000
(1780155985.930000) can0 10788040#100A00000000
(1780155985.930000) can0 10220040#1000000040080000
(1780155985.931000) can0 10800040#000000000000
(1780155985.932000) can0 1022E040#3000000030000000
(1780155985.937000) can0 10806040#0000000000
(1780155985.943000) can0 10230040#0000000000000000
(1780155985.976000) can0 10240040#83FF880100D80000
(1780155985.977000) can0 102C0040#803C96B503
(1780155985.982000) can0 102CA040#0000000000000F00
(1780155986.006000) can0 10264040#0000000000000000
(1780155986.012000) can0 10210040#0000800000008000
(1780155986.038000) can0 10220040#1000000040080000
(1780155986.038000) can0 1022E040#1000000010000000
(1780155986.043000) can0 10230040#2000000020000000
(1780155986.070000) can0 1022A040#00B00000000000
(1780155986.071000) can0 1022C040#00000000
(1780155986.072000) can0 10240040#83FF880100D80FFD
(1780155986.076000) can0 102C0040#803C96B503
(1780155986.082000) can0 102CA040#0000000000000F00
(1780155986.099000) can0 106B8040#0000000000000000
(1780155986.100000) can0 102CC040#0800000000000000
(1780155986.103000) can0 10264040#0000000000000000
(1780155986.107000) can0 102CE040#0700070000000000
(1780155986.112000) can0 10210040#0000800000008000
(1780155986.132000) can0 10220040#1000000040080000
(1780155986.132000) can0 1022E040#3000000030000000
(1780155986.138000) can0 10780040#0000000000000000
(1780155986.143000) can0 10230040#0000000000000000
(1780155986.163000) can0 10240040#83FE880100D80FFD
(1780155986.172000) can0 102C0040#803C96B503
(1780155986.196000) can0 102CA040#0000000000000F00
(1780155986.203000) can0 10264040#0000000000000000
(1780155986.207000) can0 10814040#00000000
(1780155986.213000) can0 10210040#0000800000008000
(1780155986.223000) can0 10220040#1000000040080000
(1780155986.243000) can0 1022E040#1000000010000000
(1780155986.244000) can0 10230040#2000000020000000
(1780155986.273000) can0 10240040#83FF880100D80000
(1780155986.276000) can0 106B8040#0000000000000000
(1780155986.277000) can0 102C0040#803C96B503
(1780155986.283000) can0 102CA040#0000000000000F00
(1780155986.303000) can0 10264040#0000000000000000
(1780155986.312000) can0 10210040#0000800000008000
(1780155986.317000) can0 1022A040#00B00000000000
(1780155986.335000) can0 10220040#1000000040080000
(1780155986.336000) can0 1022C040#00000000
(1780155986.336000) can0 1022E040#3000000030000000
(1780155986.336000) can0 10248040#00005DA6A300
(1780155986.342000) can0 10230040#0000000000000000
(1780155986.347000) can0 102CC040#0800000000000000
(1780155986.368000) can0 102CE040#0700070000000000
(1780155986.369000) can0 102D0040#0000000000000000
(1780155986.369000) can0 10240040#83FF880100D80000
(1780155986.372000) can0 102C0040#803C96B503
(1780155986.376000) can0 10806040#0000000000
(1780155986.400000) can0 10780040#0000000000000000
(1780155986.401000) can0 10788040#100A00000000
(1780155986.401000) can0 10800040#000000000000
(1780155986.402000) can0 10264040#0000000000000000
(1780155986.412000) can0 10210040#0000800000008000
(1780155986.430000) can0 10220040#1000000040080000
(1780155986.432000) can0 1022E040#1000000010000000
(1780155986.443000) can0 10230040#2000000020000000
(1780155986.463000) can0 10240040#83FF880100D80000
(1780155986.468000) can0 106B8040#0000000000000000
(1780155986.472000) can0 102C0040#803C96B503
(1780155986.496000) can0 102CA040#0000000000000F00
(1780155986.502000) can0 10264040#0000000000000000
(1780155986.529000) can0 10210040#0000800000008000
(1780155986.529000) can0 10220040#1000000040080000
(1780155986.532000) can0 1022E040#3000000030000000
(1780155986.556000) can0 10230040#0000000000000000
(1780155986.562000) can0 1022A040#00B00000000000
(1780155986.566000) can0 1022C040#00000000
(1780155986.588000) can0 102C0040#803C96B503
(1780155986.589000) can0 102CA040#0000000000000F00
(1780155986.593000) can0 102CC040#0800000000000000
(1780155986.603000) can0 10264040#0000000000000000
(1780155986.609000) can0 102CE040#0700070000000000
(1780155986.612000) can0 10210040#0000800000008000
(1780155986.635000) can0 10220040#1000000040080000
(1780155986.635000) can0 1022E040#1000000010000000
(1780155986.638000) can0 10780040#0000000000000000
(1780155986.643000) can0 10230040#2000000020000000
(1780155986.647000) can0 10800040#000000000000
(1780155986.668000) can0 10240040#83FF880100D80000
(1780155986.669000) can0 106B8040#0000000000000000
(1780155986.671000) can0 102C0040#803C96B503
(1780155986.698000) can0 102CA040#0000000000000F00
(1780155986.699000) can0 621#0052000000000000
(1780155986.703000) can0 10264040#0000000000000000
(1780155986.706000) can0 1080A040#00000000
(1780155986.712000) can0 10210040#0000800000008000
(1780155986.718000) can0 1080E040#0000000000000000
(1780155986.722000) can0 10220040#1000000040080000
(1780155986.747000) can0 1022E040#3000000030000000
(1780155986.749000) can0 10230040#0000000000000000
(1780155986.776000) can0 10240040#83FF880100D80FFD
(1780155986.777000) can0 102C0040#803C96B503
(1780155986.782000) can0 102CA040#0000000000000F00
(1780155986.809000) can0 10264040#0000000000000000
(1780155986.812000) can0 10210040#0000800000008000
(1780155986.817000) can0 1022A040#00B00000000000
(1780155986.822000) can0 10220040#1000000040080000
(1780155986.826000) can0 1022C040#00000000
(1780155986.832000) can0 1022E040#1000000010000000
(1780155986.836000) can0 10248040#00005DA6A300
(1780155986.854000) can0 10230040#2000000020000000
(1780155986.854000) can0 10250040#0000
(1780155986.855000) can0 102CC040#0800000000000000
(1780155986.857000) can0 102CE040#0700070000000000
(1780155986.862000) can0 10240040#83FF880100D80FFD
(1780155986.867000) can0 102D0040#0000000000000000
(1780155986.885000) can0 102C0040#803C96B503
(1780155986.886000) can0 102E0040#840000000000005A
(1780155986.886000) can0 102CA040#0000000000000F00
(1780155986.887000) can0 106B8040#0000000000000000
(1780155986.891000) can0 106C0040#00B5D1DE00
(1780155986.896000) can0 1077C040#303003B9
(1780155986.919000) can0 10264040#0000000000000000
(1780155986.921000) can0 10780040#0000000000000000
(1780155986.924000) can0 10210040#0000800000008000
(1780155986.925000) can0 10788040#100A00000000
(1780155986.926000) can0 10220040#1000000040080000
(1780155986.927000) can0 10800040#000000000000
(1780155986.932000) can0 1022E040#3000000030000000
(1780155986.936000) can0 10806040#0000000000
(1780155986.942000) can0 10230040#0000000000000000
(1780155986.947000) can0 13FFE040#
(1780155986.963000) can0 10240040#83FF880100D80000
(1780155986.972000) can0 102C0040#803C96B503
(1780155986.996000) can0 102CA040#0000000000000F00
(1780155987.022000) can0 10264040#0000000000000000
(1780155987.022000) can0 10210040#0000800000008000
(1780155987.024000) can0 10220040#1000000040080000
(1780155987.032000) can0 1022E040#1000000010000000
(1780155987.057000) can0 10230040#2000000020000000
(1780155987.062000) can0 1022A040#00B00000000000
(1780155987.066000) can0 1022C040#00000000
(1780155987.072000) can0 10240040#83FF880100D80FFD
(1780155987.088000) can0 102C0040#803C96B503
(1780155987.090000) can0 102CA040#0000000000000F00
(1780155987.092000) can0 106B8040#0000000000000000
(1780155987.095000) can0 102CC040#0800000000000000
(1780155987.102000) can0 10264040#0000000000000000
(1780155987.120000) can0 102CE040#0700070000000000
(1780155987.120000) can0 10210040#0000800000008000
(1780155987.122000) can0 10220040#1000000040080000
(1780155987.132000) can0 1022E040#3000000030000000
(1780155987.151000) can0 10780040#0000000000000000
(1780155987.152000) can0 10230040#0000000000000000
(1780155987.153000) can0 10800040#000000000000
(1780155987.162000) can0 10240040#83FF880100D80000
(1780155987.183000) can0 102C0040#803C96B503
(1780155987.184000) can0 102CA040#0000000000000F00
(1780155987.215000) can0 10264040#0000000000000000
(1780155987.215000) can0 10210040#0000800000008000
(1780155987.222000) can0 10220040#1000000040080000
(1780155987.247000) can0 1022E040#1000000010000000
(1780155987.248000) can0 10230040#2000000020000000
(1780155987.262000) can0 10240040#83FF880100D80FFD
(1780155987.278000) can0 106B8040#0000000000000000
(1780155987.279000) can0 102C0040#803C96B503
(1780155987.282000) can0 102CA040#0000000000000F00
(1780155987.310000) can0 10264040#0000000000000000
(1780155987.312000) can0 10210040#0000800000008000
(1780155987.316000) can0 1022A040#00B00000000000
(1780155987.322000) can0 10220040#1000000040080000
(1780155987.341000) can0 1022C040#00000000
(1780155987.341000) can0 1022E040#3000000030000000
(1780155987.342000) can0 10248040#00005DA6A300
(1780155987.342000) can0 10230040#0000000000000000
(1780155987.347000) can0 102CC040#0800000000000000
(1780155987.352000) can0 102CE040#0700070000000000
(1780155987.371000) can0 102D0040#0000000000000000
(1780155987.373000) can0 10240040#83FE880100D80000
(1780155987.374000) can0 102C0040#803C96B503
(1780155987.376000) can0 10806040#0000000000
(1780155987.382000) can0 102CA040#0000000000000F00
(1780155987.387000) can0 10780040#0000000000000000
(1780155987.391000) can0 10788040#100A00000000
(1780155987.396000) can0 10800040#000000000000
(1780155987.402000) can0 10264040#0000000000000000
(1780155987.412000) can0 10210040#0000800000008000
(1780155987.435000) can0 10220040#1000000040080000
(1780155987.436000) can0 1022E040#1000000010000000
(1780155987.442000) can0 10230040#2000000020000000
(1780155987.468000) can0 10240040#83FF880100D80000
(1780155987.468000) can0 106B8040#0000000000000000
(1780155987.471000) can0 102C0040#803C96B503
(1780155987.482000) can0 102CA040#0000000000000F00
(1780155987.502000) can0 10264040#0000000000000000
(1780155987.512000) can0 10210040#0000800000008000
(1780155987.530000) can0 10220040#1000000040080000
(1780155987.532000) can0 1022E040#3000000030000000
(1780155987.542000) can0 10230040#0000000000000000
(1780155987.563000) can0 1022A040#00B00000000000
(1780155987.566000) can0 1022C040#00000000
(1780155987.572000) can0 10240040#83FE880100D80FFD
(1780155987.576000) can0 102C0040#803C96B503
(1780155987.594000) can0 102CA040#0000000000000F00
(1780155987.594000) can0 102CC040#0800000000000000
(1780155987.602000) can0 10264040#0000000000000000
(1780155987.607000) can0 102CE040#0700070000000000
(1780155987.626000) can0 10210040#0000800000008000
(1780155987.627000) can0 10220040#1000000040080000
(1780155987.632000) can0 1022E040#1000000010000000
(1780155987.637000) can0 10780040#0000000000000000
(1780155987.658000) can0 10800040#000000000000
(1780155987.662000) can0 10240040#83FE880100D80FFD
(1780155987.667000) can0 106B8040#0000000000000000
(1780155987.671000) can0 102C0040#803C96B503
(1780155987.690000) can0 102CA040#0000000000000F00
(1780155987.691000) can0 621#0052000000000000
(1780155987.702000) can0 10264040#0000000000000000
(1780155987.723000) can0 1080A040#00000000
(1780155987.724000) can0 10210040#0000800000008000
(1780155987.725000) can0 1080E040#0000000000000000
(1780155987.725000) can0 10220040#1000000040080000
(1780155987.732000) can0 1022E040#3000000030000000
(1780155987.753000) can0 10230040#0000000000000000
(1780155987.762000) can0 10240040#83FF880100D80FFD
(1780155987.785000) can0 102C0040#803C96B503
(1780155987.786000) can0 102CA040#0000000000000F00
(1780155987.816000) can0 10264040#0000000000000000
(1780155987.817000) can0 10210040#0000800000008000
(1780155987.818000) can0 1022A040#00B00000000000
(1780155987.822000) can0 10220040#1000000040080000
(1780155987.826000) can0 1022C040#00000000
(1780155987.847000) can0 1022E040#1000000010000000
(1780155987.848000) can0 10248040#00005DA6A300
(1780155987.848000) can0 10230040#2000000020000000
(1780155987.849000) can0 10250040#0000
(1780155987.852000) can0 102CC040#0800000000000000
(1780155987.857000) can0 102CE040#0700070000000000
(1780155987.878000) can0 102D0040#0000000000000000
(1780155987.879000) can0 102C0040#803C96B503
(1780155987.880000) can0 102E0040#840000000000005A
(1780155987.882000) can0 102CA040#0000000000000F00
(1780155987.887000) can0 106B8040#0000000000000000
(1780155987.891000) can0 106C0040#00B5D1DE00
(1780155987.910000) can0 1077C040#303003B9
(1780155987.911000) can0 10264040#0000000000000000
(1780155987.911000) can0 10780040#0000000000000000
(1780155987.912000) can0 10210040#0000800000008000
(1780155987.916000) can0 10788040#100A00000000
(1780155987.922000) can0 10220040#10000000400A0000
(1780155987.941000) can0 10800040#000000000000
(1780155987.941000) can0 1022E040#3000000030000000
(1780155987.942000) can0 10806040#0000000000
(1780155987.942000) can0 10230040#0000000000000000
(1780155987.973000) can0 10240040#83FE880100D80FFD
(1780155987.974000) can0 102C0040#803C96B503
(1780155987.982000) can0 102CA040#0000000000000F00
(1780155988.004000) can0 10264040#0000000000000000
(1780155988.012000) can0 10210040#0000800000008000
(1780155988.036000) can0 10220040#1000000040080000
(1780155988.036000) can0 1022E040#1000000010000000
(1780155988.042000) can0 10230040#2000000020000000
(1780155988.066000) can0 1022A040#00B00000000000
(1780155988.066000) can0 1022C040#00000000
(1780155988.072000) can0 10240040#83FF880100D80FFD
(1780155988.076000) can0 102C0040#803C96B503
(1780155988.098000) can0 106B8040#0000000000000000
(1780155988.098000) can0 102CC040#0800000000000000
(1780155988.102000) can0 10264040#0000000000000000
(1780155988.107000) can0 102CE040#0700070000000000
(1780155988.112000) can0 10210040#0000800000008000
(1780155988.129000) can0 13FFE040#
(1780155988.129000) can0 10220040#1000000040080000
(1780155988.132000) can0 1022E040#3000000030000000
(1780155988.137000) can0 10780040#0000000000000000
(1780155988.142000) can0 10230040#0000000000000000
(1780155988.161000) can0 10800040#000000000000
(1780155988.167000) can0 10240040#83FE880100D80FFD
(1780155988.171000) can0 102C0040#803C96B503
(1780155988.192000) can0 102CA040#0000000000000F00
(1780155988.202000) can0 10264040#0000000000000000
(1780155988.223000) can0 10210040#0000800000008000
(1780155988.224000) can0 10220040#1000000040080000
(1780155988.232000) can0 1022E040#1000000010000000
(1780155988.285000) can0 10230040#2000000020000000
(1780155988.286000) can0 10240040#83FF880100D80000
(1780155988.287000) can0 106B8040#0000000000000000
(1780155988.287000) can0 102C0040#803C96B503
(1780155988.288000) can0 102CA040#0000000000000F00
(1780155988.316000) can0 10264040#0000000000000000
(1780155988.317000) can0 10210040#0000800000008000
(1780155988.317000) can0 1022A040#00B00000000000
(1780155988.322000) can0 10220040#1000000040080000
(1780155988.325000) can0 1022C040#00000000
(1780155988.348000) can0 10248040#00005DA6A300
(1780155988.349000) can0 10230040#0000000000000000
(1780155988.349000) can0 102CC040#0800000000000000
(1780155988.352000) can0 102CE040#0700070000000000
(1780155988.357000) can0 102D0040#0000000000000000
(1780155988.362000) can0 10240040#83FE880100D80000
(1780155988.379000) can0 102C0040#803C96B503
(1780155988.380000) can0 10806040#0000000000
(1780155988.382000) can0 102CA040#0000000000000F00
(1780155988.387000) can0 10780040#0000000000000000
(1780155988.391000) can0 10788040#100A00000000
(1780155988.411000) can0 10800040#000000000000
(1780155988.412000) can0 10264040#0000000000000000
(1780155988.412000) can0 10210040#0000800000008000
(1780155988.422000) can0 10220040#10000000400A0000
(1780155988.444000) can0 1022E040#1000000010000000
(1780155988.445000) can0 10230040#2000000020000000
(1780155988.475000) can0 10240040#83FF880100D80FFD
(1780155988.476000) can0 106B8040#0000000000000000
(1780155988.476000) can0 102C0040#803C96B503
(1780155988.482000) can0 102CA040#0000000000000F00
(1780155988.506000) can0 10264040#0000000000000000
(1780155988.511000) can0 10210040#0000800000008000
(1780155988.521000) can0 10220040#1000000040080000
(1780155988.532000) can0 1022E040#3000000030000000
(1780155988.554000) can0 10230040#0000000000000000
(1780155988.561000) can0 1022A040#00B00000000000
(1780155988.566000) can0 1022C040#00000000
(1780155988.586000) can0 10240040#83FF880100D80FFD
(1780155988.586000) can0 102C0040#803C96B503
(1780155988.587000) can0 102CA040#0000000000000F00
(1780155988.592000) can0 102CC040#0800000000000000
(1780155988.617000) can0 10264040#0000000000000000
(1780155988.617000) can0 102CE040#0700070000000000
(1780155988.618000) can0 10210040#0000800000008000
(1780155988.622000) can0 10220040#1000000040080000
(1780155988.650000) can0 10780040#0000000000000000
(1780155988.651000) can0 10230040#2000000020000000
(1780155988.651000) can0 10800040#000000000000
(1780155988.662000) can0 10240040#83FF880100D80000
(1780155988.679000) can0 106B8040#0000000000000000
(1780155988.680000) can0 102C0040#803C96B503
(1780155988.682000) can0 102CA040#0000000000000F00
(1780155988.691000) can0 621#0052000000000000
(1780155988.711000) can0 10264040#0000000000000000
(1780155988.714000) can0 1080A040#00000000
(1780155988.714000) can0 10210040#0000800000008000
(1780155988.716000) can0 1080E040#0000000000000000
(1780155988.721000) can0 10220040#1000000040080000
(1780155988.741000) can0 10814040#00000000
(1780155988.741000) can0 1022E040#3000000030000000
(1780155988.742000) can0 10230040#0000000000000000
(1780155988.772000) can0 10240040#83FF880100D80FFD
(1780155988.772000) can0 102C0040#803C96B503
(1780155988.782000) can0 102CA040#0000000000000F00
(1780155988.803000) can0 10264040#0000000000000000
(1780155988.812000) can0 10210040#0000800000008000
(1780155988.816000) can0 1022A040#00B00000000000
(1780155988.834000) can0 10220040#1000000040080000
(1780155988.834000) can0 1022C040#00000000
(1780155988.835000) can0 1022E040#1000000010000000
(1780155988.835000) can0 10242040#01
(1780155988.842000) can0 10230040#2000000020000000
(1780155988.846000) can0 10248040#00005DA6A300
(1780155988.865000) can0 10250040#0000
(1780155988.865000) can0 102CC040#0800000000000000
(1780155988.866000) can0 10240040#83FF880100D80000
(1780155988.867000) can0 102CE040#0700070000000000
(1780155988.871000) can0 102C0040#803C96B503
(1780155988.877000) can0 102D0040#0000000000000000
(1780155988.896000) can0 102CA040#0000000000000F00
(1780155988.896000) can0 102E0040#840000000000005A
(1780155988.896000) can0 106B8040#0000000000000000
(1780155988.897000) can0 106C0040#00B5D1DE00
(1780155988.902000) can0 10264040#0000000000000000
(1780155988.906000) can0 1077C040#303003B9
(1780155988.927000) can0 10210040#0000800000008000
(1780155988.928000) can0 10780040#0000000000000000
(1780155988.928000) can0 10220040#1000000040080000
(1780155988.929000) can0 10788040#100A00000000
(1780155988.931000) can0 1022E040#3000000030000000
(1780155988.936000) can0 10800040#000000000000
(1780155988.942000) can0 10230040#0000000000000000
(1780155988.958000) can0 10806040#0000000000
(1780155988.959000) can0 10EC4040#3056305845503638
(1780155988.959000) can0 10EC8040#4B34303238383139
(1780155988.961000) can0 10240040#83FF880100D80000
(1780155988.971000) can0 102C0040#803C96B503
(1780155988.991000) can0 102CA040#0000000000000F00
(1780155989.002000) can0 10264040#0000000000000000
(1780155989.022000) can0 10210040#0000800000008000
(1780155989.028000) can0 10220040#1000000040080000
(1780155989.031000) can0 1022E040#1000000010000000
(1780155989.053000) can0 10230040#2000000020000000
(1780155989.061000) can0 1022A040#00B00000000000
(1780155989.066000) can0 1022C040#00000000
(1780155989.084000) can0 10240040#83FF880100D80FFD
(1780155989.085000) can0 102C0040#803C96B503
(1780155989.085000) can0 102CA040#0000000000000F00
(1780155989.087000) can0 106B8040#0000000000000000
(1780155989.091000) can0 102CC040#0800000000000000
(1780155989.116000) can0 10264040#0000000000000000
(1780155989.117000) can0 102CE040#0700070000000000
(1780155989.118000) can0 10210040#0000800000008000
(1780155989.122000) can0 10220040#1000000040080000
(1780155989.148000) can0 10780040#0000000000000000
(1780155989.150000) can0 10230040#0000000000000000
(1780155989.151000) can0 10800040#000000000000
(1780155989.161000) can0 10240040#83FF880100D80000
(1780155989.178000) can0 102C0040#803C96B503
(1780155989.181000) can0 102CA040#0000000000000F00
(1780155989.209000) can0 10264040#0000000000000000
(1780155989.211000) can0 10210040#0000800000008000
(1780155989.222000) can0 10220040#1000000040080000
(1780155989.242000) can0 1022E040#1000000010000000
(1780155989.244000) can0 10230040#2000000020000000
(1780155989.273000) can0 10240040#83FE880100D80FFD
(1780155989.273000) can0 106B8040#0000000000000000
(1780155989.276000) can0 102C0040#803C96B503
(1780155989.282000) can0 102CA040#0000000000000F00
(1780155989.305000) can0 10264040#0000000000000000
(1780155989.305000) can0 13FFE040#
(1780155989.311000) can0 10210040#0000800000008000
(1780155989.317000) can0 1022A040#00B00000000000
(1780155989.337000) can0 10220040#1000000040080000
(1780155989.339000) can0 1022C040#00000000
(1780155989.339000) can0 1022E040#3000000030000000
(1780155989.339000) can0 10248040#00005DA6A300
(1780155989.342000) can0 10230040#0000000000000000
(1780155989.347000) can0 102CC040#0800000000000000
(1780155989.368000) can0 102D0040#0000000000000000
(1780155989.369000) can0 10240040#83FF880100D80000
(1780155989.370000) can0 102C0040#803C96B503
(1780155989.376000) can0 10806040#0000000000
(1780155989.381000) can0 102CA040#0000000000000F00
(1780155989.386000) can0 10780040#0000000000000000
(1780155989.391000) can0 10788040#100A00000000
(1780155989.396000) can0 10800040#000000000000
(1780155989.413000) can0 10264040#0000000000000000
(1780155989.414000) can0 10210040#0000800000008000
(1780155989.422000) can0 10220040#1000000040080000
(1780155989.445000) can0 1022E040#1000000010000000
(1780155989.447000) can0 10230040#2000000020000000
(1780155989.479000) can0 106B8040#0000000000000000
(1780155989.479000) can0 102C0040#803C96B503
(1780155989.482000) can0 102CA040#0000000000000F00
(1780155989.511000) can0 10264040#0000000000000000
(1780155989.513000) can0 10210040#0000800000008000
(1780155989.522000) can0 10220040#10000000400A0000
(1780155989.541000) can0 1022E040#3000000030000000
(1780155989.542000) can0 10230040#0000000000000000
(1780155989.572000) can0 1022A040#00B00000000000
(1780155989.573000) can0 1022C040#00000000
(1780155989.573000) can0 10240040#83FF880100D80000
(1780155989.576000) can0 102C0040#803C96B503
(1780155989.582000) can0 102CA040#0000000000000F00
(1780155989.607000) can0 102CC040#0800000000000000
(1780155989.610000) can0 10264040#0000000000000000
(1780155989.612000) can0 102CE040#0700070000000000
(1780155989.617000) can0 10210040#0000800000008000
(1780155989.635000) can0 10220040#1000000040080000
(1780155989.635000) can0 1022E040#1000000010000000
(1780155989.636000) can0 10780040#0000000000000000
(1780155989.641000) can0 10230040#2000000020000000
(1780155989.646000) can0 10800040#000000000000
(1780155989.668000) can0 10240040#83FF880100D80000
(1780155989.668000) can0 106B8040#0000000000000000
(1780155989.671000) can0 102C0040#803C96B503
(1780155989.684000) can0 102CA040#0000000000000F00
(1780155989.691000) can0 621#0052000000000000
(1780155989.714000) can0 10264040#0000000000000000
(1780155989.715000) can0 1080A040#00000000
(1780155989.715000) can0 10210040#0000800000008000
(1780155989.716000) can0 1080E040#0000000000000000
(1780155989.722000) can0 10220040#1000000040080000
(1780155989.747000) can0 1022E040#3000000030000000
(1780155989.749000) can0 10230040#0000000000000000
(1780155989.778000) can0 102C0040#803C96B503
(1780155989.782000) can0 102CA040#0000000000000F00
(1780155989.810000) can0 10264040#0000000000000000
(1780155989.812000) can0 10210040#0000800000008000
(1780155989.816000) can0 1022A040#00B00000000000
(1780155989.821000) can0 10220040#1000000040080000
(1780155989.841000) can0 1022E040#1000000010000000
(1780155989.842000) can0 10248040#00005DA6A300
(1780155989.842000) can0 10230040#2000000020000000
(1780155989.845000) can0 10250040#0000
(1780155989.852000) can0 102CC040#0800000000000000
(1780155989.873000) can0 10240040#83FF880100D80FFD
(1780155989.874000) can0 102D0040#0000000000000000
(1780155989.875000) can0 102C0040#803C96B503
(1780155989.876000) can0 102E0040#840000000000005A
(1780155989.882000) can0 102CA040#0000000000000F00
(1780155989.887000) can0 106B8040#0000000000000000
(1780155989.905000) can0 106C0040#00B5D1DE00
(1780155989.905000) can0 1077C040#303003B9
(1780155989.906000) can0 10264040#0000000000000000
(1780155989.906000) can0 10780040#0000000000000000
(1780155989.912000) can0 10210040#0000800000008000
(1780155989.916000) can0 10788040#100A00000000
(1780155989.937000) can0 10220040#1000000040080000
(1780155989.938000) can0 10800040#000000000000
(1780155989.938000) can0 1022E040#3000000030000000
(1780155989.939000) can0 10806040#0000000000
(1780155989.943000) can0 10230040#0000000000000000
(1780155989.969000) can0 10240040#83FF880100D80000
(1780155989.971000) can0 102C0040#803C96B503
(1780155989.982000) can0 102CA040#0000000000000F00
(1780155990.001000) can0 10264040#0000000000000000
(1780155990.012000) can0 10210040#0000800000008000
(1780155990.034000) can0 10220040#1000000040080000
(1780155990.037000) can0 1022E040#1000000010000000
(1780155990.042000) can0 10230040#2000000020000000
(1780155990.064000) can0 1022A040#00B00000000000
(1780155990.065000) can0 1022C040#00000000
(1780155990.071000) can0 10240040#83FF880100D80000
(1780155990.075000) can0 102C0040#803C96B503
(1780155990.096000) can0 102CA040#0000000000000F00
(1780155990.097000) can0 106B8040#0000000000000000
(1780155990.097000) can0 102CC040#0800000000000000
(1780155990.101000) can0 10264040#0000000000000000
(1780155990.106000) can0 102CE040#0700070000000000
(1780155990.131000) can0 10220040#1000000040080000
(1780155990.132000) can0 1022E040#3000000030000000
(1780155990.137000) can0 10780040#0000000000000000
(1780155990.165000) can0 10800040#000000000000
