# cantool TX/RX capture bitrate=33333.333 fclk=170000000 brp=255 prop=1 phase1=13 phase2=5 sjw=4
# tx t=005.056s 100# note=native Corsa E SWCAN wake pulse
# tx t=005.058s 13FFE040# note=native fake BCM/source 0x40 presence seed
# tx t=005.058s 621#0140000000000000 note=native network-management startup/init seed
# tx t=005.059s 10210040#0000800000008000 note=native BCM/body base status from IPC_disconnected capture
# tx t=005.059s 10264040#0000000000000000 note=native BCM/body base zero-status frame
# tx t=005.059s 102CA040#0000000000000F00 note=native BCM/body base 102CA040 context
# tx t=005.060s 10220040#1000000040080000 note=native BCM/body 10220040 key-on variant
# tx t=005.060s 10230040#0000000000000000 note=native BCM/body 10230040 captured counter/state cycle variant 1/4
# tx t=005.060s 1022E040#1000000010000000 note=native BCM/body 1022E040 key-on counter/state cycle variant 1/3
# tx t=005.060s 10240040#83FE880100D70FFD note=native BCM/body 10240040 key-on/second-turn variant
# tx t=005.060s 102C0040#803C96B503 note=native BCM/body 102C0040 key-on captured context
# tx t=005.061s 10754040#040400 note=native key/body context immediate key-on hold variant
# tx t=005.061s 10242040#02 note=native 10242040 immediate second-turn/key-on hold state
(1780159223.819000) can0 100#
(1780159223.820000) can0 13FFE040#
(1780159223.820000) can0 621#0140000000000000
(1780159223.820000) can0 10210040#0000800000008000
(1780159223.820000) can0 10264040#0000000000000000
(1780159223.821000) can0 102CA040#0000000000000F00
(1780159223.826000) can0 10220040#1000000040080000
(1780159223.844000) can0 10244060#06
(1780159223.844000) can0 10230040#0000000000000000
(1780159223.844000) can0 1022E040#1000000010000000
(1780159223.845000) can0 10240040#83FE880100D70FFD
(1780159223.846000) can0 102C0040#803C96B503
(1780159223.850000) can0 10754040#040400
(1780159223.854000) can0 10242040#02
(1780159223.875000) can0 103BC060#00
(1780159223.875000) can0 103D6060#00
(1780159223.875000) can0 103DA060#00
(1780159223.875000) can0 10448060#00
(1780159223.876000) can0 1045C060#40
(1780159223.878000) can0 10774060#00
(1780159223.880000) can0 10812060#00
(1780159223.883000) can0 1084A060#00
(1780159223.885000) can0 10A04060#00
(1780159223.889000) can0 10ACE060#1E00200000000000
(1780159223.907000) can0 10AE8060#030E010104050000
(1780159223.907000) can0 13FFE060#
(1780159223.919000) can0 10AE8060#0016010800000000
# tx t=005.165s 621#0052000000000000 note=native key-on network-management seed
# tx t=005.166s 10210040#0000800000008000 note=native BCM/body base status from IPC_disconnected capture
(1780159223.923000) can0 621#0052000000000000
(1780159223.924000) can0 10210040#0000800000008000
(1780159223.954000) can0 62C#0112000000000000
(1780159223.954000) can0 10244060#02
(1780159223.954000) can0 13FFE060#
(1780159223.954000) can0 10AE8060#030E010104050000
(1780159223.957000) can0 10424060#079964
(1780159223.959000) can0 1084A060#00
(1780159223.966000) can0 103BC060#00
(1780159223.969000) can0 103D6060#00
(1780159223.986000) can0 103DA060#00
(1780159223.986000) can0 1045C060#40
(1780159223.986000) can0 10AE8060#0016010800000000
(1780159223.986000) can0 10812060#00
(1780159223.999000) can0 10ACE060#2B00000000000000
# tx t=005.260s 10210040#0000800000008000 note=native BCM/body base status from IPC_disconnected capture
(1780159224.018000) can0 10210040#0000800000008000
(1780159224.049000) can0 10244060#02
# tx t=005.308s 10230040#1000000010000000 note=native BCM/body 10230040 captured counter/state cycle variant 2/4
# tx t=005.308s 1022E040#2000000020000000 note=native BCM/body 1022E040 key-on counter/state cycle variant 2/3
(1780159224.066000) can0 10230040#1000000010000000
(1780159224.066000) can0 1022E040#2000000020000000
(1780159224.108000) can0 10ACE060#1E00200000000000
# tx t=005.356s 10210040#0000800000008000 note=native BCM/body base status from IPC_disconnected capture
(1780159224.113000) can0 10210040#0000800000008000
(1780159224.156000) can0 10244060#02
(1780159224.218000) can0 10ACE060#2B00000000000000
# tx t=005.467s 10210040#0000800000008000 note=native BCM/body base status from IPC_disconnected capture
(1780159224.224000) can0 10210040#0000800000008000
(1780159224.238000) can0 10AFC060#38FFFFFFFFFFFF2B
# tx t=005.563s 10210040#0000800000008000 note=native BCM/body base status from IPC_disconnected capture
# tx t=005.563s 10230040#2000000020000000 note=native BCM/body 10230040 captured counter/state cycle variant 3/4
# tx t=005.563s 1022E040#3000000030000000 note=native BCM/body 1022E040 key-on counter/state cycle variant 3/3
(1780159224.321000) can0 10210040#0000800000008000
(1780159224.321000) can0 10230040#2000000020000000
(1780159224.321000) can0 1022E040#3000000030000000
# tx t=005.655s 10210040#0000800000008000 note=native BCM/body base status from IPC_disconnected capture
(1780159224.412000) can0 10210040#0000800000008000
# tx t=005.766s 10210040#0000800000008000 note=native BCM/body base status from IPC_disconnected capture
(1780159224.524000) can0 10210040#0000800000008000
# tx t=005.813s 10230040#3000000030000000 note=native BCM/body 10230040 captured counter/state cycle variant 4/4
# tx t=005.813s 1022E040#1000000010000000 note=native BCM/body 1022E040 key-on counter/state cycle variant 1/3
(1780159224.571000) can0 10230040#3000000030000000
(1780159224.571000) can0 1022E040#1000000010000000
# tx t=005.861s 10210040#0000800000008000 note=native BCM/body base status from IPC_disconnected capture
(1780159224.619000) can0 10210040#0000800000008000
# tx t=005.956s 10210040#0000800000008000 note=native BCM/body base status from IPC_disconnected capture
(1780159224.714000) can0 10210040#0000800000008000
# tx t=006.066s 621#0052000000000000 note=native key-on network-management context
# tx t=006.067s 10210040#0000800000008000 note=native BCM/body base status from IPC_disconnected capture
# tx t=006.067s 10264040#0000000000000000 note=native BCM/body base zero-status frame
# tx t=006.067s 102CA040#0000000000000F00 note=native BCM/body base 102CA040 context
# tx t=006.067s 10220040#1000000040080000 note=native BCM/body 10220040 key-on variant
# tx t=006.067s 10230040#0000000000000000 note=native BCM/body 10230040 captured counter/state cycle variant 1/4
# tx t=006.067s 1022E040#2000000020000000 note=native BCM/body 1022E040 key-on counter/state cycle variant 2/3
# tx t=006.068s 10240040#83FE880100D70FFD note=native BCM/body 10240040 key-on/second-turn variant
# tx t=006.068s 102C0040#803C96B503 note=native BCM/body 102C0040 key-on captured context
# tx t=006.068s 10754040#040400 note=native key/body context immediate key-on hold variant
# tx t=006.068s 10242040#02 note=native 10242040 immediate second-turn/key-on hold state
(1780159224.826000) can0 621#0052000000000000
(1780159224.826000) can0 10210040#0000800000008000
(1780159224.826000) can0 10264040#0000000000000000
(1780159224.827000) can0 102CA040#0000000000000F00
(1780159224.832000) can0 10220040#1000000040080000
(1780159224.836000) can0 10230040#0000000000000000
(1780159224.856000) can0 1022E040#2000000020000000
(1780159224.856000) can0 10240040#83FE880100D70FFD
(1780159224.856000) can0 102C0040#803C96B503
(1780159224.856000) can0 10754040#040400
(1780159224.858000) can0 10242040#02
# tx t=006.161s 10210040#0000800000008000 note=native BCM/body base status from IPC_disconnected capture
(1780159224.919000) can0 10210040#0000800000008000
# tx t=006.256s 13FFE040# note=native fake BCM/source 0x40 presence, captured-like cadence
# tx t=006.256s 10210040#0000800000008000 note=native BCM/body base status from IPC_disconnected capture
(1780159225.014000) can0 13FFE040#
(1780159225.014000) can0 10210040#0000800000008000
# tx t=006.304s 10230040#1000000010000000 note=native BCM/body 10230040 captured counter/state cycle variant 2/4
# tx t=006.305s 1022E040#3000000030000000 note=native BCM/body 1022E040 key-on counter/state cycle variant 3/3
(1780159225.062000) can0 10230040#1000000010000000
(1780159225.063000) can0 1022E040#3000000030000000
# tx t=006.365s 10210040#0000800000008000 note=native BCM/body base status from IPC_disconnected capture
(1780159225.123000) can0 10210040#0000800000008000
(1780159225.136000) can0 13FFE060#
# tx t=006.459s 10210040#0000800000008000 note=native BCM/body base status from IPC_disconnected capture
(1780159225.217000) can0 10210040#0000800000008000
# tx t=006.555s 10210040#0000800000008000 note=native BCM/body base status from IPC_disconnected capture
# tx t=006.555s 10230040#2000000020000000 note=native BCM/body 10230040 captured counter/state cycle variant 3/4
# tx t=006.555s 1022E040#1000000010000000 note=native BCM/body 1022E040 key-on counter/state cycle variant 1/3
(1780159225.313000) can0 10210040#0000800000008000
(1780159225.313000) can0 10230040#2000000020000000
(1780159225.313000) can0 1022E040#1000000010000000
# tx t=006.667s 10210040#0000800000008000 note=native BCM/body base status from IPC_disconnected capture
(1780159225.425000) can0 10210040#0000800000008000
# tx t=006.762s 10210040#0000800000008000 note=native BCM/body base status from IPC_disconnected capture
(1780159225.520000) can0 10210040#0000800000008000
# tx t=006.810s 10230040#3000000030000000 note=native BCM/body 10230040 captured counter/state cycle variant 4/4
# tx t=006.810s 1022E040#2000000020000000 note=native BCM/body 1022E040 key-on counter/state cycle variant 2/3
(1780159225.568000) can0 10230040#3000000030000000
(1780159225.568000) can0 1022E040#2000000020000000
# tx t=006.858s 10210040#0000800000008000 note=native BCM/body base status from IPC_disconnected capture
(1780159225.616000) can0 10210040#0000800000008000
# tx t=006.970s 10210040#0000800000008000 note=native BCM/body base status from IPC_disconnected capture
(1780159225.727000) can0 10210040#0000800000008000
# tx t=007.065s 621#0052000000000000 note=native key-on network-management context
# tx t=007.065s 10210040#0000800000008000 note=native BCM/body base status from IPC_disconnected capture
# tx t=007.065s 10264040#0000000000000000 note=native BCM/body base zero-status frame
# tx t=007.066s 102CA040#0000000000000F00 note=native BCM/body base 102CA040 context
# tx t=007.066s 10220040#1000000040080000 note=native BCM/body 10220040 key-on variant
# tx t=007.066s 10230040#0000000000000000 note=native BCM/body 10230040 captured counter/state cycle variant 1/4
# tx t=007.066s 1022E040#3000000030000000 note=native BCM/body 1022E040 key-on counter/state cycle variant 3/3
# tx t=007.066s 10240040#83FE880100D70FFD note=native BCM/body 10240040 key-on/second-turn variant
# tx t=007.066s 102C0040#803C96B503 note=native BCM/body 102C0040 key-on captured context
# tx t=007.067s 10754040#040400 note=native key/body context immediate key-on hold variant
# tx t=007.067s 10242040#02 note=native 10242040 immediate second-turn/key-on hold state
# tx t=007.067s 10030040#0075A708 note=data fill battery voltage candidate around 14.7 V
# tx t=007.067s 100C4040#0000000000000000 note=data fill ABS/traction OK candidate, arbid 0x062 source 0x40
# tx t=007.067s 1005E040#0000000000000000 note=data fill brake/cruise OK candidate, arbid 0x02F source 0x40
# tx t=007.067s 10052040#0000000000000000 note=data fill engine information 1 neutral candidate, arbid 0x029 source 0x40
# tx t=007.067s 1006E040#0000000000000000 note=data fill engine information 2 neutral candidate, arbid 0x037 source 0x40
# tx t=007.068s 10064040#0000730000000000 note=data fill engine information 3 / temperature candidate, arbid 0x032 source 0x40
(1780159225.825000) can0 621#0052000000000000
(1780159225.825000) can0 10210040#0000800000008000
(1780159225.826000) can0 10264040#0000000000000000
(1780159225.826000) can0 102CA040#0000000000000F00
(1780159225.831000) can0 10220040#1000000040080000
(1780159225.835000) can0 10230040#0000000000000000
(1780159225.854000) can0 1022E040#3000000030000000
(1780159225.855000) can0 10240040#83FE880100D70FFD
(1780159225.855000) can0 102C0040#803C96B503
(1780159225.855000) can0 10754040#040400
(1780159225.857000) can0 10242040#02
(1780159225.860000) can0 10030040#0075A708
(1780159225.863000) can0 100C4040#0000000000000000
(1780159225.866000) can0 1005E040#0000000000000000
(1780159225.869000) can0 10052040#0000000000000000
(1780159225.874000) can0 1006E040#0000000000000000
(1780159225.878000) can0 10064040#0000730000000000
# tx t=007.159s 10210040#0000800000008000 note=native BCM/body base status from IPC_disconnected capture
(1780159225.917000) can0 10210040#0000800000008000
# tx t=007.255s 10210040#0000800000008000 note=native BCM/body base status from IPC_disconnected capture
(1780159226.013000) can0 10210040#0000800000008000
# tx t=007.317s 10230040#1000000010000000 note=native BCM/body 10230040 captured counter/state cycle variant 2/4
# tx t=007.318s 1022E040#1000000010000000 note=native BCM/body 1022E040 key-on counter/state cycle variant 1/3
# tx t=007.318s 100C2040#0073 note=data fill outside air temperature candidate about 17.5 C, arbid 0x061 source 0x40
(1780159226.075000) can0 10230040#1000000010000000
(1780159226.076000) can0 1022E040#1000000010000000
(1780159226.076000) can0 100C2040#0073
# tx t=007.365s 10210040#0000800000008000 note=native BCM/body base status from IPC_disconnected capture
(1780159226.123000) can0 10210040#0000800000008000
# tx t=007.460s 13FFE040# note=native fake BCM/source 0x40 presence, captured-like cadence
# tx t=007.461s 10210040#0000800000008000 note=native BCM/body base status from IPC_disconnected capture
(1780159226.218000) can0 13FFE040#
(1780159226.218000) can0 10210040#0000800000008000
# tx t=007.556s 10210040#0000800000008000 note=native BCM/body base status from IPC_disconnected capture
# tx t=007.556s 10230040#2000000020000000 note=native BCM/body 10230040 captured counter/state cycle variant 3/4
# tx t=007.556s 1022E040#2000000020000000 note=native BCM/body 1022E040 key-on counter/state cycle variant 2/3
# tx t=007.556s 100C4040#0000000000000000 note=data fill ABS/traction OK candidate, arbid 0x062 source 0x40
# tx t=007.556s 1005E040#0000000000000000 note=data fill brake/cruise OK candidate, arbid 0x02F source 0x40
(1780159226.314000) can0 10210040#0000800000008000
(1780159226.314000) can0 10230040#2000000020000000
(1780159226.314000) can0 1022E040#2000000020000000
(1780159226.318000) can0 100C4040#0000000000000000
(1780159226.322000) can0 1005E040#0000000000000000
(1780159226.345000) can0 13FFE060#
# tx t=007.668s 10210040#0000800000008000 note=native BCM/body base status from IPC_disconnected capture
(1780159226.425000) can0 10210040#0000800000008000
# tx t=007.762s 10210040#0000800000008000 note=native BCM/body base status from IPC_disconnected capture
(1780159226.520000) can0 10210040#0000800000008000
# tx t=007.810s 10230040#3000000030000000 note=native BCM/body 10230040 captured counter/state cycle variant 4/4
# tx t=007.811s 1022E040#3000000030000000 note=native BCM/body 1022E040 key-on counter/state cycle variant 3/3
(1780159226.569000) can0 10230040#3000000030000000
(1780159226.569000) can0 1022E040#3000000030000000
# tx t=007.858s 10210040#0000800000008000 note=native BCM/body base status from IPC_disconnected capture
(1780159226.615000) can0 10210040#0000800000008000
# tx t=007.969s 10210040#0000800000008000 note=native BCM/body base status from IPC_disconnected capture
(1780159226.727000) can0 10210040#0000800000008000
# tx t=008.063s 621#0052000000000000 note=native key-on network-management context
# tx t=008.064s 10210040#0000800000008000 note=native BCM/body base status from IPC_disconnected capture
# tx t=008.064s 10264040#0000000000000000 note=native BCM/body base zero-status frame
# tx t=008.064s 102CA040#0000000000000F00 note=native BCM/body base 102CA040 context
# tx t=008.064s 10220040#1000000040080000 note=native BCM/body 10220040 key-on variant
# tx t=008.064s 10230040#0000000000000000 note=native BCM/body 10230040 captured counter/state cycle variant 1/4
# tx t=008.065s 1022E040#1000000010000000 note=native BCM/body 1022E040 key-on counter/state cycle variant 1/3
# tx t=008.065s 10240040#83FE880100D70FFD note=native BCM/body 10240040 key-on/second-turn variant
# tx t=008.065s 102C0040#803C96B503 note=native BCM/body 102C0040 key-on captured context
# tx t=008.065s 10754040#040400 note=native key/body context immediate key-on hold variant
# tx t=008.065s 10242040#02 note=native 10242040 immediate second-turn/key-on hold state
# tx t=008.065s 10414040#00017B05 note=native lock/body key-on context one-shot captured variant
# tx t=008.065s 10030040#0075A708 note=data fill battery voltage candidate around 14.7 V
# tx t=008.065s 100C4040#0000000000000000 note=data fill ABS/traction OK candidate, arbid 0x062 source 0x40
# tx t=008.066s 1005E040#0000000000000000 note=data fill brake/cruise OK candidate, arbid 0x02F source 0x40
# tx t=008.066s 10052040#0000000000000000 note=data fill engine information 1 neutral candidate, arbid 0x029 source 0x40
# tx t=008.066s 1006E040#0000000000000000 note=data fill engine information 2 neutral candidate, arbid 0x037 source 0x40
# tx t=008.066s 10064040#0000730000000000 note=data fill engine information 3 / temperature candidate, arbid 0x032 source 0x40
(1780159226.823000) can0 621#0052000000000000
(1780159226.824000) can0 10210040#0000800000008000
(1780159226.824000) can0 10264040#0000000000000000
(1780159226.824000) can0 102CA040#0000000000000F00
(1780159226.829000) can0 10220040#1000000040080000
(1780159226.833000) can0 10230040#0000000000000000
(1780159226.852000) can0 1022E040#1000000010000000
(1780159226.852000) can0 10240040#83FE880100D70FFD
(1780159226.852000) can0 102C0040#803C96B503
(1780159226.852000) can0 10754040#040400
(1780159226.855000) can0 10242040#02
(1780159226.859000) can0 10414040#00017B05
(1780159226.862000) can0 10030040#0075A708
(1780159226.864000) can0 100C4040#0000000000000000
(1780159226.867000) can0 1005E040#0000000000000000
(1780159226.884000) can0 10052040#0000000000000000
(1780159226.884000) can0 1006E040#0000000000000000
(1780159226.884000) can0 10064040#0000730000000000
# tx t=008.158s 10210040#0000800000008000 note=native BCM/body base status from IPC_disconnected capture
(1780159226.916000) can0 10210040#0000800000008000
(1780159226.947000) can0 62C#0040000000000000
(1780159226.948000) can0 10600060#0160C020007B00
# tx t=008.269s 10210040#0000800000008000 note=native BCM/body base status from IPC_disconnected capture
(1780159227.026000) can0 10210040#0000800000008000
# tx t=008.315s 10230040#1000000010000000 note=native BCM/body 10230040 captured counter/state cycle variant 2/4
# tx t=008.316s 1022E040#2000000020000000 note=native BCM/body 1022E040 key-on counter/state cycle variant 2/3
(1780159227.073000) can0 10230040#1000000010000000
(1780159227.073000) can0 1022E040#2000000020000000
# tx t=008.363s 10210040#0000800000008000 note=native BCM/body base status from IPC_disconnected capture
(1780159227.121000) can0 10210040#0000800000008000
# tx t=008.456s 10210040#0000800000008000 note=native BCM/body base status from IPC_disconnected capture
(1780159227.214000) can0 10210040#0000800000008000
# tx t=008.566s 10210040#0000800000008000 note=native BCM/body base status from IPC_disconnected capture
# tx t=008.566s 10230040#2000000020000000 note=native BCM/body 10230040 captured counter/state cycle variant 3/4
# tx t=008.566s 1022E040#3000000030000000 note=native BCM/body 1022E040 key-on counter/state cycle variant 3/3
# tx t=008.566s 100C4040#0000000000000000 note=data fill ABS/traction OK candidate, arbid 0x062 source 0x40
# tx t=008.566s 1005E040#0000000000000000 note=data fill brake/cruise OK candidate, arbid 0x02F source 0x40
(1780159227.324000) can0 10210040#0000800000008000
(1780159227.324000) can0 10230040#2000000020000000
(1780159227.324000) can0 1022E040#3000000030000000
(1780159227.328000) can0 100C4040#0000000000000000
(1780159227.332000) can0 1005E040#0000000000000000
# tx t=008.661s 13FFE040# note=native fake BCM/source 0x40 presence, captured-like cadence
# tx t=008.662s 10210040#0000800000008000 note=native BCM/body base status from IPC_disconnected capture
(1780159227.419000) can0 13FFE040#
(1780159227.419000) can0 10210040#0000800000008000
# tx t=008.756s 10210040#0000800000008000 note=native BCM/body base status from IPC_disconnected capture
(1780159227.514000) can0 10210040#0000800000008000
(1780159227.545000) can0 13FFE060#
# tx t=008.820s 10230040#3000000030000000 note=native BCM/body 10230040 captured counter/state cycle variant 4/4
# tx t=008.820s 1022E040#1000000010000000 note=native BCM/body 1022E040 key-on counter/state cycle variant 1/3
(1780159227.578000) can0 10230040#3000000030000000
(1780159227.578000) can0 1022E040#1000000010000000
# tx t=008.868s 10210040#0000800000008000 note=native BCM/body base status from IPC_disconnected capture
(1780159227.625000) can0 10210040#0000800000008000
# tx t=008.963s 10210040#0000800000008000 note=native BCM/body base status from IPC_disconnected capture
(1780159227.721000) can0 10210040#0000800000008000
# tx t=009.056s 621#0052000000000000 note=native key-on network-management context
# tx t=009.057s 10210040#0000800000008000 note=native BCM/body base status from IPC_disconnected capture
# tx t=009.057s 10264040#0000000000000000 note=native BCM/body base zero-status frame
# tx t=009.057s 102CA040#0000000000000F00 note=native BCM/body base 102CA040 context
# tx t=009.057s 10220040#1000000040080000 note=native BCM/body 10220040 key-on variant
# tx t=009.057s 10230040#0000000000000000 note=native BCM/body 10230040 captured counter/state cycle variant 1/4
# tx t=009.057s 1022E040#2000000020000000 note=native BCM/body 1022E040 key-on counter/state cycle variant 2/3
# tx t=009.058s 10240040#83FE880100D70FFD note=native BCM/body 10240040 key-on/second-turn variant
# tx t=009.058s 102C0040#803C96B503 note=native BCM/body 102C0040 key-on captured context
# tx t=009.058s 10754040#040400 note=native key/body context immediate key-on hold variant
# tx t=009.058s 10242040#02 note=native 10242040 immediate second-turn/key-on hold state
# tx t=009.058s 10030040#0075A708 note=data fill battery voltage candidate around 14.7 V
# tx t=009.058s 100C4040#0000000000000000 note=data fill ABS/traction OK candidate, arbid 0x062 source 0x40
# tx t=009.058s 1005E040#0000000000000000 note=data fill brake/cruise OK candidate, arbid 0x02F source 0x40
# tx t=009.058s 10052040#0000000000000000 note=data fill engine information 1 neutral candidate, arbid 0x029 source 0x40
# tx t=009.058s 1006E040#0000000000000000 note=data fill engine information 2 neutral candidate, arbid 0x037 source 0x40
# tx t=009.058s 10064040#0000730000000000 note=data fill engine information 3 / temperature candidate, arbid 0x032 source 0x40
(1780159227.816000) can0 621#0052000000000000
(1780159227.816000) can0 10210040#0000800000008000
(1780159227.816000) can0 10264040#0000000000000000
(1780159227.818000) can0 102CA040#0000000000000F00
(1780159227.822000) can0 10220040#1000000040080000
(1780159227.826000) can0 10230040#0000000000000000
(1780159227.846000) can0 1022E040#2000000020000000
(1780159227.846000) can0 10240040#83FE880100D70FFD
(1780159227.846000) can0 102C0040#803C96B503
(1780159227.846000) can0 10754040#040400
(1780159227.848000) can0 10242040#02
(1780159227.852000) can0 10030040#0075A708
(1780159227.855000) can0 100C4040#0000000000000000
(1780159227.857000) can0 1005E040#0000000000000000
(1780159227.860000) can0 10052040#0000000000000000
(1780159227.878000) can0 1006E040#0000000000000000
(1780159227.878000) can0 10064040#0000730000000000
# tx t=009.168s 10210040#0000800000008000 note=native BCM/body base status from IPC_disconnected capture
(1780159227.926000) can0 10210040#0000800000008000
# tx t=009.261s 10210040#0000800000008000 note=native BCM/body base status from IPC_disconnected capture
(1780159228.018000) can0 10210040#0000800000008000
# tx t=009.308s 10230040#1000000010000000 note=native BCM/body 10230040 captured counter/state cycle variant 2/4
# tx t=009.308s 1022E040#3000000030000000 note=native BCM/body 1022E040 key-on counter/state cycle variant 3/3
# tx t=009.308s 100C2040#0073 note=data fill outside air temperature candidate about 17.5 C, arbid 0x061 source 0x40
(1780159228.066000) can0 10230040#1000000010000000
(1780159228.066000) can0 1022E040#3000000030000000
(1780159228.066000) can0 100C2040#0073
# tx t=009.355s 10210040#0000800000008000 note=native BCM/body base status from IPC_disconnected capture
(1780159228.113000) can0 10210040#0000800000008000
# tx t=009.466s 10210040#0000800000008000 note=native BCM/body base status from IPC_disconnected capture
(1780159228.223000) can0 10210040#0000800000008000
# tx t=009.560s 10210040#0000800000008000 note=native BCM/body base status from IPC_disconnected capture
# tx t=009.560s 10230040#2000000020000000 note=native BCM/body 10230040 captured counter/state cycle variant 3/4
# tx t=009.560s 1022E040#1000000010000000 note=native BCM/body 1022E040 key-on counter/state cycle variant 1/3
# tx t=009.561s 100C4040#0000000000000000 note=data fill ABS/traction OK candidate, arbid 0x062 source 0x40
# tx t=009.561s 1005E040#0000000000000000 note=data fill brake/cruise OK candidate, arbid 0x02F source 0x40
(1780159228.318000) can0 10210040#0000800000008000
(1780159228.318000) can0 10230040#2000000020000000
(1780159228.319000) can0 1022E040#1000000010000000
(1780159228.322000) can0 100C4040#0000000000000000
(1780159228.326000) can0 1005E040#0000000000000000
# tx t=009.656s 10210040#0000800000008000 note=native BCM/body base status from IPC_disconnected capture
(1780159228.413000) can0 10210040#0000800000008000
# tx t=009.767s 10210040#0000800000008000 note=native BCM/body base status from IPC_disconnected capture
(1780159228.525000) can0 10210040#0000800000008000
# tx t=009.815s 10230040#3000000030000000 note=native BCM/body 10230040 captured counter/state cycle variant 4/4
# tx t=009.816s 1022E040#2000000020000000 note=native BCM/body 1022E040 key-on counter/state cycle variant 2/3
(1780159228.573000) can0 10230040#3000000030000000
(1780159228.573000) can0 1022E040#2000000020000000
# tx t=009.862s 13FFE040# note=native fake BCM/source 0x40 presence, captured-like cadence
# tx t=009.862s 10210040#0000800000008000 note=native BCM/body base status from IPC_disconnected capture
(1780159228.620000) can0 13FFE040#
(1780159228.620000) can0 10210040#0000800000008000
# tx t=009.956s 10210040#0000800000008000 note=native BCM/body base status from IPC_disconnected capture
(1780159228.714000) can0 10210040#0000800000008000
(1780159228.746000) can0 13FFE060#
# tx t=010.068s 621#0052000000000000 note=native key-on network-management context
# tx t=010.068s 10210040#0000800000008000 note=native BCM/body base status from IPC_disconnected capture
# tx t=010.068s 10264040#0000000000000000 note=native BCM/body base zero-status frame
# tx t=010.068s 102CA040#0000000000000F00 note=native BCM/body base 102CA040 context
# tx t=010.068s 10220040#1000000040080000 note=native BCM/body 10220040 key-on variant
# tx t=010.069s 10230040#0000000000000000 note=native BCM/body 10230040 captured counter/state cycle variant 1/4
# tx t=010.069s 1022E040#3000000030000000 note=native BCM/body 1022E040 key-on counter/state cycle variant 3/3
# tx t=010.069s 10240040#83FE880100D70FFD note=native BCM/body 10240040 key-on/second-turn variant
# tx t=010.069s 102C0040#803C96B503 note=native BCM/body 102C0040 key-on captured context
# tx t=010.069s 10754040#040400 note=native key/body context immediate key-on hold variant
# tx t=010.069s 10242040#02 note=native 10242040 immediate second-turn/key-on hold state
# tx t=010.069s 10030040#0075A708 note=data fill battery voltage candidate around 14.7 V
# tx t=010.069s 100C4040#0000000000000000 note=data fill ABS/traction OK candidate, arbid 0x062 source 0x40
# tx t=010.069s 1005E040#0000000000000000 note=data fill brake/cruise OK candidate, arbid 0x02F source 0x40
# tx t=010.069s 10052040#0000000000000000 note=data fill engine information 1 neutral candidate, arbid 0x029 source 0x40
# tx t=010.069s 1006E040#0000000000000000 note=data fill engine information 2 neutral candidate, arbid 0x037 source 0x40
# tx t=010.070s 10064040#0000730000000000 note=data fill engine information 3 / temperature candidate, arbid 0x032 source 0x40
# tx t=010.070s 1004C040#0000200000000000 note=data fill fuel information arbid 0x026 source 0x40: fuel low-ish candidate
(1780159228.827000) can0 621#0052000000000000
(1780159228.827000) can0 10210040#0000800000008000
(1780159228.828000) can0 10264040#0000000000000000
(1780159228.829000) can0 102CA040#0000000000000F00
(1780159228.833000) can0 10220040#1000000040080000
(1780159228.838000) can0 10230040#0000000000000000
(1780159228.857000) can0 1022E040#3000000030000000
(1780159228.857000) can0 10240040#83FE880100D70FFD
(1780159228.858000) can0 102C0040#803C96B503
(1780159228.858000) can0 10754040#040400
(1780159228.860000) can0 10242040#02
(1780159228.863000) can0 10030040#0075A708
(1780159228.866000) can0 100C4040#0000000000000000
(1780159228.868000) can0 1005E040#0000000000000000
(1780159228.872000) can0 10052040#0000000000000000
(1780159228.889000) can0 1006E040#0000000000000000
(1780159228.889000) can0 10064040#0000730000000000
(1780159228.890000) can0 1004C040#0000200000000000
# tx t=010.163s 10210040#0000800000008000 note=native BCM/body base status from IPC_disconnected capture
(1780159228.921000) can0 10210040#0000800000008000
(1780159228.934000) can0 10244060#02
# tx t=010.258s 10210040#0000800000008000 note=native BCM/body base status from IPC_disconnected capture
(1780159229.015000) can0 10210040#0000800000008000
# tx t=010.305s 10230040#1000000010000000 note=native BCM/body 10230040 captured counter/state cycle variant 2/4
# tx t=010.305s 1022E040#1000000010000000 note=native BCM/body 1022E040 key-on counter/state cycle variant 1/3
(1780159229.063000) can0 10230040#1000000010000000
(1780159229.063000) can0 1022E040#1000000010000000
# tx t=010.368s 10210040#0000800000008000 note=native BCM/body base status from IPC_disconnected capture
(1780159229.126000) can0 10210040#0000800000008000
# tx t=010.464s 10210040#0000800000008000 note=native BCM/body base status from IPC_disconnected capture
(1780159229.221000) can0 10210040#0000800000008000
# tx t=010.559s 10210040#0000800000008000 note=native BCM/body base status from IPC_disconnected capture
# tx t=010.559s 10230040#2000000020000000 note=native BCM/body 10230040 captured counter/state cycle variant 3/4
# tx t=010.559s 1022E040#2000000020000000 note=native BCM/body 1022E040 key-on counter/state cycle variant 2/3
# tx t=010.559s 100C4040#0000000000000000 note=data fill ABS/traction OK candidate, arbid 0x062 source 0x40
# tx t=010.560s 1005E040#0000000000000000 note=data fill brake/cruise OK candidate, arbid 0x02F source 0x40
# tx t=010.560s 1004C040#0000200000000000 note=data fill fuel information arbid 0x026 source 0x40: fuel low-ish candidate
(1780159229.317000) can0 10210040#0000800000008000
(1780159229.317000) can0 10230040#2000000020000000
(1780159229.318000) can0 1022E040#2000000020000000
(1780159229.321000) can0 100C4040#0000000000000000
(1780159229.325000) can0 1005E040#0000000000000000
(1780159229.330000) can0 1004C040#0000200000000000
# tx t=010.669s 10210040#0000800000008000 note=native BCM/body base status from IPC_disconnected capture
(1780159229.427000) can0 10210040#0000800000008000
# tx t=010.762s 10210040#0000800000008000 note=native BCM/body base status from IPC_disconnected capture
(1780159229.519000) can0 10210040#0000800000008000
# tx t=010.809s 10230040#3000000030000000 note=native BCM/body 10230040 captured counter/state cycle variant 4/4
# tx t=010.809s 1022E040#3000000030000000 note=native BCM/body 1022E040 key-on counter/state cycle variant 3/3
(1780159229.567000) can0 10230040#3000000030000000
(1780159229.567000) can0 1022E040#3000000030000000
# tx t=010.856s 10210040#0000800000008000 note=native BCM/body base status from IPC_disconnected capture
(1780159229.614000) can0 10210040#0000800000008000
# tx t=010.967s 10210040#0000800000008000 note=native BCM/body base status from IPC_disconnected capture
(1780159229.724000) can0 10210040#0000800000008000
# tx t=011.061s 13FFE040# note=native fake BCM/source 0x40 presence, captured-like cadence
# tx t=011.061s 621#0052000000000000 note=native key-on network-management context
# tx t=011.061s 10210040#0000800000008000 note=native BCM/body base status from IPC_disconnected capture
# tx t=011.062s 10264040#0000000000000000 note=native BCM/body base zero-status frame
# tx t=011.062s 102CA040#0000000000000F00 note=native BCM/body base 102CA040 context
# tx t=011.062s 10220040#1000000040080000 note=native BCM/body 10220040 key-on variant
# tx t=011.062s 10230040#0000000000000000 note=native BCM/body 10230040 captured counter/state cycle variant 1/4
# tx t=011.062s 1022E040#1000000010000000 note=native BCM/body 1022E040 key-on counter/state cycle variant 1/3
# tx t=011.062s 10240040#83FE880100D70FFD note=native BCM/body 10240040 key-on/second-turn variant
# tx t=011.062s 102C0040#803C96B503 note=native BCM/body 102C0040 key-on captured context
# tx t=011.063s 10754040#040400 note=native key/body context immediate key-on hold variant
# tx t=011.063s 10242040#02 note=native 10242040 immediate second-turn/key-on hold state
# tx t=011.063s 10030040#0075A708 note=data fill battery voltage candidate around 14.7 V
# tx t=011.063s 100C4040#0000000000000000 note=data fill ABS/traction OK candidate, arbid 0x062 source 0x40
# tx t=011.063s 1005E040#0000000000000000 note=data fill brake/cruise OK candidate, arbid 0x02F source 0x40
# tx t=011.063s 10052040#0000000000000000 note=data fill engine information 1 neutral candidate, arbid 0x029 source 0x40
# tx t=011.063s 1006E040#0000000000000000 note=data fill engine information 2 neutral candidate, arbid 0x037 source 0x40
# tx t=011.063s 10064040#0000730000000000 note=data fill engine information 3 / temperature candidate, arbid 0x032 source 0x40
# tx t=011.063s 1004C040#0000200000000000 note=data fill fuel information arbid 0x026 source 0x40: fuel low-ish candidate
(1780159229.821000) can0 13FFE040#
(1780159229.821000) can0 621#0052000000000000
(1780159229.821000) can0 10210040#0000800000008000
(1780159229.822000) can0 10264040#0000000000000000
(1780159229.824000) can0 102CA040#0000000000000F00
(1780159229.829000) can0 10220040#1000000040080000
(1780159229.833000) can0 10230040#0000000000000000
(1780159229.838000) can0 1022E040#1000000010000000
(1780159229.842000) can0 10240040#83FE880100D70FFD
(1780159229.846000) can0 102C0040#803C96B503
(1780159229.864000) can0 10754040#040400
(1780159229.865000) can0 10242040#02
(1780159229.865000) can0 10030040#0075A708
(1780159229.865000) can0 100C4040#0000000000000000
(1780159229.865000) can0 1005E040#0000000000000000
(1780159229.867000) can0 10052040#0000000000000000
(1780159229.871000) can0 1006E040#0000000000000000
(1780159229.876000) can0 10064040#0000730000000000
# tx t=011.156s 10210040#0000800000008000 note=native BCM/body base status from IPC_disconnected capture
(1780159229.913000) can0 10210040#0000800000008000
(1780159229.945000) can0 62C#0040000000000000
(1780159229.945000) can0 13FFE060#
# tx t=011.266s 10210040#0000800000008000 note=native BCM/body base status from IPC_disconnected capture
(1780159230.023000) can0 10210040#0000800000008000
# tx t=011.314s 10230040#1000000010000000 note=native BCM/body 10230040 captured counter/state cycle variant 2/4
# tx t=011.314s 1022E040#2000000020000000 note=native BCM/body 1022E040 key-on counter/state cycle variant 2/3
# tx t=011.314s 100C2040#0073 note=data fill outside air temperature candidate about 17.5 C, arbid 0x061 source 0x40
(1780159230.072000) can0 10230040#1000000010000000
(1780159230.072000) can0 1022E040#2000000020000000
(1780159230.072000) can0 100C2040#0073
# tx t=011.361s 10210040#0000800000008000 note=native BCM/body base status from IPC_disconnected capture
(1780159230.118000) can0 10210040#0000800000008000
# tx t=011.456s 10210040#0000800000008000 note=native BCM/body base status from IPC_disconnected capture
(1780159230.213000) can0 10210040#0000800000008000
# tx t=011.565s 10210040#0000800000008000 note=native BCM/body base status from IPC_disconnected capture
# tx t=011.566s 10230040#2000000020000000 note=native BCM/body 10230040 captured counter/state cycle variant 3/4
# tx t=011.566s 1022E040#3000000030000000 note=native BCM/body 1022E040 key-on counter/state cycle variant 3/3
# tx t=011.566s 100C4040#0000000000000000 note=data fill ABS/traction OK candidate, arbid 0x062 source 0x40
# tx t=011.566s 1005E040#0000000000000000 note=data fill brake/cruise OK candidate, arbid 0x02F source 0x40
# tx t=011.566s 1004C040#0000200000000000 note=data fill fuel information arbid 0x026 source 0x40: fuel low-ish candidate
(1780159230.324000) can0 10210040#0000800000008000
(1780159230.324000) can0 10230040#2000000020000000
(1780159230.324000) can0 1022E040#3000000030000000
(1780159230.327000) can0 100C4040#0000000000000000
(1780159230.332000) can0 1005E040#0000000000000000
(1780159230.336000) can0 1004C040#0000200000000000
# tx t=011.661s 10210040#0000800000008000 note=native BCM/body base status from IPC_disconnected capture
(1780159230.418000) can0 10210040#0000800000008000
# tx t=011.756s 10210040#0000800000008000 note=native BCM/body base status from IPC_disconnected capture
(1780159230.514000) can0 10210040#0000800000008000
# tx t=011.818s 10230040#3000000030000000 note=native BCM/body 10230040 captured counter/state cycle variant 4/4
# tx t=011.818s 1022E040#1000000010000000 note=native BCM/body 1022E040 key-on counter/state cycle variant 1/3
(1780159230.576000) can0 10230040#3000000030000000
(1780159230.576000) can0 1022E040#1000000010000000
# tx t=011.865s 10210040#0000800000008000 note=native BCM/body base status from IPC_disconnected capture
(1780159230.623000) can0 10210040#0000800000008000
# tx t=011.960s 10210040#0000800000008000 note=native BCM/body base status from IPC_disconnected capture
(1780159230.718000) can0 10210040#0000800000008000
# tx t=012.055s 621#0052000000000000 note=native key-on network-management context
# tx t=012.056s 10210040#0000800000008000 note=native BCM/body base status from IPC_disconnected capture
# tx t=012.056s 10264040#0000000000000000 note=native BCM/body base zero-status frame
# tx t=012.056s 102CA040#0000000000000F00 note=native BCM/body base 102CA040 context
# tx t=012.056s 10220040#1000000040080000 note=native BCM/body 10220040 key-on variant
# tx t=012.056s 10230040#0000000000000000 note=native BCM/body 10230040 captured counter/state cycle variant 1/4
# tx t=012.056s 1022E040#2000000020000000 note=native BCM/body 1022E040 key-on counter/state cycle variant 2/3
# tx t=012.056s 10240040#83FE880100D70FFD note=native BCM/body 10240040 key-on/second-turn variant
# tx t=012.057s 102C0040#803C96B503 note=native BCM/body 102C0040 key-on captured context
# tx t=012.057s 10754040#040400 note=native key/body context immediate key-on hold variant
# tx t=012.057s 10242040#02 note=native 10242040 immediate second-turn/key-on hold state
# tx t=012.057s 10030040#0075A708 note=data fill battery voltage candidate around 14.7 V
# tx t=012.057s 100C4040#0000000000000000 note=data fill ABS/traction OK candidate, arbid 0x062 source 0x40
# tx t=012.057s 1005E040#0000000000000000 note=data fill brake/cruise OK candidate, arbid 0x02F source 0x40
# tx t=012.057s 10052040#0000000000000000 note=data fill engine information 1 neutral candidate, arbid 0x029 source 0x40
# tx t=012.057s 1006E040#0000000000000000 note=data fill engine information 2 neutral candidate, arbid 0x037 source 0x40
# tx t=012.057s 10064040#0000730000000000 note=data fill engine information 3 / temperature candidate, arbid 0x032 source 0x40
# tx t=012.057s 1004C040#0000200000000000 note=data fill fuel information arbid 0x026 source 0x40: fuel low-ish candidate
(1780159230.815000) can0 621#0052000000000000
(1780159230.815000) can0 10210040#0000800000008000
(1780159230.815000) can0 10264040#0000000000000000
(1780159230.816000) can0 102CA040#0000000000000F00
(1780159230.821000) can0 10220040#1000000040080000
(1780159230.825000) can0 10230040#0000000000000000
(1780159230.843000) can0 1022E040#2000000020000000
(1780159230.843000) can0 10240040#83FE880100D70FFD
(1780159230.844000) can0 102C0040#803C96B503
(1780159230.844000) can0 10754040#040400
(1780159230.847000) can0 10242040#02
(1780159230.851000) can0 10030040#0075A708
(1780159230.853000) can0 100C4040#0000000000000000
(1780159230.856000) can0 1005E040#0000000000000000
(1780159230.875000) can0 1006E040#0000000000000000
(1780159230.876000) can0 10064040#0000730000000000
(1780159230.876000) can0 1004C040#0000200000000000
# tx t=012.165s 10210040#0000800000008000 note=native BCM/body base status from IPC_disconnected capture
(1780159230.923000) can0 10210040#0000800000008000
# tx t=012.259s 13FFE040# note=native fake BCM/source 0x40 presence, captured-like cadence
# tx t=012.260s 10210040#0000800000008000 note=native BCM/body base status from IPC_disconnected capture
(1780159231.017000) can0 13FFE040#
(1780159231.017000) can0 10210040#0000800000008000
# tx t=012.307s 10230040#1000000010000000 note=native BCM/body 10230040 captured counter/state cycle variant 2/4
# tx t=012.307s 1022E040#3000000030000000 note=native BCM/body 1022E040 key-on counter/state cycle variant 3/3
(1780159231.064000) can0 10230040#1000000010000000
(1780159231.065000) can0 1022E040#3000000030000000
# tx t=012.355s 10210040#0000800000008000 note=native BCM/body base status from IPC_disconnected capture
(1780159231.112000) can0 10210040#0000800000008000
(1780159231.143000) can0 13FFE060#
# tx t=012.464s 10210040#0000800000008000 note=native BCM/body base status from IPC_disconnected capture
(1780159231.222000) can0 10210040#0000800000008000
# tx t=012.560s 10210040#0000800000008000 note=native BCM/body base status from IPC_disconnected capture
# tx t=012.560s 10230040#2000000020000000 note=native BCM/body 10230040 captured counter/state cycle variant 3/4
# tx t=012.560s 1022E040#1000000010000000 note=native BCM/body 1022E040 key-on counter/state cycle variant 1/3
# tx t=012.560s 100C4040#0000000000000000 note=data fill ABS/traction OK candidate, arbid 0x062 source 0x40
# tx t=012.560s 1005E040#0000000000000000 note=data fill brake/cruise OK candidate, arbid 0x02F source 0x40
# tx t=012.560s 1004C040#0000200000000000 note=data fill fuel information arbid 0x026 source 0x40: fuel low-ish candidate
(1780159231.318000) can0 10210040#0000800000008000
(1780159231.318000) can0 10230040#2000000020000000
(1780159231.319000) can0 1022E040#1000000010000000
(1780159231.322000) can0 100C4040#0000000000000000
(1780159231.326000) can0 1005E040#0000000000000000
(1780159231.330000) can0 1004C040#0000200000000000
# tx t=012.655s 10210040#0000800000008000 note=native BCM/body base status from IPC_disconnected capture
(1780159231.412000) can0 10210040#0000800000008000
# tx t=012.766s 10210040#0000800000008000 note=native BCM/body base status from IPC_disconnected capture
(1780159231.523000) can0 10210040#0000800000008000
# tx t=012.813s 10230040#3000000030000000 note=native BCM/body 10230040 captured counter/state cycle variant 4/4
# tx t=012.814s 1022E040#2000000020000000 note=native BCM/body 1022E040 key-on counter/state cycle variant 2/3
(1780159231.571000) can0 10230040#3000000030000000
(1780159231.572000) can0 1022E040#2000000020000000
# tx t=012.860s 10210040#0000800000008000 note=native BCM/body base status from IPC_disconnected capture
(1780159231.618000) can0 10210040#0000800000008000
# tx t=012.955s 10210040#0000800000008000 note=native BCM/body base status from IPC_disconnected capture
(1780159231.713000) can0 10210040#0000800000008000
# tx t=013.063s 621#0052000000000000 note=native key-on network-management context
# tx t=013.064s 10210040#0000800000008000 note=native BCM/body base status from IPC_disconnected capture
# tx t=013.064s 10264040#0000000000000000 note=native BCM/body base zero-status frame
# tx t=013.064s 102CA040#0000000000000F00 note=native BCM/body base 102CA040 context
# tx t=013.064s 10220040#1000000040080000 note=native BCM/body 10220040 key-on variant
# tx t=013.064s 10230040#0000000000000000 note=native BCM/body 10230040 captured counter/state cycle variant 1/4
# tx t=013.064s 1022E040#3000000030000000 note=native BCM/body 1022E040 key-on counter/state cycle variant 3/3
# tx t=013.064s 10240040#83FE880100D70FFD note=native BCM/body 10240040 key-on/second-turn variant
# tx t=013.064s 102C0040#803C96B503 note=native BCM/body 102C0040 key-on captured context
# tx t=013.065s 10754040#040400 note=native key/body context immediate key-on hold variant
# tx t=013.065s 10242040#02 note=native 10242040 immediate second-turn/key-on hold state
# tx t=013.065s 10030040#0075A708 note=data fill battery voltage candidate around 14.7 V
# tx t=013.065s 100C4040#0000000000000000 note=data fill ABS/traction OK candidate, arbid 0x062 source 0x40
# tx t=013.065s 1005E040#0000000000000000 note=data fill brake/cruise OK candidate, arbid 0x02F source 0x40
# tx t=013.065s 10052040#0000000000000000 note=data fill engine information 1 neutral candidate, arbid 0x029 source 0x40
# tx t=013.065s 1006E040#0000000000000000 note=data fill engine information 2 neutral candidate, arbid 0x037 source 0x40
# tx t=013.065s 10064040#0000730000000000 note=data fill engine information 3 / temperature candidate, arbid 0x032 source 0x40
# tx t=013.065s 1004C040#0000200000000000 note=data fill fuel information arbid 0x026 source 0x40: fuel low-ish candidate
(1780159231.823000) can0 621#0052000000000000
(1780159231.823000) can0 10210040#0000800000008000
(1780159231.823000) can0 10264040#0000000000000000
(1780159231.825000) can0 102CA040#0000000000000F00
(1780159231.829000) can0 10220040#1000000040080000
(1780159231.833000) can0 10230040#0000000000000000
(1780159231.852000) can0 1022E040#3000000030000000
(1780159231.852000) can0 10240040#83FE880100D70FFD
(1780159231.852000) can0 102C0040#803C96B503
(1780159231.852000) can0 10754040#040400
(1780159231.855000) can0 10242040#02
(1780159231.859000) can0 10030040#0075A708
(1780159231.862000) can0 100C4040#0000000000000000
(1780159231.864000) can0 1005E040#0000000000000000
(1780159231.867000) can0 10052040#0000000000000000
(1780159231.884000) can0 1006E040#0000000000000000
(1780159231.884000) can0 10064040#0000730000000000
(1780159231.884000) can0 1004C040#0000200000000000
# tx t=013.157s 10210040#0000800000008000 note=native BCM/body base status from IPC_disconnected capture
(1780159231.915000) can0 10210040#0000800000008000
# tx t=013.266s 10210040#0000800000008000 note=native BCM/body base status from IPC_disconnected capture
(1780159232.024000) can0 10210040#0000800000008000
# tx t=013.315s 10230040#1000000010000000 note=native BCM/body 10230040 captured counter/state cycle variant 2/4
# tx t=013.315s 1022E040#1000000010000000 note=native BCM/body 1022E040 key-on counter/state cycle variant 1/3
# tx t=013.316s 100C2040#0073 note=data fill outside air temperature candidate about 17.5 C, arbid 0x061 source 0x40
(1780159232.073000) can0 10230040#1000000010000000
(1780159232.074000) can0 1022E040#1000000010000000
(1780159232.074000) can0 100C2040#0073
# tx t=013.362s 10210040#0000800000008000 note=native BCM/body base status from IPC_disconnected capture
(1780159232.120000) can0 10210040#0000800000008000
# tx t=013.457s 13FFE040# note=native fake BCM/source 0x40 presence, captured-like cadence
# tx t=013.458s 10210040#0000800000008000 note=native BCM/body base status from IPC_disconnected capture
(1780159232.215000) can0 13FFE040#
(1780159232.215000) can0 10210040#0000800000008000
# tx t=013.566s 10210040#0000800000008000 note=native BCM/body base status from IPC_disconnected capture
# tx t=013.566s 10230040#2000000020000000 note=native BCM/body 10230040 captured counter/state cycle variant 3/4
# tx t=013.566s 1022E040#2000000020000000 note=native BCM/body 1022E040 key-on counter/state cycle variant 2/3
# tx t=013.567s 100C4040#0000000000000000 note=data fill ABS/traction OK candidate, arbid 0x062 source 0x40
# tx t=013.567s 1005E040#0000000000000000 note=data fill brake/cruise OK candidate, arbid 0x02F source 0x40
# tx t=013.567s 1004C040#0000200000000000 note=data fill fuel information arbid 0x026 source 0x40: fuel low-ish candidate
(1780159232.325000) can0 10210040#0000800000008000
(1780159232.325000) can0 10230040#2000000020000000
(1780159232.325000) can0 1022E040#2000000020000000
(1780159232.328000) can0 100C4040#0000000000000000
(1780159232.332000) can0 1005E040#0000000000000000
(1780159232.337000) can0 1004C040#0000200000000000
(1780159232.355000) can0 13FFE060#
# tx t=013.661s 10210040#0000800000008000 note=native BCM/body base status from IPC_disconnected capture
(1780159232.419000) can0 10210040#0000800000008000
# tx t=013.757s 10210040#0000800000008000 note=native BCM/body base status from IPC_disconnected capture
(1780159232.515000) can0 10210040#0000800000008000
# tx t=013.805s 10230040#3000000030000000 note=native BCM/body 10230040 captured counter/state cycle variant 4/4
# tx t=013.805s 1022E040#3000000030000000 note=native BCM/body 1022E040 key-on counter/state cycle variant 3/3
(1780159232.563000) can0 10230040#3000000030000000
(1780159232.563000) can0 1022E040#3000000030000000
# tx t=013.868s 10210040#0000800000008000 note=native BCM/body base status from IPC_disconnected capture
(1780159232.626000) can0 10210040#0000800000008000
# tx t=013.964s 10210040#0000800000008000 note=native BCM/body base status from IPC_disconnected capture
(1780159232.722000) can0 10210040#0000800000008000
# tx t=014.060s 621#0052000000000000 note=native key-on network-management context
# tx t=014.060s 10210040#0000800000008000 note=native BCM/body base status from IPC_disconnected capture
# tx t=014.060s 10264040#0000000000000000 note=native BCM/body base zero-status frame
# tx t=014.060s 102CA040#0000000000000F00 note=native BCM/body base 102CA040 context
# tx t=014.060s 10220040#1000000040080000 note=native BCM/body 10220040 key-on variant
# tx t=014.061s 10230040#0000000000000000 note=native BCM/body 10230040 captured counter/state cycle variant 1/4
# tx t=014.061s 1022E040#1000000010000000 note=native BCM/body 1022E040 key-on counter/state cycle variant 1/3
# tx t=014.061s 10240040#83FE880100D70FFD note=native BCM/body 10240040 key-on/second-turn variant
# tx t=014.061s 102C0040#803C96B503 note=native BCM/body 102C0040 key-on captured context
# tx t=014.061s 10754040#040400 note=native key/body context immediate key-on hold variant
# tx t=014.061s 10242040#02 note=native 10242040 immediate second-turn/key-on hold state
# tx t=014.062s 10030040#0075A708 note=data fill battery voltage candidate around 14.7 V
# tx t=014.062s 100C4040#0000000000000000 note=data fill ABS/traction OK candidate, arbid 0x062 source 0x40
# tx t=014.062s 1005E040#0000000000000000 note=data fill brake/cruise OK candidate, arbid 0x02F source 0x40
# tx t=014.062s 10052040#0000000000000000 note=data fill engine information 1 neutral candidate, arbid 0x029 source 0x40
# tx t=014.062s 1006E040#0000000000000000 note=data fill engine information 2 neutral candidate, arbid 0x037 source 0x40
# tx t=014.062s 10064040#0000730000000000 note=data fill engine information 3 / temperature candidate, arbid 0x032 source 0x40
# tx t=014.063s 1004C040#0000200000000000 note=data fill fuel information arbid 0x026 source 0x40: fuel low-ish candidate
(1780159232.820000) can0 621#0052000000000000
(1780159232.820000) can0 10210040#0000800000008000
(1780159232.820000) can0 10264040#0000000000000000
(1780159232.821000) can0 102CA040#0000000000000F00
(1780159232.825000) can0 10220040#1000000040080000
(1780159232.830000) can0 10230040#0000000000000000
(1780159232.849000) can0 1022E040#1000000010000000
(1780159232.850000) can0 10240040#83FE880100D70FFD
(1780159232.850000) can0 102C0040#803C96B503
(1780159232.850000) can0 10754040#040400
(1780159232.852000) can0 10242040#02
(1780159232.855000) can0 10030040#0075A708
(1780159232.858000) can0 100C4040#0000000000000000
(1780159232.861000) can0 1005E040#0000000000000000
(1780159232.864000) can0 10052040#0000000000000000
(1780159232.881000) can0 1006E040#0000000000000000
(1780159232.882000) can0 10064040#0000730000000000
(1780159232.882000) can0 1004C040#0000200000000000
# tx t=014.155s 10210040#0000800000008000 note=native BCM/body base status from IPC_disconnected capture
(1780159232.913000) can0 10210040#0000800000008000
(1780159232.944000) can0 62C#0040000000000000
# tx t=014.265s 10210040#0000800000008000 note=native BCM/body base status from IPC_disconnected capture
(1780159233.023000) can0 10210040#0000800000008000
# tx t=014.312s 10230040#1000000010000000 note=native BCM/body 10230040 captured counter/state cycle variant 2/4
# tx t=014.313s 1022E040#2000000020000000 note=native BCM/body 1022E040 key-on counter/state cycle variant 2/3
(1780159233.070000) can0 10230040#1000000010000000
(1780159233.070000) can0 1022E040#2000000020000000
# tx t=014.360s 10210040#0000800000008000 note=native BCM/body base status from IPC_disconnected capture
(1780159233.117000) can0 10210040#0000800000008000
# tx t=014.469s 10210040#0000800000008000 note=native BCM/body base status from IPC_disconnected capture
(1780159233.227000) can0 10210040#0000800000008000
# tx t=014.564s 10210040#0000800000008000 note=native BCM/body base status from IPC_disconnected capture
# tx t=014.565s 10230040#2000000020000000 note=native BCM/body 10230040 captured counter/state cycle variant 3/4
# tx t=014.565s 1022E040#3000000030000000 note=native BCM/body 1022E040 key-on counter/state cycle variant 3/3
# tx t=014.565s 100C4040#0000000000000000 note=data fill ABS/traction OK candidate, arbid 0x062 source 0x40
# tx t=014.565s 1005E040#0000000000000000 note=data fill brake/cruise OK candidate, arbid 0x02F source 0x40
# tx t=014.565s 1004C040#0000200000000000 note=data fill fuel information arbid 0x026 source 0x40: fuel low-ish candidate
(1780159233.323000) can0 10210040#0000800000008000
(1780159233.323000) can0 10230040#2000000020000000
(1780159233.323000) can0 1022E040#3000000030000000
(1780159233.326000) can0 100C4040#0000000000000000
(1780159233.331000) can0 1005E040#0000000000000000
(1780159233.335000) can0 1004C040#0000200000000000
# tx t=014.661s 13FFE040# note=native fake BCM/source 0x40 presence, captured-like cadence
# tx t=014.661s 10210040#0000800000008000 note=native BCM/body base status from IPC_disconnected capture
(1780159233.418000) can0 13FFE040#
(1780159233.419000) can0 10210040#0000800000008000
# tx t=014.756s 10210040#0000800000008000 note=native BCM/body base status from IPC_disconnected capture
(1780159233.513000) can0 10210040#0000800000008000
(1780159233.545000) can0 13FFE060#
# tx t=014.820s 10230040#3000000030000000 note=native BCM/body 10230040 captured counter/state cycle variant 4/4
# tx t=014.820s 1022E040#1000000010000000 note=native BCM/body 1022E040 key-on counter/state cycle variant 1/3
(1780159233.578000) can0 10230040#3000000030000000
(1780159233.578000) can0 1022E040#1000000010000000
# tx t=014.868s 10210040#0000800000008000 note=native BCM/body base status from IPC_disconnected capture
(1780159233.626000) can0 10210040#0000800000008000
# tx t=014.964s 10210040#0000800000008000 note=native BCM/body base status from IPC_disconnected capture
(1780159233.722000) can0 10210040#0000800000008000
# tx t=015.059s 621#0052000000000000 note=native key-on network-management context
# tx t=015.059s 10210040#0000800000008000 note=native BCM/body base status from IPC_disconnected capture
# tx t=015.059s 10264040#0000000000000000 note=native BCM/body base zero-status frame
# tx t=015.060s 102CA040#0000000000000F00 note=native BCM/body base 102CA040 context
# tx t=015.060s 10220040#1000000040080000 note=native BCM/body 10220040 key-on variant
# tx t=015.060s 10230040#0000000000000000 note=native BCM/body 10230040 captured counter/state cycle variant 1/4
# tx t=015.060s 1022E040#2000000020000000 note=native BCM/body 1022E040 key-on counter/state cycle variant 2/3
# tx t=015.060s 10240040#83FE880100D70FFD note=native BCM/body 10240040 key-on/second-turn variant
# tx t=015.060s 102C0040#803C96B503 note=native BCM/body 102C0040 key-on captured context
# tx t=015.060s 10754040#040400 note=native key/body context immediate key-on hold variant
# tx t=015.060s 10242040#02 note=native 10242040 immediate second-turn/key-on hold state
# tx t=015.060s 10030040#0075A708 note=data fill battery voltage candidate around 14.7 V
# tx t=015.060s 100C4040#0000000000000000 note=data fill ABS/traction OK candidate, arbid 0x062 source 0x40
# tx t=015.061s 1005E040#0000000000000000 note=data fill brake/cruise OK candidate, arbid 0x02F source 0x40
# tx t=015.061s 10052040#0000000000000000 note=data fill engine information 1 neutral candidate, arbid 0x029 source 0x40
# tx t=015.061s 1006E040#0000000000000000 note=data fill engine information 2 neutral candidate, arbid 0x037 source 0x40
# tx t=015.061s 10064040#0000730000000000 note=data fill engine information 3 / temperature candidate, arbid 0x032 source 0x40
# tx t=015.061s 1004C040#0000800000000000 note=data fill fuel information arbid 0x026 source 0x40: fuel mid-scale candidate
(1780159233.819000) can0 621#0052000000000000
(1780159233.819000) can0 10210040#0000800000008000
(1780159233.819000) can0 10264040#0000000000000000
(1780159233.820000) can0 102CA040#0000000000000F00
(1780159233.825000) can0 10220040#1000000040080000
(1780159233.829000) can0 10230040#0000000000000000
(1780159233.848000) can0 1022E040#2000000020000000
(1780159233.849000) can0 10240040#83FE880100D70FFD
(1780159233.849000) can0 102C0040#803C96B503
(1780159233.849000) can0 10754040#040400
(1780159233.851000) can0 10242040#02
(1780159233.854000) can0 10030040#0075A708
(1780159233.857000) can0 100C4040#0000000000000000
(1780159233.860000) can0 1005E040#0000000000000000
(1780159233.863000) can0 10052040#0000000000000000
(1780159233.880000) can0 1006E040#0000000000000000
(1780159233.881000) can0 10064040#0000730000000000
(1780159233.881000) can0 1004C040#0000800000000000
# tx t=015.155s 10210040#0000800000008000 note=native BCM/body base status from IPC_disconnected capture
(1780159233.913000) can0 10210040#0000800000008000
(1780159233.945000) can0 10244060#02
# tx t=015.267s 10210040#0000800000008000 note=native BCM/body base status from IPC_disconnected capture
(1780159234.025000) can0 10210040#0000800000008000
# tx t=015.315s 10230040#1000000010000000 note=native BCM/body 10230040 captured counter/state cycle variant 2/4
# tx t=015.315s 1022E040#3000000030000000 note=native BCM/body 1022E040 key-on counter/state cycle variant 3/3
# tx t=015.316s 100C2040#0073 note=data fill outside air temperature candidate about 17.5 C, arbid 0x061 source 0x40
(1780159234.073000) can0 10230040#1000000010000000
(1780159234.073000) can0 1022E040#3000000030000000
(1780159234.073000) can0 100C2040#0073
# tx t=015.363s 10210040#0000800000008000 note=native BCM/body base status from IPC_disconnected capture
(1780159234.121000) can0 10210040#0000800000008000
# tx t=015.458s 10210040#0000800000008000 note=native BCM/body base status from IPC_disconnected capture
(1780159234.216000) can0 10210040#0000800000008000
# tx t=015.571s 10210040#0000800000008000 note=native BCM/body base status from IPC_disconnected capture
# tx t=015.571s 10230040#2000000020000000 note=native BCM/body 10230040 captured counter/state cycle variant 3/4
# tx t=015.571s 1022E040#1000000010000000 note=native BCM/body 1022E040 key-on counter/state cycle variant 1/3
# tx t=015.571s 100C4040#0000000000000000 note=data fill ABS/traction OK candidate, arbid 0x062 source 0x40
# tx t=015.571s 1005E040#0000000000000000 note=data fill brake/cruise OK candidate, arbid 0x02F source 0x40
# tx t=015.571s 1004C040#0000800000000000 note=data fill fuel information arbid 0x026 source 0x40: fuel mid-scale candidate
(1780159234.329000) can0 10210040#0000800000008000
(1780159234.329000) can0 10230040#2000000020000000
(1780159234.329000) can0 1022E040#1000000010000000
(1780159234.333000) can0 100C4040#0000000000000000
(1780159234.337000) can0 1005E040#0000000000000000
(1780159234.341000) can0 1004C040#0000800000000000
# tx t=015.667s 10210040#0000800000008000 note=native BCM/body base status from IPC_disconnected capture
(1780159234.424000) can0 10210040#0000800000008000
# tx t=015.763s 10210040#0000800000008000 note=native BCM/body base status from IPC_disconnected capture
(1780159234.520000) can0 10210040#0000800000008000
# tx t=015.810s 10230040#3000000030000000 note=native BCM/body 10230040 captured counter/state cycle variant 4/4
# tx t=015.810s 1022E040#2000000020000000 note=native BCM/body 1022E040 key-on counter/state cycle variant 2/3
(1780159234.568000) can0 10230040#3000000030000000
(1780159234.568000) can0 1022E040#2000000020000000
# tx t=015.857s 13FFE040# note=native fake BCM/source 0x40 presence, captured-like cadence
# tx t=015.857s 10210040#0000800000008000 note=native BCM/body base status from IPC_disconnected capture
(1780159234.615000) can0 13FFE040#
(1780159234.615000) can0 10210040#0000800000008000
# tx t=015.968s 10210040#0000800000008000 note=native BCM/body base status from IPC_disconnected capture
(1780159234.726000) can0 10210040#0000800000008000
(1780159234.732000) can0 13FFE060#
# tx t=016.063s 621#0052000000000000 note=native key-on network-management context
# tx t=016.063s 10210040#0000800000008000 note=native BCM/body base status from IPC_disconnected capture
# tx t=016.063s 10264040#0000000000000000 note=native BCM/body base zero-status frame
# tx t=016.064s 102CA040#0000000000000F00 note=native BCM/body base 102CA040 context
# tx t=016.064s 10220040#1000000040080000 note=native BCM/body 10220040 key-on variant
# tx t=016.064s 10230040#0000000000000000 note=native BCM/body 10230040 captured counter/state cycle variant 1/4
# tx t=016.064s 1022E040#3000000030000000 note=native BCM/body 1022E040 key-on counter/state cycle variant 3/3
# tx t=016.064s 10240040#83FE880100D70FFD note=native BCM/body 10240040 key-on/second-turn variant
# tx t=016.064s 102C0040#803C96B503 note=native BCM/body 102C0040 key-on captured context
# tx t=016.065s 10754040#040400 note=native key/body context immediate key-on hold variant
# tx t=016.065s 10242040#02 note=native 10242040 immediate second-turn/key-on hold state
# tx t=016.065s 10030040#0075A708 note=data fill battery voltage candidate around 14.7 V
# tx t=016.065s 100C4040#0000000000000000 note=data fill ABS/traction OK candidate, arbid 0x062 source 0x40
# tx t=016.065s 1005E040#0000000000000000 note=data fill brake/cruise OK candidate, arbid 0x02F source 0x40
# tx t=016.065s 10052040#0000000000000000 note=data fill engine information 1 neutral candidate, arbid 0x029 source 0x40
# tx t=016.065s 1006E040#0000000000000000 note=data fill engine information 2 neutral candidate, arbid 0x037 source 0x40
# tx t=016.065s 10064040#0000730000000000 note=data fill engine information 3 / temperature candidate, arbid 0x032 source 0x40
# tx t=016.065s 1004C040#0000800000000000 note=data fill fuel information arbid 0x026 source 0x40: fuel mid-scale candidate
(1780159234.823000) can0 621#0052000000000000
(1780159234.823000) can0 10210040#0000800000008000
(1780159234.823000) can0 10264040#0000000000000000
(1780159234.824000) can0 102CA040#0000000000000F00
(1780159234.829000) can0 10220040#1000000040080000
(1780159234.833000) can0 10230040#0000000000000000
(1780159234.852000) can0 1022E040#3000000030000000
(1780159234.852000) can0 10240040#83FE880100D70FFD
(1780159234.852000) can0 102C0040#803C96B503
(1780159234.852000) can0 10754040#040400
(1780159234.855000) can0 10242040#02
(1780159234.858000) can0 10030040#0075A708
(1780159234.861000) can0 100C4040#0000000000000000
(1780159234.864000) can0 1005E040#0000000000000000
(1780159234.867000) can0 10052040#0000000000000000
(1780159234.883000) can0 1006E040#0000000000000000
(1780159234.884000) can0 10064040#0000730000000000
(1780159234.884000) can0 1004C040#0000800000000000
# tx t=016.157s 10210040#0000800000008000 note=native BCM/body base status from IPC_disconnected capture
(1780159234.915000) can0 10210040#0000800000008000
# tx t=016.268s 10210040#0000800000008000 note=native BCM/body base status from IPC_disconnected capture
(1780159235.026000) can0 10210040#0000800000008000
# tx t=016.315s 10230040#1000000010000000 note=native BCM/body 10230040 captured counter/state cycle variant 2/4
# tx t=016.315s 1022E040#1000000010000000 note=native BCM/body 1022E040 key-on counter/state cycle variant 1/3
(1780159235.073000) can0 10230040#1000000010000000
(1780159235.073000) can0 1022E040#1000000010000000
# tx t=016.362s 10210040#0000800000008000 note=native BCM/body base status from IPC_disconnected capture
(1780159235.120000) can0 10210040#0000800000008000
# tx t=016.456s 10210040#0000800000008000 note=native BCM/body base status from IPC_disconnected capture
(1780159235.214000) can0 10210040#0000800000008000
# tx t=016.567s 10210040#0000800000008000 note=native BCM/body base status from IPC_disconnected capture
# tx t=016.568s 10230040#2000000020000000 note=native BCM/body 10230040 captured counter/state cycle variant 3/4
# tx t=016.568s 1022E040#2000000020000000 note=native BCM/body 1022E040 key-on counter/state cycle variant 2/3
# tx t=016.568s 100C4040#0000000000000000 note=data fill ABS/traction OK candidate, arbid 0x062 source 0x40
# tx t=016.568s 1005E040#0000000000000000 note=data fill brake/cruise OK candidate, arbid 0x02F source 0x40
# tx t=016.568s 1004C040#0000800000000000 note=data fill fuel information arbid 0x026 source 0x40: fuel mid-scale candidate
(1780159235.326000) can0 10210040#0000800000008000
(1780159235.326000) can0 10230040#2000000020000000
(1780159235.326000) can0 1022E040#2000000020000000
(1780159235.329000) can0 100C4040#0000000000000000
(1780159235.334000) can0 1005E040#0000000000000000
(1780159235.338000) can0 1004C040#0000800000000000
# tx t=016.663s 10210040#0000800000008000 note=native BCM/body base status from IPC_disconnected capture
(1780159235.420000) can0 10210040#0000800000008000
# tx t=016.758s 10210040#0000800000008000 note=native BCM/body base status from IPC_disconnected capture
(1780159235.515000) can0 10210040#0000800000008000
# tx t=016.806s 10230040#3000000030000000 note=native BCM/body 10230040 captured counter/state cycle variant 4/4
# tx t=016.806s 1022E040#3000000030000000 note=native BCM/body 1022E040 key-on counter/state cycle variant 3/3
(1780159235.564000) can0 10230040#3000000030000000
(1780159235.564000) can0 1022E040#3000000030000000
# tx t=016.869s 10210040#0000800000008000 note=native BCM/body base status from IPC_disconnected capture
(1780159235.626000) can0 10210040#0000800000008000
# tx t=016.964s 10210040#0000800000008000 note=native BCM/body base status from IPC_disconnected capture
(1780159235.722000) can0 10210040#0000800000008000
# tx t=017.058s 13FFE040# note=native fake BCM/source 0x40 presence, captured-like cadence
# tx t=017.058s 621#0052000000000000 note=native key-on network-management context
# tx t=017.058s 10210040#0000800000008000 note=native BCM/body base status from IPC_disconnected capture
# tx t=017.058s 10264040#0000000000000000 note=native BCM/body base zero-status frame
# tx t=017.058s 102CA040#0000000000000F00 note=native BCM/body base 102CA040 context
# tx t=017.059s 10220040#1000000040080000 note=native BCM/body 10220040 key-on variant
# tx t=017.059s 10230040#0000000000000000 note=native BCM/body 10230040 captured counter/state cycle variant 1/4
# tx t=017.059s 1022E040#1000000010000000 note=native BCM/body 1022E040 key-on counter/state cycle variant 1/3
# tx t=017.059s 10240040#83FE880100D70FFD note=native BCM/body 10240040 key-on/second-turn variant
# tx t=017.059s 102C0040#803C96B503 note=native BCM/body 102C0040 key-on captured context
# tx t=017.059s 10754040#040400 note=native key/body context immediate key-on hold variant
# tx t=017.059s 10242040#02 note=native 10242040 immediate second-turn/key-on hold state
# tx t=017.059s 10304058#96B501 note=native source 0x58 DIC/icon traffic captured with IPC connected
# tx t=017.059s 10030040#0075A708 note=data fill battery voltage candidate around 14.7 V
# tx t=017.059s 100C4040#0000000000000000 note=data fill ABS/traction OK candidate, arbid 0x062 source 0x40
# tx t=017.059s 1005E040#0000000000000000 note=data fill brake/cruise OK candidate, arbid 0x02F source 0x40
# tx t=017.060s 10052040#0000000000000000 note=data fill engine information 1 neutral candidate, arbid 0x029 source 0x40
# tx t=017.060s 1006E040#0000000000000000 note=data fill engine information 2 neutral candidate, arbid 0x037 source 0x40
# tx t=017.060s 10064040#0000730000000000 note=data fill engine information 3 / temperature candidate, arbid 0x032 source 0x40
# tx t=017.060s 1004C040#0000800000000000 note=data fill fuel information arbid 0x026 source 0x40: fuel mid-scale candidate
(1780159235.818000) can0 13FFE040#
(1780159235.818000) can0 621#0052000000000000
(1780159235.818000) can0 10210040#0000800000008000
(1780159235.818000) can0 10264040#0000000000000000
(1780159235.821000) can0 102CA040#0000000000000F00
(1780159235.826000) can0 10220040#1000000040080000
(1780159235.830000) can0 10230040#0000000000000000
(1780159235.847000) can0 1022E040#1000000010000000
(1780159235.848000) can0 10240040#83FE880100D70FFD
(1780159235.848000) can0 102C0040#803C96B503
(1780159235.848000) can0 10754040#040400
(1780159235.852000) can0 10242040#02
(1780159235.855000) can0 10304058#96B501
(1780159235.858000) can0 10030040#0075A708
(1780159235.861000) can0 100C4040#0000000000000000
(1780159235.879000) can0 1005E040#0000000000000000
(1780159235.880000) can0 10052040#0000000000000000
(1780159235.880000) can0 1006E040#0000000000000000
(1780159235.880000) can0 10064040#0000730000000000
(1780159235.880000) can0 1004C040#0000800000000000
# tx t=017.169s 10210040#0000800000008000 note=native BCM/body base status from IPC_disconnected capture
# tx t=017.170s 10304058#96B501 note=native source 0x58 DIC/icon traffic captured with IPC connected
(1780159235.927000) can0 10210040#0000800000008000
(1780159235.927000) can0 10304058#96B501
(1780159235.938000) can0 62C#0040000000000000
(1780159235.940000) can0 13FFE060#
# tx t=017.264s 10210040#0000800000008000 note=native BCM/body base status from IPC_disconnected capture
(1780159236.022000) can0 10210040#0000800000008000
# tx t=017.280s 10304058#96B501 note=native source 0x58 DIC/icon traffic captured with IPC connected
(1780159236.038000) can0 10304058#96B501
# tx t=017.311s 10230040#1000000010000000 note=native BCM/body 10230040 captured counter/state cycle variant 2/4
# tx t=017.311s 1022E040#2000000020000000 note=native BCM/body 1022E040 key-on counter/state cycle variant 2/3
# tx t=017.312s 100C2040#0073 note=data fill outside air temperature candidate about 17.5 C, arbid 0x061 source 0x40
(1780159236.069000) can0 10230040#1000000010000000
(1780159236.069000) can0 1022E040#2000000020000000
(1780159236.070000) can0 100C2040#0073
# tx t=017.358s 10210040#0000800000008000 note=native BCM/body base status from IPC_disconnected capture
(1780159236.116000) can0 10210040#0000800000008000
# tx t=017.390s 10304058#96B501 note=native source 0x58 DIC/icon traffic captured with IPC connected
(1780159236.148000) can0 10304058#96B501
# tx t=017.469s 10210040#0000800000008000 note=native BCM/body base status from IPC_disconnected capture
(1780159236.227000) can0 10210040#0000800000008000
# tx t=017.501s 10304058#96B501 note=native source 0x58 DIC/icon traffic captured with IPC connected
(1780159236.259000) can0 10304058#96B501
# tx t=017.564s 10210040#0000800000008000 note=native BCM/body base status from IPC_disconnected capture
# tx t=017.565s 10230040#2000000020000000 note=native BCM/body 10230040 captured counter/state cycle variant 3/4
# tx t=017.565s 1022E040#3000000030000000 note=native BCM/body 1022E040 key-on counter/state cycle variant 3/3
# tx t=017.565s 100C4040#0000000000000000 note=data fill ABS/traction OK candidate, arbid 0x062 source 0x40
# tx t=017.565s 1005E040#0000000000000000 note=data fill brake/cruise OK candidate, arbid 0x02F source 0x40
# tx t=017.565s 1004C040#0000800000000000 note=data fill fuel information arbid 0x026 source 0x40: fuel mid-scale candidate
(1780159236.323000) can0 10210040#0000800000008000
(1780159236.323000) can0 10230040#2000000020000000
(1780159236.323000) can0 1022E040#3000000030000000
(1780159236.326000) can0 100C4040#0000000000000000
(1780159236.331000) can0 1005E040#0000000000000000
(1780159236.335000) can0 1004C040#0000800000000000
# tx t=017.612s 10304058#96B501 note=native source 0x58 DIC/icon traffic captured with IPC connected
(1780159236.369000) can0 10304058#96B501
# tx t=017.659s 10210040#0000800000008000 note=native BCM/body base status from IPC_disconnected capture
(1780159236.416000) can0 10210040#0000800000008000
# tx t=017.722s 10304058#96B501 note=native source 0x58 DIC/icon traffic captured with IPC connected
(1780159236.480000) can0 10304058#96B501
# tx t=017.770s 10210040#0000800000008000 note=native BCM/body base status from IPC_disconnected capture
(1780159236.528000) can0 10210040#0000800000008000
# tx t=017.817s 10230040#3000000030000000 note=native BCM/body 10230040 captured counter/state cycle variant 4/4
# tx t=017.817s 1022E040#1000000010000000 note=native BCM/body 1022E040 key-on counter/state cycle variant 1/3
(1780159236.575000) can0 10230040#3000000030000000
(1780159236.575000) can0 1022E040#1000000010000000
# tx t=017.833s 10304058#96B501 note=native source 0x58 DIC/icon traffic captured with IPC connected
(1780159236.590000) can0 10304058#96B501
# tx t=017.865s 10210040#0000800000008000 note=native BCM/body base status from IPC_disconnected capture
(1780159236.622000) can0 10210040#0000800000008000
# tx t=017.944s 10304058#96B501 note=native source 0x58 DIC/icon traffic captured with IPC connected
(1780159236.702000) can0 10304058#96B501
# tx t=017.960s 10210040#0000800000008000 note=native BCM/body base status from IPC_disconnected capture
(1780159236.718000) can0 10210040#0000800000008000
# tx t=018.056s 621#0052000000000000 note=native key-on network-management context
# tx t=018.056s 10210040#0000800000008000 note=native BCM/body base status from IPC_disconnected capture
# tx t=018.056s 10264040#0000000000000000 note=native BCM/body base zero-status frame
# tx t=018.056s 102CA040#0000000000000F00 note=native BCM/body base 102CA040 context
# tx t=018.056s 10220040#1000000040080000 note=native BCM/body 10220040 key-on variant
# tx t=018.056s 10230040#0000000000000000 note=native BCM/body 10230040 captured counter/state cycle variant 1/4
# tx t=018.057s 1022E040#2000000020000000 note=native BCM/body 1022E040 key-on counter/state cycle variant 2/3
# tx t=018.057s 10240040#83FE880100D70FFD note=native BCM/body 10240040 key-on/second-turn variant
# tx t=018.057s 102C0040#803C96B503 note=native BCM/body 102C0040 key-on captured context
# tx t=018.057s 10754040#040400 note=native key/body context immediate key-on hold variant
# tx t=018.057s 10242040#02 note=native 10242040 immediate second-turn/key-on hold state
# tx t=018.057s 10304058#96B501 note=native source 0x58 DIC/icon traffic captured with IPC connected
# tx t=018.057s 10030040#0075A708 note=data fill battery voltage candidate around 14.7 V
# tx t=018.057s 100C4040#0000000000000000 note=data fill ABS/traction OK candidate, arbid 0x062 source 0x40
# tx t=018.058s 1005E040#0000000000000000 note=data fill brake/cruise OK candidate, arbid 0x02F source 0x40
# tx t=018.058s 10052040#0000000000000000 note=data fill engine information 1 neutral candidate, arbid 0x029 source 0x40
# tx t=018.058s 1006E040#0000000000000000 note=data fill engine information 2 neutral candidate, arbid 0x037 source 0x40
# tx t=018.058s 10064040#0000730000000000 note=data fill engine information 3 / temperature candidate, arbid 0x032 source 0x40
# tx t=018.058s 1004C040#0000800000000000 note=data fill fuel information arbid 0x026 source 0x40: fuel mid-scale candidate
(1780159236.816000) can0 621#0052000000000000
(1780159236.816000) can0 10210040#0000800000008000
(1780159236.816000) can0 10264040#0000000000000000
(1780159236.817000) can0 102CA040#0000000000000F00
(1780159236.821000) can0 10220040#1000000040080000
(1780159236.826000) can0 10230040#0000000000000000
(1780159236.845000) can0 1022E040#2000000020000000
(1780159236.846000) can0 10240040#83FE880100D70FFD
(1780159236.846000) can0 102C0040#803C96B503
(1780159236.846000) can0 10754040#040400
(1780159236.848000) can0 10242040#02
(1780159236.851000) can0 10304058#96B501
(1780159236.854000) can0 10030040#0075A708
(1780159236.856000) can0 100C4040#0000000000000000
(1780159236.859000) can0 1005E040#0000000000000000
(1780159236.877000) can0 10052040#0000000000000000
(1780159236.878000) can0 1006E040#0000000000000000
(1780159236.878000) can0 10064040#0000730000000000
(1780159236.878000) can0 1004C040#0000800000000000
# tx t=018.167s 10210040#0000800000008000 note=native BCM/body base status from IPC_disconnected capture
# tx t=018.167s 10304058#96B501 note=native source 0x58 DIC/icon traffic captured with IPC connected
(1780159236.925000) can0 10210040#0000800000008000
(1780159236.925000) can0 10304058#96B501
# tx t=018.262s 13FFE040# note=native fake BCM/source 0x40 presence, captured-like cadence
# tx t=018.262s 10210040#0000800000008000 note=native BCM/body base status from IPC_disconnected capture
(1780159237.020000) can0 13FFE040#
(1780159237.020000) can0 10210040#0000800000008000
# tx t=018.278s 10304058#96B501 note=native source 0x58 DIC/icon traffic captured with IPC connected
(1780159237.036000) can0 10304058#96B501
# tx t=018.309s 10230040#1000000010000000 note=native BCM/body 10230040 captured counter/state cycle variant 2/4
# tx t=018.309s 1022E040#3000000030000000 note=native BCM/body 1022E040 key-on counter/state cycle variant 3/3
(1780159237.067000) can0 10230040#1000000010000000
(1780159237.067000) can0 1022E040#3000000030000000
# tx t=018.357s 10210040#0000800000008000 note=native BCM/body base status from IPC_disconnected capture
(1780159237.115000) can0 10210040#0000800000008000
(1780159237.129000) can0 13FFE060#
# tx t=018.388s 10304058#96B501 note=native source 0x58 DIC/icon traffic captured with IPC connected
(1780159237.146000) can0 10304058#96B501
# tx t=018.467s 10210040#0000800000008000 note=native BCM/body base status from IPC_disconnected capture
(1780159237.225000) can0 10210040#0000800000008000
# tx t=018.499s 10304058#96B501 note=native source 0x58 DIC/icon traffic captured with IPC connected
(1780159237.257000) can0 10304058#96B501
# tx t=018.563s 10210040#0000800000008000 note=native BCM/body base status from IPC_disconnected capture
# tx t=018.563s 10230040#2000000020000000 note=native BCM/body 10230040 captured counter/state cycle variant 3/4
# tx t=018.563s 1022E040#1000000010000000 note=native BCM/body 1022E040 key-on counter/state cycle variant 1/3
# tx t=018.563s 100C4040#0000000000000000 note=data fill ABS/traction OK candidate, arbid 0x062 source 0x40
# tx t=018.563s 1005E040#0000000000000000 note=data fill brake/cruise OK candidate, arbid 0x02F source 0x40
# tx t=018.563s 1004C040#0000800000000000 note=data fill fuel information arbid 0x026 source 0x40: fuel mid-scale candidate
(1780159237.321000) can0 10210040#0000800000008000
(1780159237.321000) can0 10230040#2000000020000000
(1780159237.321000) can0 1022E040#1000000010000000
(1780159237.324000) can0 100C4040#0000000000000000
(1780159237.329000) can0 1005E040#0000000000000000
(1780159237.333000) can0 1004C040#0000800000000000
# tx t=018.594s 10304058#96B501 note=native source 0x58 DIC/icon traffic captured with IPC connected
(1780159237.352000) can0 10304058#96B501
# tx t=018.657s 10210040#0000800000008000 note=native BCM/body base status from IPC_disconnected capture
(1780159237.415000) can0 10210040#0000800000008000
# tx t=018.705s 10304058#96B501 note=native source 0x58 DIC/icon traffic captured with IPC connected
(1780159237.462000) can0 10304058#96B501
# tx t=018.768s 10210040#0000800000008000 note=native BCM/body base status from IPC_disconnected capture
(1780159237.525000) can0 10210040#0000800000008000
# tx t=018.816s 10230040#3000000030000000 note=native BCM/body 10230040 captured counter/state cycle variant 4/4
# tx t=018.816s 1022E040#2000000020000000 note=native BCM/body 1022E040 key-on counter/state cycle variant 2/3
# tx t=018.816s 10304058#96B501 note=native source 0x58 DIC/icon traffic captured with IPC connected
(1780159237.574000) can0 10230040#3000000030000000
(1780159237.574000) can0 1022E040#2000000020000000
(1780159237.574000) can0 10304058#96B501
# tx t=018.863s 10210040#0000800000008000 note=native BCM/body base status from IPC_disconnected capture
(1780159237.621000) can0 10210040#0000800000008000
# tx t=018.926s 10304058#96B501 note=native source 0x58 DIC/icon traffic captured with IPC connected
(1780159237.684000) can0 10304058#96B501
# tx t=018.958s 10210040#0000800000008000 note=native BCM/body base status from IPC_disconnected capture
(1780159237.715000) can0 10210040#0000800000008000
# tx t=019.037s 10304058#96B501 note=native source 0x58 DIC/icon traffic captured with IPC connected
(1780159237.795000) can0 10304058#96B501
# tx t=019.068s 621#0052000000000000 note=native key-on network-management context
# tx t=019.068s 10210040#0000800000008000 note=native BCM/body base status from IPC_disconnected capture
# tx t=019.068s 10264040#0000000000000000 note=native BCM/body base zero-status frame
# tx t=019.068s 102CA040#0000000000000F00 note=native BCM/body base 102CA040 context
# tx t=019.069s 10220040#1000000040080000 note=native BCM/body 10220040 key-on variant
# tx t=019.069s 10230040#0000000000000000 note=native BCM/body 10230040 captured counter/state cycle variant 1/4
# tx t=019.069s 1022E040#3000000030000000 note=native BCM/body 1022E040 key-on counter/state cycle variant 3/3
# tx t=019.069s 10240040#83FE880100D70FFD note=native BCM/body 10240040 key-on/second-turn variant
# tx t=019.069s 102C0040#803C96B503 note=native BCM/body 102C0040 key-on captured context
# tx t=019.069s 10754040#040400 note=native key/body context immediate key-on hold variant
# tx t=019.069s 10242040#02 note=native 10242040 immediate second-turn/key-on hold state
# tx t=019.069s 10030040#0075A708 note=data fill battery voltage candidate around 14.7 V
# tx t=019.069s 100C4040#0000000000000000 note=data fill ABS/traction OK candidate, arbid 0x062 source 0x40
# tx t=019.069s 1005E040#0000000000000000 note=data fill brake/cruise OK candidate, arbid 0x02F source 0x40
# tx t=019.069s 10052040#0000000000000000 note=data fill engine information 1 neutral candidate, arbid 0x029 source 0x40
# tx t=019.069s 1006E040#0000000000000000 note=data fill engine information 2 neutral candidate, arbid 0x037 source 0x40
# tx t=019.070s 10064040#0000730000000000 note=data fill engine information 3 / temperature candidate, arbid 0x032 source 0x40
# tx t=019.070s 1004C040#0000800000000000 note=data fill fuel information arbid 0x026 source 0x40: fuel mid-scale candidate
(1780159237.827000) can0 621#0052000000000000
(1780159237.827000) can0 10210040#0000800000008000
(1780159237.827000) can0 10264040#0000000000000000
(1780159237.829000) can0 102CA040#0000000000000F00
(1780159237.833000) can0 10220040#1000000040080000
(1780159237.838000) can0 10230040#0000000000000000
(1780159237.857000) can0 1022E040#3000000030000000
(1780159237.858000) can0 10240040#83FE880100D70FFD
(1780159237.858000) can0 102C0040#803C96B503
(1780159237.858000) can0 10754040#040400
(1780159237.860000) can0 10242040#02
(1780159237.863000) can0 10030040#0075A708
(1780159237.866000) can0 100C4040#0000000000000000
(1780159237.869000) can0 1005E040#0000000000000000
(1780159237.872000) can0 10052040#0000000000000000
(1780159237.888000) can0 1006E040#0000000000000000
(1780159237.889000) can0 10064040#0000730000000000
(1780159237.889000) can0 1004C040#0000800000000000
# tx t=019.147s 10304058#96B501 note=native source 0x58 DIC/icon traffic captured with IPC connected
(1780159237.905000) can0 10304058#96B501
# tx t=019.163s 10210040#0000800000008000 note=native BCM/body base status from IPC_disconnected capture
(1780159237.921000) can0 10210040#0000800000008000
# tx t=019.258s 10210040#0000800000008000 note=native BCM/body base status from IPC_disconnected capture
# tx t=019.258s 10304058#96B501 note=native source 0x58 DIC/icon traffic captured with IPC connected
(1780159238.016000) can0 10210040#0000800000008000
(1780159238.016000) can0 10304058#96B501
# tx t=019.305s 10230040#1000000010000000 note=native BCM/body 10230040 captured counter/state cycle variant 2/4
# tx t=019.306s 1022E040#1000000010000000 note=native BCM/body 1022E040 key-on counter/state cycle variant 1/3
# tx t=019.306s 100C2040#0073 note=data fill outside air temperature candidate about 17.5 C, arbid 0x061 source 0x40
(1780159238.063000) can0 10230040#1000000010000000
(1780159238.063000) can0 1022E040#1000000010000000
(1780159238.064000) can0 100C2040#0073
# tx t=019.368s 10210040#0000800000008000 note=native BCM/body base status from IPC_disconnected capture
# tx t=019.368s 10304058#96B501 note=native source 0x58 DIC/icon traffic captured with IPC connected
(1780159238.126000) can0 10210040#0000800000008000
(1780159238.126000) can0 10304058#96B501
# tx t=019.463s 13FFE040# note=native fake BCM/source 0x40 presence, captured-like cadence
# tx t=019.463s 10210040#0000800000008000 note=native BCM/body base status from IPC_disconnected capture
(1780159238.221000) can0 13FFE040#
(1780159238.221000) can0 10210040#0000800000008000
# tx t=019.479s 10304058#96B501 note=native source 0x58 DIC/icon traffic captured with IPC connected
(1780159238.237000) can0 10304058#96B501
# tx t=019.558s 10210040#0000800000008000 note=native BCM/body base status from IPC_disconnected capture
# tx t=019.559s 10230040#2000000020000000 note=native BCM/body 10230040 captured counter/state cycle variant 3/4
# tx t=019.559s 1022E040#2000000020000000 note=native BCM/body 1022E040 key-on counter/state cycle variant 2/3
# tx t=019.559s 100C4040#0000000000000000 note=data fill ABS/traction OK candidate, arbid 0x062 source 0x40
# tx t=019.559s 1005E040#0000000000000000 note=data fill brake/cruise OK candidate, arbid 0x02F source 0x40
# tx t=019.559s 1004C040#0000800000000000 note=data fill fuel information arbid 0x026 source 0x40: fuel mid-scale candidate
(1780159238.317000) can0 10210040#0000800000008000
(1780159238.317000) can0 10230040#2000000020000000
(1780159238.317000) can0 1022E040#2000000020000000
(1780159238.320000) can0 100C4040#0000000000000000
(1780159238.325000) can0 1005E040#0000000000000000
(1780159238.329000) can0 1004C040#0000800000000000
# tx t=019.589s 10304058#96B501 note=native source 0x58 DIC/icon traffic captured with IPC connected
(1780159238.347000) can0 13FFE060#
(1780159238.347000) can0 10304058#96B501
# tx t=019.669s 10210040#0000800000008000 note=native BCM/body base status from IPC_disconnected capture
(1780159238.426000) can0 10210040#0000800000008000
# tx t=019.701s 10304058#96B501 note=native source 0x58 DIC/icon traffic captured with IPC connected
(1780159238.458000) can0 10304058#96B501
# tx t=019.764s 10210040#0000800000008000 note=native BCM/body base status from IPC_disconnected capture
(1780159238.521000) can0 10210040#0000800000008000
# tx t=019.812s 10230040#3000000030000000 note=native BCM/body 10230040 captured counter/state cycle variant 4/4
# tx t=019.812s 1022E040#3000000030000000 note=native BCM/body 1022E040 key-on counter/state cycle variant 3/3
# tx t=019.812s 10304058#96B501 note=native source 0x58 DIC/icon traffic captured with IPC connected
(1780159238.570000) can0 10230040#3000000030000000
(1780159238.570000) can0 1022E040#3000000030000000
(1780159238.570000) can0 10304058#96B501
# tx t=019.859s 10210040#0000800000008000 note=native BCM/body base status from IPC_disconnected capture
(1780159238.617000) can0 10210040#0000800000008000
# tx t=019.922s 10304058#96B501 note=native source 0x58 DIC/icon traffic captured with IPC connected
(1780159238.680000) can0 10304058#96B501
# tx t=019.957s 10210040#0000800000008000 note=native BCM/body base status from IPC_disconnected capture
(1780159238.715000) can0 10210040#0000800000008000
# tx t=020.033s 10304058#96B501 note=native source 0x58 DIC/icon traffic captured with IPC connected
(1780159238.791000) can0 10304058#96B501
# tx t=020.064s 621#0052000000000000 note=native key-on network-management context
# tx t=020.064s 10210040#0000800000008000 note=native BCM/body base status from IPC_disconnected capture
# tx t=020.064s 10264040#0000000000000000 note=native BCM/body base zero-status frame
# tx t=020.065s 102CA040#0000000000000F00 note=native BCM/body base 102CA040 context
# tx t=020.065s 10220040#1000000040080000 note=native BCM/body 10220040 key-on variant
# tx t=020.065s 10230040#0000000000000000 note=native BCM/body 10230040 captured counter/state cycle variant 1/4
# tx t=020.065s 1022E040#1000000010000000 note=native BCM/body 1022E040 key-on counter/state cycle variant 1/3
# tx t=020.065s 10240040#83FE880100D70FFD note=native BCM/body 10240040 key-on/second-turn variant
# tx t=020.065s 102C0040#803C96B503 note=native BCM/body 102C0040 key-on captured context
# tx t=020.065s 10754040#040400 note=native key/body context immediate key-on hold variant
# tx t=020.065s 10242040#02 note=native 10242040 immediate second-turn/key-on hold state
# tx t=020.066s 10030040#0075A708 note=data fill battery voltage candidate around 14.7 V
# tx t=020.066s 100C4040#0000000000000000 note=data fill ABS/traction OK candidate, arbid 0x062 source 0x40
# tx t=020.066s 1005E040#0000000000000000 note=data fill brake/cruise OK candidate, arbid 0x02F source 0x40
# tx t=020.066s 10052040#0000000000000000 note=data fill engine information 1 neutral candidate, arbid 0x029 source 0x40
# tx t=020.066s 1006E040#0000000000000000 note=data fill engine information 2 neutral candidate, arbid 0x037 source 0x40
# tx t=020.066s 10064040#0000730000000000 note=data fill engine information 3 / temperature candidate, arbid 0x032 source 0x40
# tx t=020.066s 1004C040#0000C00000000000 note=data fill fuel information arbid 0x026 source 0x40: fuel high-ish candidate
(1780159238.824000) can0 621#0052000000000000
(1780159238.824000) can0 10210040#0000800000008000
(1780159238.824000) can0 10264040#0000000000000000
(1780159238.825000) can0 102CA040#0000000000000F00
(1780159238.829000) can0 10220040#1000000040080000
(1780159238.834000) can0 10230040#0000000000000000
(1780159238.853000) can0 1022E040#1000000010000000
(1780159238.854000) can0 10240040#83FE880100D70FFD
(1780159238.854000) can0 102C0040#803C96B503
(1780159238.854000) can0 10754040#040400
(1780159238.856000) can0 10242040#02
(1780159238.859000) can0 10030040#0075A708
(1780159238.862000) can0 100C4040#0000000000000000
(1780159238.865000) can0 1005E040#0000000000000000
(1780159238.868000) can0 10052040#0000000000000000
(1780159238.885000) can0 1006E040#0000000000000000
(1780159238.886000) can0 10064040#0000730000000000
(1780159238.886000) can0 1004C040#0000C00000000000
# tx t=020.144s 10304058#96B501 note=native source 0x58 DIC/icon traffic captured with IPC connected
(1780159238.902000) can0 10304058#96B501
# tx t=020.160s 10210040#0000800000008000 note=native BCM/body base status from IPC_disconnected capture
(1780159238.918000) can0 10210040#0000800000008000
(1780159238.928000) can0 10244060#02
(1780159238.950000) can0 62C#0040000000000000
# tx t=020.256s 10210040#0000800000008000 note=native BCM/body base status from IPC_disconnected capture
# tx t=020.256s 10304058#96B501 note=native source 0x58 DIC/icon traffic captured with IPC connected
(1780159239.014000) can0 10210040#0000800000008000
(1780159239.014000) can0 10304058#96B501
# tx t=020.319s 10230040#1000000010000000 note=native BCM/body 10230040 captured counter/state cycle variant 2/4
# tx t=020.319s 1022E040#2000000020000000 note=native BCM/body 1022E040 key-on counter/state cycle variant 2/3
(1780159239.077000) can0 10230040#1000000010000000
(1780159239.077000) can0 1022E040#2000000020000000
# tx t=020.367s 10210040#0000800000008000 note=native BCM/body base status from IPC_disconnected capture
# tx t=020.368s 10304058#96B501 note=native source 0x58 DIC/icon traffic captured with IPC connected
(1780159239.125000) can0 10210040#0000800000008000
(1780159239.125000) can0 10304058#96B501
# tx t=020.460s 10210040#0000800000008000 note=native BCM/body base status from IPC_disconnected capture
(1780159239.218000) can0 10210040#0000800000008000
# tx t=020.477s 10304058#96B501 note=native source 0x58 DIC/icon traffic captured with IPC connected
(1780159239.234000) can0 10304058#96B501
# tx t=020.555s 10210040#0000800000008000 note=native BCM/body base status from IPC_disconnected capture
# tx t=020.556s 10230040#2000000020000000 note=native BCM/body 10230040 captured counter/state cycle variant 3/4
# tx t=020.556s 1022E040#3000000030000000 note=native BCM/body 1022E040 key-on counter/state cycle variant 3/3
# tx t=020.556s 100C4040#0000000000000000 note=data fill ABS/traction OK candidate, arbid 0x062 source 0x40
# tx t=020.556s 1005E040#0000000000000000 note=data fill brake/cruise OK candidate, arbid 0x02F source 0x40
# tx t=020.556s 1004C040#0000C00000000000 note=data fill fuel information arbid 0x026 source 0x40: fuel high-ish candidate
(1780159239.314000) can0 10210040#0000800000008000
(1780159239.314000) can0 10230040#2000000020000000
(1780159239.314000) can0 1022E040#3000000030000000
(1780159239.317000) can0 100C4040#0000000000000000
(1780159239.322000) can0 1005E040#0000000000000000
(1780159239.326000) can0 1004C040#0000C00000000000
# tx t=020.587s 10304058#96B501 note=native source 0x58 DIC/icon traffic captured with IPC connected
(1780159239.345000) can0 10304058#96B501
# tx t=020.667s 13FFE040# note=native fake BCM/source 0x40 presence, captured-like cadence
# tx t=020.667s 10210040#0000800000008000 note=native BCM/body base status from IPC_disconnected capture
(1780159239.424000) can0 13FFE040#
(1780159239.424000) can0 10210040#0000800000008000
# tx t=020.699s 10304058#96B501 note=native source 0x58 DIC/icon traffic captured with IPC connected
(1780159239.456000) can0 10304058#96B501
# tx t=020.761s 10210040#0000800000008000 note=native BCM/body base status from IPC_disconnected capture
(1780159239.519000) can0 10210040#0000800000008000
(1780159239.528000) can0 13FFE060#
# tx t=020.810s 10230040#3000000030000000 note=native BCM/body 10230040 captured counter/state cycle variant 4/4
# tx t=020.810s 1022E040#1000000010000000 note=native BCM/body 1022E040 key-on counter/state cycle variant 1/3
# tx t=020.810s 10304058#96B501 note=native source 0x58 DIC/icon traffic captured with IPC connected
(1780159239.568000) can0 10230040#3000000030000000
(1780159239.568000) can0 1022E040#1000000010000000
(1780159239.568000) can0 10304058#96B501
# tx t=020.857s 10210040#0000800000008000 note=native BCM/body base status from IPC_disconnected capture
(1780159239.614000) can0 10210040#0000800000008000
# tx t=020.920s 10304058#96B501 note=native source 0x58 DIC/icon traffic captured with IPC connected
(1780159239.677000) can0 10304058#96B501
# tx t=020.968s 10210040#0000800000008000 note=native BCM/body base status from IPC_disconnected capture
(1780159239.726000) can0 10210040#0000800000008000
# tx t=021.015s 10304058#96B501 note=native source 0x58 DIC/icon traffic captured with IPC connected
(1780159239.773000) can0 10304058#96B501
# tx t=021.062s 621#0052000000000000 note=native key-on network-management context
# tx t=021.062s 10210040#0000800000008000 note=native BCM/body base status from IPC_disconnected capture
# tx t=021.062s 10264040#0000000000000000 note=native BCM/body base zero-status frame
# tx t=021.062s 102CA040#0000000000000F00 note=native BCM/body base 102CA040 context
# tx t=021.063s 10220040#1000000040080000 note=native BCM/body 10220040 key-on variant
# tx t=021.063s 10230040#0000000000000000 note=native BCM/body 10230040 captured counter/state cycle variant 1/4
# tx t=021.063s 1022E040#2000000020000000 note=native BCM/body 1022E040 key-on counter/state cycle variant 2/3
# tx t=021.063s 10240040#83FE880100D70FFD note=native BCM/body 10240040 key-on/second-turn variant
# tx t=021.063s 102C0040#803C96B503 note=native BCM/body 102C0040 key-on captured context
# tx t=021.063s 10754040#040400 note=native key/body context immediate key-on hold variant
# tx t=021.063s 10242040#02 note=native 10242040 immediate second-turn/key-on hold state
# tx t=021.063s 10030040#0075A708 note=data fill battery voltage candidate around 14.7 V
# tx t=021.063s 100C4040#0000000000000000 note=data fill ABS/traction OK candidate, arbid 0x062 source 0x40
# tx t=021.063s 1005E040#0000000000000000 note=data fill brake/cruise OK candidate, arbid 0x02F source 0x40
# tx t=021.064s 10052040#0000000000000000 note=data fill engine information 1 neutral candidate, arbid 0x029 source 0x40
# tx t=021.064s 1006E040#0000000000000000 note=data fill engine information 2 neutral candidate, arbid 0x037 source 0x40
# tx t=021.064s 10064040#0000730000000000 note=data fill engine information 3 / temperature candidate, arbid 0x032 source 0x40
# tx t=021.064s 1004C040#0000C00000000000 note=data fill fuel information arbid 0x026 source 0x40: fuel high-ish candidate
(1780159239.822000) can0 621#0052000000000000
(1780159239.822000) can0 10210040#0000800000008000
(1780159239.822000) can0 10264040#0000000000000000
(1780159239.823000) can0 102CA040#0000000000000F00
(1780159239.828000) can0 10220040#1000000040080000
(1780159239.832000) can0 10230040#0000000000000000
(1780159239.851000) can0 1022E040#2000000020000000
(1780159239.852000) can0 10240040#83FE880100D70FFD
(1780159239.852000) can0 102C0040#803C96B503
(1780159239.852000) can0 10754040#040400
(1780159239.854000) can0 10242040#02
(1780159239.857000) can0 10030040#0075A708
(1780159239.860000) can0 100C4040#0000000000000000
(1780159239.863000) can0 1005E040#0000000000000000
(1780159239.866000) can0 10052040#0000000000000000
# tx t=021.126s 10304058#96B501 note=native source 0x58 DIC/icon traffic captured with IPC connected
(1780159239.884000) can0 1006E040#0000000000000000
(1780159239.884000) can0 10064040#0000730000000000
(1780159239.884000) can0 1004C040#0000C00000000000
(1780159239.884000) can0 10304058#96B501
# tx t=021.157s 10210040#0000800000008000 note=native BCM/body base status from IPC_disconnected capture
(1780159239.915000) can0 10210040#0000800000008000
# tx t=021.236s 10304058#96B501 note=native source 0x58 DIC/icon traffic captured with IPC connected
(1780159239.994000) can0 10304058#96B501
# tx t=021.268s 10210040#0000800000008000 note=native BCM/body base status from IPC_disconnected capture
(1780159240.026000) can0 10210040#0000800000008000
# tx t=021.315s 10230040#1000000010000000 note=native BCM/body 10230040 captured counter/state cycle variant 2/4
# tx t=021.316s 1022E040#3000000030000000 note=native BCM/body 1022E040 key-on counter/state cycle variant 3/3
# tx t=021.316s 100C2040#0073 note=data fill outside air temperature candidate about 17.5 C, arbid 0x061 source 0x40
(1780159240.073000) can0 10230040#1000000010000000
(1780159240.073000) can0 1022E040#3000000030000000
(1780159240.074000) can0 100C2040#0073
# tx t=021.347s 10304058#96B501 note=native source 0x58 DIC/icon traffic captured with IPC connected
(1780159240.105000) can0 10304058#96B501
# tx t=021.362s 10210040#0000800000008000 note=native BCM/body base status from IPC_disconnected capture
(1780159240.120000) can0 10210040#0000800000008000
# tx t=021.457s 10210040#0000800000008000 note=native BCM/body base status from IPC_disconnected capture
# tx t=021.457s 10304058#96B501 note=native source 0x58 DIC/icon traffic captured with IPC connected
(1780159240.215000) can0 10210040#0000800000008000
