# cantool gs_usb direct capture bitrate=33333.333 fclk=170000000 brp=255 prop=1 phase1=13 phase2=5 sjw=4
# mode=normal read-only no-tx
# startup RX drain begin duration_ms=300
(1780081018.856000) can0 10002040#03
(1780081018.860000) can0 10002040#03
(1780081018.860000) can0 10002040#03
(1780081018.860000) can0 0F1#000000400000
(1780081018.863000) can0 451#000000000000
(1780081018.863000) can0 160#803C96B503
(1780081018.863000) can0 1F1#AE0F173E18000072
(1780081018.863000) can0 0F1#1C0000400000
(1780081018.863000) can0 12A#0000605D00008080
(1780081018.863000) can0 135#04080D0002180000
(1780081018.863000) can0 137#0000000000000000
(1780081018.864000) can0 0F1#280000400000
(1780081018.864000) can0 451#000000000000
(1780081018.864000) can0 139#0000000000000000
(1780081018.864000) can0 0F1#340000400000
(1780081018.864000) can0 10002040#03
(1780081018.865000) can0 451#000000000000
(1780081018.865000) can0 160#803C96B503
(1780081018.865000) can0 4E1#4B34303238383139
(1780081018.865000) can0 0C1#2000000020000000
(1780081018.865000) can0 0F1#000000400000
(1780081018.865000) can0 1F1#AE0F173E18000072
(1780081018.866000) can0 12A#0000605D00008080
(1780081018.866000) can0 0C5#2000000020000000
(1780081018.866000) can0 0D1#8000BFFA00FA00
(1780081018.866000) can0 135#04080D0002180000
(1780081018.866000) can0 1C8#40000000FFFF3FFF
(1780081018.867000) can0 0F1#1C0000400000
(1780081018.867000) can0 451#000000000000
(1780081018.867000) can0 137#0000000000000000
(1780081018.867000) can0 139#0000000000000000
(1780081018.867000) can0 1E1#00000400011CC0
(1780081018.868000) can0 1F3#C0FC00
(1780081018.868000) can0 210#020001FF
(1780081018.868000) can0 0F1#280000400000
(1780081018.868000) can0 214#040001FE0802
(1780081018.868000) can0 2F9#0B000000000007
(1780081018.869000) can0 10002040#03
(1780081018.869000) can0 451#000000000000
(1780081018.869000) can0 514#3056305845503638
(1780081018.869000) can0 3CB#304D00000FE6
(1780081018.869000) can0 0F1#340000400000
(1780081018.869000) can0 160#803C96B503
(1780081018.870000) can0 1F1#AE0F173E18000072
(1780081018.870000) can0 0C1#2000000020000000
(1780081018.870000) can0 0C5#2000000020000000
(1780081018.870000) can0 17D#2A2443FF2000
(1780081018.870000) can0 1E5#44FFA0500000026F
(1780081018.871000) can0 12A#0000605D00008080
(1780081018.871000) can0 0D1#8000BFFA00FA00
(1780081018.871000) can0 0F1#000000400000
(1780081018.871000) can0 451#000000000000
(1780081018.871000) can0 135#04080D0002180000
(1780081018.872000) can0 137#0000000000000000
(1780081018.872000) can0 1C8#40000000FFFF3FFF
(1780081018.872000) can0 1E1#00000400011CC0
(1780081018.872000) can0 0F1#1C0000400000
(1780081018.872000) can0 139#0000000000000000
(1780081018.873000) can0 1F3#003C00
(1780081018.873000) can0 13FFE040#
(1780081018.873000) can0 621#0040000000000000
(1780081018.873000) can0 10002040#03
(1780081018.874000) can0 0F1#280000400000
# startup RX drain end count=63
