# cantool TX/RX capture bitrate=33333.333 fclk=170000000 brp=255 prop=1 phase1=13 phase2=5 sjw=4
(1780043877.092000) can0 100#
(1780043877.093000) can0 13FFE040#
(1780043877.093000) can0 621#0140000000000000
(1780043877.879000) can0 621#0040000000000000
(1780043877.881000) can0 100#
(1780043877.885000) can0 13FFE040#
(1780043877.889000) can0 621#0040000000000000
(1780043877.893000) can0 10244060#00
(1780043877.895000) can0 103BC060#00
(1780043877.897000) can0 10444060#00
(1780043877.900000) can0 10448060#00
(1780043877.902000) can0 1045C060#00
(1780043877.905000) can0 10774060#00
(1780043877.907000) can0 10A04060#00
(1780043877.911000) can0 10ACE060#1E00000000000000
(1780043877.916000) can0 10AE8060#030E010104050000
(1780043877.919000) can0 10B0A060#001E04
(1780043877.923000) can0 13FFE060#
(1780043877.942000) can0 10AE8060#030E010104050000
(1780043877.972000) can0 10AE8060#0016010800000000
(1780043877.974000) can0 13FFE060#
(1780043878.022000) can0 10ACE060#1E00000000000000
(1780043878.031000) can0 10B0A060#002B04
(1780043878.091000) can0 621#0140000000000000
(1780043878.101000) can0 10244060#00
(1780043878.102000) can0 100#
(1780043878.102000) can0 13FFE040#
(1780043878.102000) can0 621#0040000000000000
(1780043878.103000) can0 103BC060#00
(1780043878.107000) can0 10448060#00
(1780043878.109000) can0 1045C060#00
(1780043878.112000) can0 10774060#00
(1780043878.114000) can0 10A04060#00
(1780043878.119000) can0 10AE8060#030E010104050000
(1780043878.132000) can0 10ACE060#2B40000000000000
(1780043878.152000) can0 10AE8060#0016010800000000
(1780043878.242000) can0 10ACE060#1E00000000000000
(1780043878.290000) can0 103D6060#00
(1780043878.292000) can0 103DA060#00
(1780043878.295000) can0 1045C060#40
(1780043878.297000) can0 10812060#00
(1780043878.300000) can0 1084A060#00
(1780043878.331000) can0 62C#0040000000000000
(1780043878.334000) can0 10244060#02
(1780043878.340000) can0 10424060#059964
(1780043878.352000) can0 10ACE060#2B00000000000000
(1780043878.440000) can0 10244060#02
(1780043878.462000) can0 10ACE060#1E00200000000000
(1780043878.482000) can0 10AFC060#38FFFFFFFFFFFF2B
(1780043878.607000) can0 100#
(1780043878.607000) can0 13FFE040#
(1780043878.607000) can0 621#0040000000000000
(1780043879.108000) can0 100#
(1780043879.108000) can0 13FFE040#
(1780043879.108000) can0 621#0140000000000000
(1780043879.109000) can0 621#0040000000000000
(1780043879.121000) can0 10244060#02
(1780043879.124000) can0 103BC060#00
(1780043879.126000) can0 10448060#00
(1780043879.129000) can0 1045C060#40
(1780043879.131000) can0 10774060#00
(1780043879.133000) can0 10A04060#00
(1780043879.138000) can0 10ACE060#1E00200000000000
(1780043879.140000) can0 103D6060#00
(1780043879.143000) can0 103DA060#00
(1780043879.146000) can0 10424060#059964
(1780043879.148000) can0 10812060#00
(1780043879.150000) can0 1084A060#00
(1780043879.155000) can0 10AE8060#030E010104050000
(1780043879.169000) can0 13FFE060#
(1780043879.181000) can0 10AE8060#0016010800000000
(1780043879.239000) can0 10774060#00
(1780043879.251000) can0 10ACE060#2B00000000000000
(1780043879.271000) can0 10AFC060#38FFFFFFFFFFFF2B
(1780043879.614000) can0 100#
(1780043879.615000) can0 13FFE040#
(1780043879.615000) can0 621#0040000000000000
(1780043880.116000) can0 100#
(1780043880.116000) can0 13FFE040#
(1780043880.116000) can0 621#0140000000000000
(1780043880.117000) can0 621#0040000000000000
(1780043880.130000) can0 10244060#02
(1780043880.132000) can0 103BC060#00
(1780043880.134000) can0 10448060#00
(1780043880.137000) can0 1045C060#40
(1780043880.139000) can0 103D6060#00
(1780043880.142000) can0 103DA060#00
(1780043880.145000) can0 10424060#079964
(1780043880.147000) can0 10774060#00
(1780043880.150000) can0 10812060#00
(1780043880.152000) can0 1084A060#00
(1780043880.154000) can0 10A04060#00
(1780043880.159000) can0 10ACE060#1E00200000000000
(1780043880.163000) can0 10AE8060#030E010104050000
(1780043880.191000) can0 10AE8060#0016010800000000
(1780043880.271000) can0 10ACE060#2B00000000000000
(1780043880.291000) can0 10AFC060#38FFFFFFFFFFFF2B
(1780043880.369000) can0 13FFE060#
(1780043880.616000) can0 100#
(1780043880.616000) can0 13FFE040#
(1780043880.616000) can0 621#0040000000000000
(1780043881.117000) can0 100#
(1780043881.117000) can0 13FFE040#
(1780043881.118000) can0 621#0140000000000000
(1780043881.118000) can0 621#0040000000000000
(1780043881.130000) can0 10244060#02
(1780043881.133000) can0 103BC060#00
(1780043881.135000) can0 10448060#00
(1780043881.138000) can0 1045C060#40
(1780043881.140000) can0 103D6060#00
(1780043881.142000) can0 103DA060#00
(1780043881.145000) can0 10424060#079964
(1780043881.148000) can0 10774060#00
(1780043881.150000) can0 10812060#00
(1780043881.153000) can0 1084A060#00
(1780043881.155000) can0 10A04060#00
(1780043881.159000) can0 10ACE060#1E00200000000000
(1780043881.164000) can0 10AE8060#030E010104050000
(1780043881.190000) can0 10AE8060#0016010800000000
(1780043881.270000) can0 10ACE060#2B00000000000000
(1780043881.329000) can0 62C#0040000000000000
(1780043881.528000) can0 10244060#06
(1780043881.568000) can0 13FFE060#
(1780043881.588000) can0 10424060#079964
(1780043881.620000) can0 100#
(1780043881.621000) can0 13FFE040#
(1780043881.621000) can0 621#0040000000000000
(1780043882.119000) can0 621#0140000000000000
(1780043882.129000) can0 10244060#06
(1780043882.129000) can0 100#
(1780043882.129000) can0 13FFE040#
(1780043882.130000) can0 621#0040000000000000
(1780043882.131000) can0 103BC060#00
(1780043882.135000) can0 10448060#00
(1780043882.137000) can0 1045C060#40
(1780043882.140000) can0 103D6060#00
(1780043882.142000) can0 103DA060#00
(1780043882.145000) can0 10424060#079964
(1780043882.148000) can0 10774060#00
(1780043882.150000) can0 10812060#00
(1780043882.152000) can0 1084A060#00
(1780043882.155000) can0 10A04060#00
(1780043882.159000) can0 10ACE060#1E00200000000000
(1780043882.163000) can0 10AE8060#030E010104050000
(1780043882.190000) can0 10AE8060#0016010800000000
(1780043882.270000) can0 10ACE060#2B00000000000000
(1780043882.290000) can0 10AFC060#38FFFFFFFFFFFF2B
(1780043882.637000) can0 100#
(1780043882.637000) can0 13FFE040#
(1780043882.637000) can0 621#0040000000000000
(1780043882.767000) can0 13FFE060#
(1780043882.887000) can0 10244060#06
(1780043883.142000) can0 100#
(1780043883.143000) can0 13FFE040#
(1780043883.143000) can0 621#0140000000000000
(1780043883.143000) can0 621#0040000000000000
(1780043883.158000) can0 10244060#06
(1780043883.160000) can0 103BC060#00
(1780043883.163000) can0 10448060#00
(1780043883.165000) can0 1045C060#40
(1780043883.168000) can0 10774060#00
(1780043883.170000) can0 10A04060#00
(1780043883.174000) can0 10ACE060#1E00200000000000
(1780043883.179000) can0 10AE8060#030E010104050000
(1780043883.187000) can0 103D6060#00
(1780043883.190000) can0 103DA060#00
(1780043883.192000) can0 10812060#00
(1780043883.194000) can0 1084A060#00
(1780043883.209000) can0 10AE8060#0016010800000000
(1780043883.279000) can0 10ACE060#2B00000000000000
(1780043883.299000) can0 10AFC060#38FFFFFFFFFFFF2B
(1780043883.338000) can0 10424060#079964
(1780043883.647000) can0 100#
(1780043883.647000) can0 13FFE040#
(1780043883.647000) can0 621#0040000000000000
(1780043883.966000) can0 13FFE060#
(1780043884.150000) can0 100#
(1780043884.150000) can0 13FFE040#
(1780043884.150000) can0 621#0140000000000000
(1780043884.151000) can0 621#0040000000000000
(1780043884.168000) can0 10244060#06
(1780043884.170000) can0 103BC060#00
(1780043884.173000) can0 10448060#00
(1780043884.175000) can0 1045C060#40
(1780043884.178000) can0 10774060#00
(1780043884.180000) can0 10A04060#00
(1780043884.184000) can0 10ACE060#1E00200000000000
(1780043884.189000) can0 10AE8060#030E010104050000
(1780043884.191000) can0 103D6060#00
(1780043884.193000) can0 103DA060#00
(1780043884.196000) can0 10812060#00
(1780043884.198000) can0 1084A060#00
(1780043884.219000) can0 10AE8060#0016010800000000
(1780043884.289000) can0 10ACE060#2B00000000000000
(1780043884.309000) can0 10AFC060#38FFFFFFFFFFFF2B
(1780043884.328000) can0 62C#0040000000000000
(1780043884.337000) can0 10424060#079964
(1780043884.655000) can0 100#
(1780043884.656000) can0 13FFE040#
(1780043884.656000) can0 621#0040000000000000
(1780043885.158000) can0 100#
(1780043885.158000) can0 13FFE040#
(1780043885.158000) can0 621#0140000000000000
(1780043885.159000) can0 621#0040000000000000
(1780043885.167000) can0 13FFE060#
(1780043885.177000) can0 10244060#06
(1780043885.179000) can0 103BC060#00
(1780043885.182000) can0 10448060#00
(1780043885.184000) can0 1045C060#40
(1780043885.187000) can0 103D6060#00
(1780043885.189000) can0 103DA060#00
(1780043885.191000) can0 10774060#00
(1780043885.194000) can0 10812060#00
(1780043885.196000) can0 1084A060#00
(1780043885.199000) can0 10A04060#00
(1780043885.203000) can0 10ACE060#1E00200000000000
(1780043885.207000) can0 10AE8060#030E010104050000
(1780043885.238000) can0 10AE8060#0016010800000000
(1780043885.308000) can0 10ACE060#2B00000000000000
(1780043885.328000) can0 10AFC060#38FFFFFFFFFFFF2B
(1780043885.336000) can0 10424060#079964
(1780043885.671000) can0 100#
(1780043885.672000) can0 13FFE040#
(1780043885.672000) can0 621#0040000000000000
(1780043886.180000) can0 100#
(1780043886.180000) can0 13FFE040#
(1780043886.180000) can0 621#0140000000000000
(1780043886.181000) can0 621#0040000000000000
(1780043886.196000) can0 10244060#06
(1780043886.199000) can0 103BC060#00
(1780043886.201000) can0 10448060#00
(1780043886.204000) can0 1045C060#40
(1780043886.206000) can0 10774060#00
(1780043886.208000) can0 10A04060#00
(1780043886.213000) can0 10ACE060#1E00200000000000
(1780043886.217000) can0 10AE8060#030E010104050000
(1780043886.236000) can0 103D6060#00
(1780043886.238000) can0 103DA060#00
(1780043886.240000) can0 10812060#00
(1780043886.243000) can0 1084A060#00
(1780043886.247000) can0 10AE8060#0016010800000000
(1780043886.318000) can0 10ACE060#2B00000000000000
(1780043886.336000) can0 10424060#079964
(1780043886.340000) can0 10AFC060#38FFFFFFFFFFFF2B
(1780043886.365000) can0 13FFE060#
(1780043886.684000) can0 100#
(1780043886.684000) can0 13FFE040#
(1780043886.685000) can0 621#0040000000000000
(1780043887.189000) can0 100#
(1780043887.189000) can0 13FFE040#
(1780043887.189000) can0 621#0140000000000000
(1780043887.190000) can0 621#0040000000000000
(1780043887.206000) can0 10244060#06
(1780043887.208000) can0 103BC060#00
(1780043887.211000) can0 10448060#00
(1780043887.213000) can0 1045C060#40
(1780043887.215000) can0 10774060#00
(1780043887.218000) can0 10A04060#00
(1780043887.222000) can0 10ACE060#1E00200000000000
(1780043887.226000) can0 10AE8060#030E010104050000
(1780043887.235000) can0 103D6060#00
(1780043887.237000) can0 103DA060#00
(1780043887.240000) can0 10812060#00
(1780043887.242000) can0 1084A060#00
(1780043887.257000) can0 10AE8060#0016010800000000
(1780043887.326000) can0 62C#0040000000000000
(1780043887.330000) can0 10ACE060#2B00000000000000
(1780043887.335000) can0 10424060#079964
(1780043887.347000) can0 10AFC060#38FFFFFFFFFFFF2B
(1780043887.565000) can0 13FFE060#
(1780043887.696000) can0 100#
(1780043887.697000) can0 13FFE040#
(1780043887.697000) can0 621#0040000000000000
(1780043887.885000) can0 10244060#06
(1780043888.198000) can0 100#
(1780043888.199000) can0 13FFE040#
(1780043888.199000) can0 621#0140000000000000
(1780043888.199000) can0 621#0040000000000000
(1780043888.216000) can0 10244060#06
(1780043888.218000) can0 103BC060#00
(1780043888.221000) can0 10448060#00
(1780043888.223000) can0 1045C060#40
(1780043888.225000) can0 10774060#00
(1780043888.228000) can0 10A04060#00
(1780043888.232000) can0 10ACE060#1E00200000000000
(1780043888.235000) can0 103D6060#00
(1780043888.237000) can0 103DA060#00
(1780043888.240000) can0 10812060#00
(1780043888.242000) can0 1084A060#00
(1780043888.246000) can0 10AE8060#030E010104050000
(1780043888.277000) can0 10AE8060#0016010800000000
(1780043888.335000) can0 10424060#079964
(1780043888.346000) can0 10ACE060#2B00000000000000
(1780043888.366000) can0 10AFC060#38FFFFFFFFFFFF2B
(1780043888.704000) can0 100#
(1780043888.704000) can0 13FFE040#
(1780043888.704000) can0 621#0040000000000000
(1780043888.764000) can0 13FFE060#
(1780043889.202000) can0 621#0140000000000000
(1780043889.215000) can0 10244060#06
(1780043889.216000) can0 100#
(1780043889.216000) can0 13FFE040#
(1780043889.216000) can0 621#0040000000000000
(1780043889.217000) can0 103BC060#00
(1780043889.221000) can0 10448060#00
(1780043889.223000) can0 1045C060#40
(1780043889.226000) can0 10774060#00
(1780043889.228000) can0 10A04060#00
(1780043889.233000) can0 10ACE060#1E00200000000000
(1780043889.235000) can0 103D6060#00
(1780043889.238000) can0 103DA060#00
(1780043889.240000) can0 10812060#00
(1780043889.242000) can0 1084A060#00
(1780043889.247000) can0 10AE8060#030E010104050000
(1780043889.276000) can0 10AE8060#0016010800000000
(1780043889.334000) can0 10424060#079964
(1780043889.346000) can0 10ACE060#2B00000000000000
(1780043889.366000) can0 10AFC060#38FFFFFFFFFFFF2B
(1780043889.738000) can0 100#
(1780043889.738000) can0 13FFE040#
(1780043889.738000) can0 621#0040000000000000
(1780043889.963000) can0 13FFE060#
(1780043890.203000) can0 621#0140000000000000
(1780043890.214000) can0 10244060#06
(1780043890.217000) can0 103BC060#00
(1780043890.219000) can0 10448060#00
(1780043890.221000) can0 1045C060#40
(1780043890.224000) can0 10774060#00
(1780043890.226000) can0 10A04060#00
(1780043890.231000) can0 10ACE060#1E00200000000000
(1780043890.235000) can0 10AE8060#030E010104050000
(1780043890.237000) can0 103D6060#00
(1780043890.238000) can0 100#
(1780043890.238000) can0 13FFE040#
(1780043890.238000) can0 621#0040000000000000
(1780043890.240000) can0 103DA060#00
(1780043890.244000) can0 10812060#00
(1780043890.246000) can0 1084A060#00
(1780043890.265000) can0 10AE8060#0016010800000000
(1780043890.325000) can0 62C#0040000000000000
(1780043890.334000) can0 10424060#079964
(1780043890.338000) can0 10ACE060#2B00000000000000
(1780043890.355000) can0 10AFC060#38FFFFFFFFFFFF2B
(1780043890.455000) can0 10600060#01609370015B00
(1780043890.766000) can0 100#
(1780043890.767000) can0 13FFE040#
(1780043890.767000) can0 621#0040000000000000
(1780043891.163000) can0 13FFE060#
(1780043891.221000) can0 621#0140000000000000
(1780043891.234000) can0 10244060#06
(1780043891.236000) can0 103BC060#00
(1780043891.238000) can0 10448060#00
(1780043891.241000) can0 1045C060#40
(1780043891.243000) can0 10774060#00
(1780043891.246000) can0 10A04060#00
(1780043891.250000) can0 10ACE060#1E00200000000000
(1780043891.254000) can0 10AE8060#030E010104050000
(1780043891.283000) can0 100#
(1780043891.283000) can0 103D6060#00
(1780043891.283000) can0 13FFE040#
(1780043891.283000) can0 621#0040000000000000
(1780043891.287000) can0 103DA060#00
(1780043891.289000) can0 10812060#00
(1780043891.291000) can0 1084A060#00
(1780043891.296000) can0 10AE8060#0016010800000000
(1780043891.333000) can0 10424060#079964
(1780043891.355000) can0 10ACE060#2B00000000000000
(1780043891.375000) can0 10AFC060#38FFFFFFFFFFFF2B
(1780043891.788000) can0 100#
(1780043891.788000) can0 13FFE040#
(1780043891.789000) can0 621#0040000000000000
(1780043892.231000) can0 621#0140000000000000
(1780043892.244000) can0 10244060#06
(1780043892.246000) can0 103BC060#00
(1780043892.248000) can0 10448060#00
(1780043892.251000) can0 1045C060#40
(1780043892.253000) can0 10774060#00
(1780043892.256000) can0 10A04060#00
(1780043892.260000) can0 10ACE060#1E00200000000000
(1780043892.264000) can0 10AE8060#030E010104050000
(1780043892.282000) can0 103D6060#00
(1780043892.285000) can0 103DA060#00
(1780043892.287000) can0 10812060#00
(1780043892.289000) can0 1084A060#00
(1780043892.290000) can0 100#
(1780043892.290000) can0 13FFE040#
(1780043892.290000) can0 621#0040000000000000
(1780043892.295000) can0 10AE8060#0016010800000000
(1780043892.333000) can0 10424060#079964
(1780043892.362000) can0 13FFE060#
(1780043892.374000) can0 10ACE060#2B00000000000000
(1780043892.395000) can0 10AFC060#38FFFFFFFFFFFF2B
(1780043892.798000) can0 100#
(1780043892.798000) can0 13FFE040#
(1780043892.798000) can0 621#0040000000000000
(1780043892.882000) can0 10244060#06
(1780043893.257000) can0 621#0140000000000000
(1780043893.272000) can0 10244060#06
(1780043893.275000) can0 103BC060#00
(1780043893.277000) can0 10448060#00
(1780043893.280000) can0 1045C060#40
(1780043893.282000) can0 103D6060#00
(1780043893.285000) can0 103DA060#00
(1780043893.287000) can0 10774060#00
(1780043893.289000) can0 10812060#00
(1780043893.292000) can0 1084A060#00
(1780043893.294000) can0 10A04060#00
(1780043893.299000) can0 10ACE060#1E00200000000000
(1780043893.299000) can0 100#
(1780043893.299000) can0 13FFE040#
(1780043893.300000) can0 621#0040000000000000
(1780043893.303000) can0 10AE8060#030E010104050000
(1780043893.323000) can0 62C#0040000000000000
(1780043893.332000) can0 10424060#079964
(1780043893.336000) can0 10AE8060#0016010800000000
(1780043893.403000) can0 10ACE060#2B00000000000000
(1780043893.423000) can0 10AFC060#38FFFFFFFFFFFF2B
(1780043893.561000) can0 13FFE060#
(1780043893.810000) can0 100#
(1780043893.811000) can0 13FFE040#
(1780043893.811000) can0 621#0040000000000000
(1780043894.279000) can0 621#0140000000000000
(1780043894.292000) can0 10244060#06
(1780043894.295000) can0 103BC060#00
(1780043894.297000) can0 10448060#00
(1780043894.299000) can0 1045C060#40
(1780043894.302000) can0 10774060#00
(1780043894.304000) can0 10A04060#00
(1780043894.309000) can0 10ACE060#1E00200000000000
(1780043894.313000) can0 10AE8060#030E010104050000
(1780043894.314000) can0 100#
(1780043894.314000) can0 13FFE040#
(1780043894.314000) can0 621#0040000000000000
(1780043894.331000) can0 103D6060#00
(1780043894.334000) can0 103DA060#00
(1780043894.336000) can0 10424060#079964
(1780043894.339000) can0 10812060#00
(1780043894.341000) can0 1084A060#00
(1780043894.346000) can0 10AE8060#0016010800000000
(1780043894.413000) can0 10ACE060#2B00000000000000
(1780043894.433000) can0 10AFC060#38FFFFFFFFFFFF2B
(1780043894.761000) can0 13FFE060#
(1780043894.827000) can0 100#
(1780043894.827000) can0 13FFE040#
(1780043894.827000) can0 621#0040000000000000
(1780043895.301000) can0 621#0140000000000000
(1780043895.311000) can0 10244060#06
(1780043895.314000) can0 103BC060#00
(1780043895.316000) can0 10448060#00
(1780043895.319000) can0 1045C060#40
(1780043895.321000) can0 10774060#00
(1780043895.323000) can0 10A04060#00
(1780043895.328000) can0 10ACE060#1E00200000000000
(1780043895.328000) can0 100#
(1780043895.329000) can0 13FFE040#
(1780043895.329000) can0 621#0040000000000000
(1780043895.332000) can0 10AE8060#030E010104050000
(1780043895.336000) can0 103D6060#00
(1780043895.338000) can0 103DA060#00
(1780043895.341000) can0 10424060#079964
(1780043895.344000) can0 10812060#00
(1780043895.346000) can0 1084A060#00
(1780043895.362000) can0 10AE8060#0016010800000000
(1780043895.432000) can0 10ACE060#2B00000000000000
(1780043895.452000) can0 10AFC060#38FFFFFFFFFFFF2B
(1780043895.855000) can0 100#
(1780043895.855000) can0 13FFE040#
(1780043895.855000) can0 621#0040000000000000
(1780043895.960000) can0 13FFE060#
(1780043896.321000) can0 62C#0040000000000000
(1780043896.322000) can0 621#0140000000000000
(1780043896.331000) can0 10244060#06
(1780043896.333000) can0 103BC060#00
(1780043896.336000) can0 10448060#00
(1780043896.338000) can0 1045C060#40
(1780043896.341000) can0 10774060#00
(1780043896.343000) can0 10A04060#00
(1780043896.347000) can0 10ACE060#1E00200000000000
(1780043896.352000) can0 10AE8060#030E010104050000
(1780043896.376000) can0 100#
(1780043896.376000) can0 13FFE040#
(1780043896.377000) can0 621#0040000000000000
(1780043896.382000) can0 103D6060#00
(1780043896.384000) can0 103DA060#00
(1780043896.387000) can0 10812060#00
(1780043896.389000) can0 1084A060#00
(1780043896.394000) can0 10AE8060#0016010800000000
(1780043896.452000) can0 10ACE060#2B00000000000000
(1780043896.472000) can0 10AFC060#38FFFFFFFFFFFF2B
(1780043896.530000) can0 10424060#079964
(1780043896.878000) can0 100#
(1780043896.879000) can0 13FFE040#
(1780043896.879000) can0 621#0040000000000000
(1780043897.159000) can0 13FFE060#
(1780043897.352000) can0 621#0140000000000000
(1780043897.360000) can0 10244060#06
(1780043897.363000) can0 103BC060#00
(1780043897.365000) can0 10448060#00
(1780043897.367000) can0 1045C060#40
(1780043897.370000) can0 10774060#00
(1780043897.372000) can0 10A04060#00
(1780043897.377000) can0 10ACE060#1E00200000000000
(1780043897.381000) can0 10AE8060#030E010104050000
(1780043897.382000) can0 100#
(1780043897.382000) can0 13FFE040#
(1780043897.382000) can0 621#0040000000000000
(1780043897.383000) can0 103D6060#00
(1780043897.387000) can0 103DA060#00
(1780043897.390000) can0 10812060#00
(1780043897.392000) can0 1084A060#00
(1780043897.412000) can0 10AE8060#0016010800000000
(1780043897.481000) can0 10ACE060#2B00000000000000
(1780043897.501000) can0 10AFC060#38FFFFFFFFFFFF2B
(1780043897.530000) can0 10424060#079964
(1780043897.879000) can0 10244060#06
(1780043897.900000) can0 100#
(1780043897.900000) can0 13FFE040#
(1780043897.900000) can0 621#0040000000000000
(1780043898.359000) can0 13FFE060#
(1780043898.359000) can0 621#0140000000000000
(1780043898.370000) can0 10244060#06
(1780043898.372000) can0 103BC060#00
(1780043898.375000) can0 10448060#00
(1780043898.377000) can0 1045C060#40
(1780043898.379000) can0 103D6060#00
(1780043898.382000) can0 103DA060#00
(1780043898.384000) can0 10774060#00
(1780043898.387000) can0 10812060#00
(1780043898.389000) can0 1084A060#00
(1780043898.392000) can0 10A04060#00
(1780043898.396000) can0 10ACE060#1E00200000000000
(1780043898.400000) can0 10AE8060#030E010104050000
(1780043898.401000) can0 100#
(1780043898.401000) can0 13FFE040#
(1780043898.401000) can0 621#0040000000000000
(1780043898.431000) can0 10AE8060#0016010800000000
(1780043898.501000) can0 10ACE060#2B00000000000000
(1780043898.521000) can0 10AFC060#38FFFFFFFFFFFF2B
(1780043898.529000) can0 10424060#079964
(1780043898.932000) can0 100#
(1780043898.932000) can0 13FFE040#
(1780043898.932000) can0 621#0040000000000000
(1780043899.320000) can0 62C#0040000000000000
(1780043899.376000) can0 621#0140000000000000
(1780043899.390000) can0 10244060#06
(1780043899.392000) can0 103BC060#00
(1780043899.394000) can0 10448060#00
(1780043899.397000) can0 1045C060#40
(1780043899.399000) can0 10774060#00
(1780043899.402000) can0 10A04060#00
(1780043899.406000) can0 10ACE060#1E00200000000000
(1780043899.410000) can0 10AE8060#030E010104050000
(1780043899.428000) can0 103D6060#00
(1780043899.431000) can0 103DA060#00
(1780043899.433000) can0 10812060#00
(1780043899.434000) can0 100#
(1780043899.434000) can0 13FFE040#
(1780043899.434000) can0 621#0040000000000000
(1780043899.435000) can0 1084A060#00
(1780043899.441000) can0 10AE8060#0016010800000000
(1780043899.520000) can0 10ACE060#2B00000000000000
(1780043899.529000) can0 10424060#079964
(1780043899.540000) can0 10AFC060#38FFFFFFFFFFFF2B
(1780043899.558000) can0 13FFE060#
(1780043899.956000) can0 100#
(1780043899.956000) can0 13FFE040#
(1780043899.956000) can0 621#0040000000000000
(1780043900.396000) can0 621#0140000000000000
(1780043900.409000) can0 10244060#06
(1780043900.412000) can0 103BC060#00
(1780043900.414000) can0 10448060#00
(1780043900.416000) can0 1045C060#40
(1780043900.419000) can0 10774060#00
(1780043900.421000) can0 10A04060#00
(1780043900.426000) can0 10ACE060#1E00200000000000
(1780043900.428000) can0 103D6060#00
(1780043900.431000) can0 103DA060#00
(1780043900.433000) can0 10812060#00
(1780043900.435000) can0 1084A060#00
(1780043900.440000) can0 10AE8060#030E010104050000
(1780043900.470000) can0 10AE8060#0016010800000000
(1780043900.470000) can0 100#
(1780043900.470000) can0 13FFE040#
(1780043900.470000) can0 621#0040000000000000
(1780043900.528000) can0 10424060#079964
(1780043900.540000) can0 10ACE060#2B00000000000000
(1780043900.560000) can0 10AFC060#38FFFFFFFFFFFF2B
(1780043900.757000) can0 13FFE060#
(1780043900.983000) can0 100#
(1780043900.983000) can0 13FFE040#
(1780043900.983000) can0 621#0040000000000000
(1780043901.427000) can0 621#0140000000000000
(1780043901.438000) can0 10244060#06
(1780043901.440000) can0 103BC060#00
(1780043901.443000) can0 10448060#00
(1780043901.445000) can0 1045C060#40
(1780043901.448000) can0 10774060#00
(1780043901.450000) can0 10A04060#00
(1780043901.455000) can0 10ACE060#1E00200000000000
(1780043901.459000) can0 10AE8060#030E010104050000
(1780043901.477000) can0 103D6060#00
(1780043901.480000) can0 103DA060#00
(1780043901.482000) can0 10812060#00
(1780043901.484000) can0 1084A060#00
(1780043901.485000) can0 100#
(1780043901.486000) can0 13FFE040#
(1780043901.486000) can0 621#0040000000000000
(1780043901.491000) can0 10AE8060#0016010800000000
(1780043901.528000) can0 10424060#079964
(1780043901.559000) can0 10ACE060#2B00000000000000
(1780043901.579000) can0 10AFC060#38FFFFFFFFFFFF2B
(1780043901.957000) can0 13FFE060#
(1780043901.991000) can0 100#
(1780043901.992000) can0 13FFE040#
(1780043901.992000) can0 621#0040000000000000
(1780043902.318000) can0 62C#0040000000000000
(1780043902.446000) can0 621#0140000000000000
(1780043902.458000) can0 10244060#06
(1780043902.460000) can0 103BC060#00
(1780043902.462000) can0 10448060#00
(1780043902.465000) can0 1045C060#40
(1780043902.467000) can0 10774060#00
(1780043902.470000) can0 10A04060#00
(1780043902.474000) can0 10ACE060#1E00200000000000
(1780043902.478000) can0 10AE8060#030E010104050000
(1780043902.481000) can0 103D6060#00
(1780043902.483000) can0 103DA060#00
(1780043902.486000) can0 10812060#00
(1780043902.488000) can0 1084A060#00
(1780043902.509000) can0 100#
(1780043902.509000) can0 13FFE040#
(1780043902.509000) can0 621#0040000000000000
(1780043902.509000) can0 10AE8060#0016010800000000
(1780043902.527000) can0 10424060#079964
(1780043902.579000) can0 10ACE060#2B00000000000000
(1780043902.599000) can0 10AFC060#38FFFFFFFFFFFF2B
(1780043902.876000) can0 10244060#06
(1780043903.025000) can0 100#
(1780043903.026000) can0 13FFE040#
(1780043903.026000) can0 621#0040000000000000
(1780043903.156000) can0 13FFE060#
(1780043903.467000) can0 621#0140000000000000
(1780043903.478000) can0 10244060#06
(1780043903.480000) can0 103BC060#00
(1780043903.483000) can0 10448060#00
(1780043903.485000) can0 1045C060#40
(1780043903.487000) can0 10774060#00
(1780043903.490000) can0 10A04060#00
(1780043903.494000) can0 10ACE060#1E00200000000000
(1780043903.498000) can0 10AE8060#030E010104050000
(1780043903.526000) can0 103D6060#00
(1780043903.527000) can0 100#
(1780043903.527000) can0 13FFE040#
(1780043903.527000) can0 621#0040000000000000
(1780043903.529000) can0 103DA060#00
(1780043903.533000) can0 10424060#079964
(1780043903.536000) can0 10812060#00
(1780043903.538000) can0 1084A060#00
(1780043903.542000) can0 10AE8060#0016010800000000
(1780043903.608000) can0 10ACE060#2B00000000000000
(1780043903.629000) can0 10AFC060#38FFFFFFFFFFFF2B
(1780043904.031000) can0 100#
(1780043904.031000) can0 13FFE040#
(1780043904.031000) can0 621#0040000000000000
(1780043904.356000) can0 13FFE060#
(1780043904.469000) can0 621#0140000000000000
(1780043904.476000) can0 10244060#06
(1780043904.479000) can0 103BC060#00
(1780043904.481000) can0 10448060#00
(1780043904.484000) can0 1045C060#40
(1780043904.486000) can0 10774060#00
(1780043904.489000) can0 10A04060#00
(1780043904.493000) can0 10ACE060#1E00200000000000
(1780043904.497000) can0 10AE8060#030E010104050000
(1780043904.526000) can0 103D6060#00
(1780043904.528000) can0 103DA060#00
(1780043904.531000) can0 10424060#079964
(1780043904.532000) can0 100#
(1780043904.532000) can0 13FFE040#
(1780043904.532000) can0 621#0040000000000000
(1780043904.533000) can0 10812060#00
(1780043904.537000) can0 1084A060#00
(1780043904.542000) can0 10AE8060#0016010800000000
(1780043904.598000) can0 10ACE060#2B00000000000000
(1780043904.618000) can0 10AFC060#38FFFFFFFFFFFF2B
(1780043905.051000) can0 100#
(1780043905.052000) can0 13FFE040#
(1780043905.052000) can0 621#0040000000000000
(1780043905.316000) can0 62C#0040000000000000
(1780043905.478000) can0 621#0140000000000000
(1780043905.486000) can0 10244060#06
(1780043905.488000) can0 103BC060#00
(1780043905.491000) can0 10448060#00
(1780043905.493000) can0 1045C060#40
(1780043905.495000) can0 10774060#00
(1780043905.498000) can0 10A04060#00
(1780043905.502000) can0 10ACE060#1E00200000000000
(1780043905.507000) can0 10AE8060#030E010104050000
(1780043905.525000) can0 103D6060#00
(1780043905.527000) can0 103DA060#00
(1780043905.530000) can0 10424060#079964
(1780043905.533000) can0 10812060#00
(1780043905.535000) can0 1084A060#00
(1780043905.539000) can0 10AE8060#0016010800000000
(1780043905.555000) can0 13FFE060#
(1780043905.556000) can0 100#
(1780043905.556000) can0 13FFE040#
(1780043905.556000) can0 621#0040000000000000
(1780043905.607000) can0 10ACE060#2B00000000000000
(1780043905.627000) can0 10AFC060#38FFFFFFFFFFFF2B
(1780043906.063000) can0 100#
(1780043906.063000) can0 13FFE040#
(1780043906.063000) can0 621#0040000000000000
(1780043906.503000) can0 621#0140000000000000
(1780043906.515000) can0 10244060#06
(1780043906.518000) can0 103BC060#00
(1780043906.520000) can0 10448060#00
(1780043906.523000) can0 1045C060#40
(1780043906.525000) can0 103D6060#00
(1780043906.528000) can0 103DA060#00
(1780043906.530000) can0 10424060#079964
(1780043906.533000) can0 10774060#00
(1780043906.535000) can0 10812060#00
(1780043906.538000) can0 1084A060#00
(1780043906.540000) can0 10A04060#00
(1780043906.544000) can0 10ACE060#1E00200000000000
(1780043906.549000) can0 10AE8060#030E010104050000
(1780043906.576000) can0 10AE8060#0016010800000000
(1780043906.577000) can0 100#
(1780043906.577000) can0 13FFE040#
(1780043906.577000) can0 621#0040000000000000
(1780043906.656000) can0 10ACE060#2B00000000000000
(1780043906.676000) can0 10AFC060#38FFFFFFFFFFFF2B
(1780043906.754000) can0 13FFE060#
(1780043907.101000) can0 100#
(1780043907.101000) can0 13FFE040#
(1780043907.101000) can0 621#0040000000000000
(1780043907.509000) can0 621#0140000000000000
(1780043907.525000) can0 10244060#06
(1780043907.527000) can0 103BC060#00
(1780043907.530000) can0 10448060#00
(1780043907.532000) can0 1045C060#40
(1780043907.534000) can0 10774060#00
(1780043907.537000) can0 10A04060#00
(1780043907.541000) can0 10ACE060#1E00200000000000
(1780043907.545000) can0 10AE8060#030E010104050000
(1780043907.574000) can0 103D6060#00
(1780043907.576000) can0 103DA060#00
(1780043907.579000) can0 10812060#00
(1780043907.581000) can0 1084A060#00
(1780043907.585000) can0 10AE8060#0016010800000000
(1780043907.620000) can0 100#
(1780043907.620000) can0 13FFE040#
(1780043907.620000) can0 621#0040000000000000
(1780043907.646000) can0 10ACE060#2B00000000000000
(1780043907.666000) can0 10AFC060#38FFFFFFFFFFFF2B
(1780043907.724000) can0 10424060#079964
(1780043907.874000) can0 10244060#06
(1780043907.953000) can0 13FFE060#
(1780043908.139000) can0 100#
(1780043908.139000) can0 13FFE040#
(1780043908.139000) can0 621#0040000000000000
(1780043908.315000) can0 62C#0040000000000000
(1780043908.528000) can0 621#0140000000000000
(1780043908.544000) can0 10244060#06
(1780043908.547000) can0 103BC060#00
(1780043908.549000) can0 10448060#00
(1780043908.551000) can0 1045C060#40
(1780043908.554000) can0 10774060#00
(1780043908.556000) can0 10A04060#00
(1780043908.561000) can0 10ACE060#1E00200000000000
(1780043908.565000) can0 10AE8060#030E010104050000
(1780043908.574000) can0 103D6060#00
(1780043908.576000) can0 103DA060#00
(1780043908.579000) can0 10812060#00
(1780043908.581000) can0 1084A060#00
(1780043908.595000) can0 10AE8060#0016010800000000
(1780043908.653000) can0 100#
(1780043908.653000) can0 13FFE040#
(1780043908.653000) can0 621#0040000000000000
(1780043908.665000) can0 10ACE060#2B00000000000000
(1780043908.685000) can0 10AFC060#38FFFFFFFFFFFF2B
(1780043908.724000) can0 10424060#079964
(1780043909.153000) can0 13FFE060#
(1780043909.154000) can0 100#
(1780043909.154000) can0 13FFE040#
(1780043909.154000) can0 621#0040000000000000
(1780043909.536000) can0 621#0140000000000000
(1780043909.544000) can0 10244060#06
(1780043909.546000) can0 103BC060#00
(1780043909.548000) can0 10448060#00
(1780043909.551000) can0 1045C060#40
(1780043909.553000) can0 10774060#00
(1780043909.556000) can0 10A04060#00
(1780043909.560000) can0 10ACE060#1E00200000000000
(1780043909.564000) can0 10AE8060#030E010104050000
(1780043909.573000) can0 103D6060#00
(1780043909.575000) can0 103DA060#00
(1780043909.578000) can0 10812060#00
(1780043909.580000) can0 1084A060#00
(1780043909.595000) can0 10AE8060#0016010800000000
(1780043909.661000) can0 100#
(1780043909.662000) can0 13FFE040#
(1780043909.662000) can0 621#0040000000000000
(1780043909.665000) can0 10ACE060#2B00000000000000
(1780043909.685000) can0 10AFC060#38FFFFFFFFFFFF2B
(1780043909.723000) can0 10424060#079964
(1780043910.163000) can0 100#
(1780043910.163000) can0 13FFE040#
(1780043910.163000) can0 621#0040000000000000
(1780043910.352000) can0 13FFE060#
(1780043910.566000) can0 621#0140000000000000
(1780043910.573000) can0 10244060#06
(1780043910.576000) can0 103BC060#00
(1780043910.578000) can0 10448060#00
(1780043910.580000) can0 1045C060#40
(1780043910.583000) can0 10774060#00
(1780043910.585000) can0 10A04060#00
(1780043910.590000) can0 10ACE060#1E00200000000000
(1780043910.594000) can0 10AE8060#030E010104050000
(1780043910.622000) can0 103D6060#00
(1780043910.625000) can0 103DA060#00
(1780043910.627000) can0 10812060#00
(1780043910.629000) can0 1084A060#00
(1780043910.634000) can0 10AE8060#0016010800000000
(1780043910.693000) can0 100#
(1780043910.693000) can0 13FFE040#
(1780043910.693000) can0 621#0040000000000000
(1780043910.694000) can0 10ACE060#2B00000000000000
(1780043910.714000) can0 10AFC060#38FFFFFFFFFFFF2B
(1780043910.723000) can0 10424060#079964
(1780043911.199000) can0 100#
(1780043911.200000) can0 13FFE040#
(1780043911.200000) can0 621#0040000000000000
(1780043911.313000) can0 62C#0040000000000000
(1780043911.551000) can0 13FFE060#
(1780043911.575000) can0 621#0140000000000000
(1780043911.583000) can0 10244060#06
(1780043911.585000) can0 103BC060#00
(1780043911.588000) can0 10448060#00
(1780043911.590000) can0 1045C060#40
(1780043911.592000) can0 10774060#00
(1780043911.595000) can0 10A04060#00
(1780043911.599000) can0 10ACE060#1E00200000000000
(1780043911.603000) can0 10AE8060#030E010104050000
(1780043911.622000) can0 103D6060#00
(1780043911.624000) can0 103DA060#00
(1780043911.626000) can0 10812060#00
(1780043911.629000) can0 1084A060#00
(1780043911.634000) can0 10AE8060#0016010800000000
(1780043911.704000) can0 10ACE060#2B00000000000000
(1780043911.704000) can0 100#
(1780043911.704000) can0 13FFE040#
(1780043911.704000) can0 621#0040000000000000
(1780043911.722000) can0 10424060#079964
(1780043911.726000) can0 10AFC060#38FFFFFFFFFFFF2B
(1780043912.222000) can0 100#
(1780043912.222000) can0 13FFE040#
(1780043912.222000) can0 621#0040000000000000
(1780043912.598000) can0 621#0140000000000000
(1780043912.612000) can0 10244060#06
(1780043912.614000) can0 103BC060#00
(1780043912.617000) can0 10448060#00
(1780043912.619000) can0 1045C060#40
(1780043912.622000) can0 103D6060#00
(1780043912.624000) can0 103DA060#00
(1780043912.627000) can0 10774060#00
(1780043912.629000) can0 10812060#00
(1780043912.631000) can0 1084A060#00
(1780043912.634000) can0 10A04060#00
(1780043912.638000) can0 10ACE060#1E00200000000000
(1780043912.642000) can0 10AE8060#030E010104050000
(1780043912.673000) can0 10AE8060#0016010800000000
(1780043912.722000) can0 10424060#079964
(1780043912.723000) can0 100#
(1780043912.723000) can0 13FFE040#
(1780043912.723000) can0 621#0040000000000000
(1780043912.743000) can0 10ACE060#2B00000000000000
(1780043912.751000) can0 13FFE060#
(1780043912.763000) can0 10AFC060#38FFFFFFFFFFFF2B
(1780043912.871000) can0 10244060#06
(1780043913.243000) can0 100#
(1780043913.243000) can0 13FFE040#
(1780043913.243000) can0 621#0040000000000000
(1780043913.620000) can0 621#0140000000000000
(1780043913.631000) can0 10244060#06
(1780043913.634000) can0 103BC060#00
(1780043913.636000) can0 10448060#00
(1780043913.639000) can0 1045C060#40
(1780043913.641000) can0 10774060#00
(1780043913.643000) can0 10A04060#00
(1780043913.648000) can0 10ACE060#1E00200000000000
(1780043913.652000) can0 10AE8060#030E010104050000
(1780043913.671000) can0 103D6060#00
(1780043913.673000) can0 103DA060#00
(1780043913.675000) can0 10812060#00
(1780043913.678000) can0 1084A060#00
(1780043913.682000) can0 10AE8060#0016010800000000
(1780043913.721000) can0 10424060#079964
(1780043913.746000) can0 100#
(1780043913.746000) can0 13FFE040#
(1780043913.746000) can0 621#0040000000000000
(1780043913.754000) can0 10ACE060#2B00000000000000
(1780043913.773000) can0 10AFC060#38FFFFFFFFFFFF2B
(1780043913.950000) can0 13FFE060#
(1780043914.266000) can0 100#
(1780043914.267000) can0 13FFE040#
(1780043914.267000) can0 621#0040000000000000
(1780043914.312000) can0 62C#0040000000000000
(1780043914.627000) can0 621#0140000000000000
(1780043914.641000) can0 10244060#06
(1780043914.643000) can0 103BC060#00
(1780043914.646000) can0 10448060#00
(1780043914.648000) can0 1045C060#40
(1780043914.651000) can0 10774060#00
(1780043914.653000) can0 10A04060#00
(1780043914.657000) can0 10ACE060#1E00200000000000
(1780043914.662000) can0 10AE8060#030E010104050000
(1780043914.670000) can0 103D6060#00
(1780043914.673000) can0 103DA060#00
(1780043914.675000) can0 10812060#00
(1780043914.677000) can0 1084A060#00
(1780043914.692000) can0 10AE8060#0016010800000000
(1780043914.721000) can0 10424060#079964
(1780043914.762000) can0 10ACE060#2B00000000000000
(1780043914.782000) can0 10AFC060#38FFFFFFFFFFFF2B
(1780043914.783000) can0 100#
(1780043914.783000) can0 13FFE040#
(1780043914.783000) can0 621#0040000000000000
(1780043915.150000) can0 13FFE060#
(1780043915.301000) can0 100#
(1780043915.301000) can0 13FFE040#
(1780043915.301000) can0 621#0040000000000000
(1780043915.647000) can0 621#0140000000000000
(1780043915.660000) can0 10244060#06
(1780043915.663000) can0 103BC060#00
(1780043915.665000) can0 10448060#00
(1780043915.668000) can0 1045C060#40
(1780043915.670000) can0 103D6060#00
(1780043915.672000) can0 103DA060#00
(1780043915.675000) can0 10774060#00
(1780043915.677000) can0 10812060#00
(1780043915.680000) can0 1084A060#00
(1780043915.682000) can0 10A04060#00
(1780043915.686000) can0 10ACE060#1E00200000000000
(1780043915.691000) can0 10AE8060#030E010104050000
(1780043915.720000) can0 10424060#079964
(1780043915.724000) can0 10AE8060#0016010800000000
(1780043915.792000) can0 10ACE060#2B00000000000000
(1780043915.811000) can0 10AFC060#38FFFFFFFFFFFF2B
(1780043915.812000) can0 100#
(1780043915.812000) can0 13FFE040#
(1780043915.812000) can0 621#0040000000000000
(1780043916.315000) can0 100#
(1780043916.315000) can0 13FFE040#
(1780043916.316000) can0 621#0040000000000000
(1780043916.349000) can0 13FFE060#
(1780043916.663000) can0 621#0140000000000000
(1780043916.670000) can0 10244060#06
(1780043916.672000) can0 103BC060#00
(1780043916.675000) can0 10448060#00
(1780043916.677000) can0 1045C060#40
(1780043916.680000) can0 10774060#00
(1780043916.682000) can0 10A04060#00
(1780043916.686000) can0 10ACE060#1E00200000000000
(1780043916.691000) can0 10AE8060#030E010104050000
(1780043916.719000) can0 103D6060#00
(1780043916.721000) can0 103DA060#00
(1780043916.724000) can0 10424060#079964
(1780043916.727000) can0 10812060#00
(1780043916.729000) can0 1084A060#00
(1780043916.733000) can0 10AE8060#0016010800000000
(1780043916.791000) can0 10ACE060#2B00000000000000
(1780043916.811000) can0 10AFC060#38FFFFFFFFFFFF2B
(1780043916.837000) can0 100#
(1780043916.837000) can0 13FFE040#
(1780043916.837000) can0 621#0040000000000000
(1780043917.310000) can0 62C#0040000000000000
(1780043917.340000) can0 100#
(1780043917.340000) can0 13FFE040#
(1780043917.340000) can0 621#0040000000000000
(1780043917.548000) can0 13FFE060#
(1780043917.672000) can0 621#0140000000000000
(1780043917.679000) can0 10244060#06
(1780043917.682000) can0 103BC060#00
(1780043917.684000) can0 10448060#00
(1780043917.686000) can0 1045C060#40
(1780043917.689000) can0 10774060#00
(1780043917.691000) can0 10A04060#00
(1780043917.696000) can0 10ACE060#1E00200000000000
(1780043917.700000) can0 10AE8060#030E010104050000
(1780043917.718000) can0 103D6060#00
(1780043917.721000) can0 103DA060#00
(1780043917.724000) can0 10424060#079964
(1780043917.726000) can0 10812060#00
(1780043917.728000) can0 1084A060#00
(1780043917.733000) can0 10AE8060#0016010800000000
(1780043917.800000) can0 10ACE060#2B00000000000000
(1780043917.820000) can0 10AFC060#38FFFFFFFFFFFF2B
(1780043917.845000) can0 100#
(1780043917.846000) can0 13FFE040#
(1780043917.846000) can0 621#0040000000000000
(1780043917.868000) can0 10244060#06
(1780043918.361000) can0 100#
(1780043918.361000) can0 13FFE040#
(1780043918.362000) can0 621#0040000000000000
(1780043918.677000) can0 621#0140000000000000
(1780043918.689000) can0 10244060#06
(1780043918.691000) can0 103BC060#00
(1780043918.694000) can0 10448060#00
(1780043918.696000) can0 1045C060#40
(1780043918.698000) can0 10774060#00
(1780043918.701000) can0 10A04060#00
(1780043918.705000) can0 10ACE060#1E00200000000000
(1780043918.709000) can0 10AE8060#030E010104050000
(1780043918.718000) can0 103D6060#00
(1780043918.720000) can0 103DA060#00
(1780043918.723000) can0 10424060#079964
(1780043918.726000) can0 10812060#00
(1780043918.728000) can0 1084A060#00
(1780043918.740000) can0 10AE8060#0016010800000000
(1780043918.748000) can0 13FFE060#
(1780043918.810000) can0 10ACE060#2B00000000000000
(1780043918.830000) can0 10AFC060#38FFFFFFFFFFFF2B
(1780043918.883000) can0 100#
(1780043918.883000) can0 13FFE040#
(1780043918.883000) can0 621#0040000000000000
(1780043919.388000) can0 100#
(1780043919.388000) can0 13FFE040#
(1780043919.388000) can0 621#0040000000000000
(1780043919.704000) can0 621#0140000000000000
(1780043919.718000) can0 10244060#06
(1780043919.720000) can0 103BC060#00
(1780043919.723000) can0 10448060#00
(1780043919.725000) can0 1045C060#40
(1780043919.728000) can0 10774060#00
(1780043919.730000) can0 10A04060#00
(1780043919.735000) can0 10ACE060#1E00200000000000
(1780043919.739000) can0 10AE8060#030E010104050000
(1780043919.767000) can0 103D6060#00
(1780043919.770000) can0 103DA060#00
(1780043919.772000) can0 10812060#00
(1780043919.774000) can0 1084A060#00
(1780043919.779000) can0 10AE8060#0016010800000000
(1780043919.839000) can0 10ACE060#2B00000000000000
(1780043919.859000) can0 10AFC060#38FFFFFFFFFFFF2B
(1780043919.892000) can0 100#
(1780043919.893000) can0 13FFE040#
(1780043919.893000) can0 621#0040000000000000
(1780043919.918000) can0 10424060#079964
(1780043919.947000) can0 13FFE060#
(1780043920.308000) can0 62C#0040000000000000
(1780043920.394000) can0 100#
(1780043920.394000) can0 13FFE040#
(1780043920.394000) can0 621#0040000000000000
(1780043920.710000) can0 621#0140000000000000
(1780043920.718000) can0 10244060#06
(1780043920.720000) can0 103BC060#00
(1780043920.723000) can0 10448060#00
(1780043920.725000) can0 1045C060#40
(1780043920.727000) can0 10774060#00
(1780043920.730000) can0 10A04060#00
(1780043920.734000) can0 10ACE060#1E00200000000000
(1780043920.738000) can0 10AE8060#030E010104050000
(1780043920.767000) can0 103D6060#00
(1780043920.769000) can0 103DA060#00
(1780043920.772000) can0 10812060#00
(1780043920.774000) can0 1084A060#00
(1780043920.778000) can0 10AE8060#0016010800000000
(1780043920.839000) can0 10ACE060#2B00000000000000
(1780043920.859000) can0 10AFC060#38FFFFFFFFFFFF2B
(1780043920.912000) can0 100#
(1780043920.913000) can0 13FFE040#
(1780043920.913000) can0 621#0040000000000000
(1780043920.919000) can0 10424060#079964
(1780043921.147000) can0 13FFE060#
(1780043921.434000) can0 100#
(1780043921.434000) can0 13FFE040#
(1780043921.434000) can0 621#0040000000000000
(1780043921.718000) can0 621#0140000000000000
(1780043921.727000) can0 10244060#06
(1780043921.729000) can0 103BC060#00
(1780043921.732000) can0 10448060#00
(1780043921.734000) can0 1045C060#40
(1780043921.737000) can0 10774060#00
(1780043921.739000) can0 10A04060#00
(1780043921.743000) can0 10ACE060#1E00200000000000
(1780043921.748000) can0 10AE8060#030E010104050000
(1780043921.766000) can0 103D6060#00
(1780043921.769000) can0 103DA060#00
(1780043921.771000) can0 10812060#00
(1780043921.773000) can0 1084A060#00
(1780043921.778000) can0 10AE8060#0016010800000000
(1780043921.848000) can0 10ACE060#2B00000000000000
(1780043921.868000) can0 10AFC060#38FFFFFFFFFFFF2B
(1780043921.917000) can0 10424060#079964
(1780043921.941000) can0 100#
(1780043921.941000) can0 13FFE040#
(1780043921.941000) can0 621#0040000000000000
(1780043922.346000) can0 13FFE060#
(1780043922.470000) can0 100#
(1780043922.470000) can0 13FFE040#
(1780043922.471000) can0 621#0040000000000000
(1780043922.721000) can0 621#0140000000000000
(1780043922.737000) can0 10244060#06
(1780043922.739000) can0 103BC060#00
(1780043922.741000) can0 10448060#00
(1780043922.744000) can0 1045C060#40
(1780043922.746000) can0 10774060#00
(1780043922.749000) can0 10A04060#00
(1780043922.753000) can0 10ACE060#1E00200000000000
(1780043922.757000) can0 10AE8060#030E010104050000
(1780043922.766000) can0 103D6060#00
(1780043922.768000) can0 103DA060#00
(1780043922.771000) can0 10812060#00
(1780043922.773000) can0 1084A060#00
(1780043922.788000) can0 10AE8060#0016010800000000
(1780043922.858000) can0 10ACE060#2B00000000000000
(1780043922.866000) can0 10244060#06
(1780043922.878000) can0 10AFC060#38FFFFFFFFFFFF2B
(1780043922.916000) can0 10424060#079964
(1780043922.975000) can0 100#
(1780043922.975000) can0 13FFE040#
(1780043922.975000) can0 621#0040000000000000
(1780043923.307000) can0 62C#0040000000000000
(1780043923.495000) can0 100#
(1780043923.495000) can0 13FFE040#
(1780043923.496000) can0 621#0040000000000000
(1780043923.545000) can0 13FFE060#
(1780043923.731000) can0 621#0140000000000000
(1780043923.746000) can0 10244060#06
(1780043923.749000) can0 103BC060#00
(1780043923.751000) can0 10448060#00
(1780043923.754000) can0 1045C060#40
(1780043923.756000) can0 10774060#00
(1780043923.759000) can0 10A04060#00
(1780043923.763000) can0 10ACE060#1E00200000000000
(1780043923.765000) can0 103D6060#00
(1780043923.768000) can0 103DA060#00
(1780043923.770000) can0 10812060#00
(1780043923.773000) can0 1084A060#00
(1780043923.777000) can0 10AE8060#030E010104050000
(1780043923.807000) can0 10AE8060#0016010800000000
(1780043923.877000) can0 10ACE060#2B00000000000000
(1780043923.897000) can0 10AFC060#38FFFFFFFFFFFF2B
(1780043923.915000) can0 10424060#079964
(1780043924.000000) can0 100#
(1780043924.000000) can0 13FFE040#
(1780043924.000000) can0 621#0040000000000000
