# cantool live-reload TX/RX capture bitrate=33333.333 fclk=170000000 brp=255 prop=1 phase1=13 phase2=5 sjw=4
# live-reload file=E:\Projects\opel_corsa_e\send_profile.can
# live-reload loaded rows=519 active=2 file=E:\Projects\opel_corsa_e\send_profile.can
# tx t=930.047s 10210040#0F08484848484848 note=live speed_60_kmh_candidate - shows 66 kmh
(1780179170.611000) can0 10210040#0F08484848484848
# tx t=930.063s 102CC040#EEEEEEEEEEEEEEEE note=live speed valid prerequisite confirmed, and rest just in case
(1780179170.628000) can0 102CC040#EEEEEEEEEEEEEEEE
# tx t=930.155s 10210040#0F08484848484848 note=live speed_60_kmh_candidate - shows 66 kmh
(1780179170.720000) can0 10210040#0F08484848484848
# tx t=930.251s 10210040#0F08484848484848 note=live speed_60_kmh_candidate - shows 66 kmh
# tx t=930.299s 102CC040#EEEEEEEEEEEEEEEE note=live speed valid prerequisite confirmed, and rest just in case
# tx t=930.347s 10210040#0F08484848484848 note=live speed_60_kmh_candidate - shows 66 kmh
# tx t=930.459s 10210040#0F08484848484848 note=live speed_60_kmh_candidate - shows 66 kmh
# tx t=930.555s 10210040#0F08484848484848 note=live speed_60_kmh_candidate - shows 66 kmh
# tx t=930.556s 102CC040#EEEEEEEEEEEEEEEE note=live speed valid prerequisite confirmed, and rest just in case
# tx t=930.651s 10210040#0F08484848484848 note=live speed_60_kmh_candidate - shows 66 kmh
# tx t=930.748s 10210040#0F08484848484848 note=live speed_60_kmh_candidate - shows 66 kmh
# tx t=930.812s 102CC040#EEEEEEEEEEEEEEEE note=live speed valid prerequisite confirmed, and rest just in case
# tx t=930.859s 10210040#0F08484848484848 note=live speed_60_kmh_candidate - shows 66 kmh
# tx t=930.955s 10210040#0F08484848484848 note=live speed_60_kmh_candidate - shows 66 kmh
# tx t=931.050s 10210040#0F08484848484848 note=live speed_60_kmh_candidate - shows 66 kmh
# tx t=931.050s 102CC040#EEEEEEEEEEEEEEEE note=live speed valid prerequisite confirmed, and rest just in case
# tx t=931.162s 10210040#0F08484848484848 note=live speed_60_kmh_candidate - shows 66 kmh
# tx t=931.255s 10210040#0F08484848484848 note=live speed_60_kmh_candidate - shows 66 kmh
# tx t=931.303s 102CC040#EEEEEEEEEEEEEEEE note=live speed valid prerequisite confirmed, and rest just in case
# tx t=931.349s 10210040#0F08484848484848 note=live speed_60_kmh_candidate - shows 66 kmh
# tx t=931.461s 10210040#0F08484848484848 note=live speed_60_kmh_candidate - shows 66 kmh
# tx t=931.557s 10210040#0F08484848484848 note=live speed_60_kmh_candidate - shows 66 kmh
# tx t=931.558s 102CC040#EEEEEEEEEEEEEEEE note=live speed valid prerequisite confirmed, and rest just in case
# tx t=931.653s 10210040#0F08484848484848 note=live speed_60_kmh_candidate - shows 66 kmh
# tx t=931.749s 10210040#0F08484848484848 note=live speed_60_kmh_candidate - shows 66 kmh
# tx t=931.813s 102CC040#EEEEEEEEEEEEEEEE note=live speed valid prerequisite confirmed, and rest just in case
# tx t=931.860s 10210040#0F08484848484848 note=live speed_60_kmh_candidate - shows 66 kmh
# tx t=931.956s 10210040#0F08484848484848 note=live speed_60_kmh_candidate - shows 66 kmh
# tx t=932.051s 10210040#0F08484848484848 note=live speed_60_kmh_candidate - shows 66 kmh
# tx t=932.051s 102CC040#EEEEEEEEEEEEEEEE note=live speed valid prerequisite confirmed, and rest just in case
# tx t=932.161s 10210040#0F08484848484848 note=live speed_60_kmh_candidate - shows 66 kmh
# tx t=932.257s 10210040#0F08484848484848 note=live speed_60_kmh_candidate - shows 66 kmh
# tx t=932.305s 102CC040#EEEEEEEEEEEEEEEE note=live speed valid prerequisite confirmed, and rest just in case
# tx t=932.353s 10210040#0F08484848484848 note=live speed_60_kmh_candidate - shows 66 kmh
# tx t=932.447s 10210040#0F08484848484848 note=live speed_60_kmh_candidate - shows 66 kmh
# tx t=932.558s 10210040#0F08484848484848 note=live speed_60_kmh_candidate - shows 66 kmh
# tx t=932.559s 102CC040#EEEEEEEEEEEEEEEE note=live speed valid prerequisite confirmed, and rest just in case
# tx t=932.655s 10210040#0F08484848484848 note=live speed_60_kmh_candidate - shows 66 kmh
# tx t=932.750s 10210040#0F08484848484848 note=live speed_60_kmh_candidate - shows 66 kmh
# tx t=932.814s 102CC040#EEEEEEEEEEEEEEEE note=live speed valid prerequisite confirmed, and rest just in case
# tx t=932.862s 10210040#0F08484848484848 note=live speed_60_kmh_candidate - shows 66 kmh
# tx t=932.957s 10210040#0F08484848484848 note=live speed_60_kmh_candidate - shows 66 kmh
# tx t=933.053s 10210040#0F08484848484848 note=live speed_60_kmh_candidate - shows 66 kmh
# tx t=933.053s 102CC040#EEEEEEEEEEEEEEEE note=live speed valid prerequisite confirmed, and rest just in case
# tx t=933.147s 10210040#0F08484848484848 note=live speed_60_kmh_candidate - shows 66 kmh
# tx t=933.258s 10210040#0F08484848484848 note=live speed_60_kmh_candidate - shows 66 kmh
# tx t=933.306s 102CC040#EEEEEEEEEEEEEEEE note=live speed valid prerequisite confirmed, and rest just in case
# tx t=933.354s 10210040#0F08484848484848 note=live speed_60_kmh_candidate - shows 66 kmh
# tx t=933.450s 10210040#0F08484848484848 note=live speed_60_kmh_candidate - shows 66 kmh
# tx t=933.563s 10210040#0F08484848484848 note=live speed_60_kmh_candidate - shows 66 kmh
# tx t=933.563s 102CC040#EEEEEEEEEEEEEEEE note=live speed valid prerequisite confirmed, and rest just in case
# tx t=933.658s 10210040#0F08484848484848 note=live speed_60_kmh_candidate - shows 66 kmh
# tx t=933.755s 10210040#0F08484848484848 note=live speed_60_kmh_candidate - shows 66 kmh
# tx t=933.803s 102CC040#EEEEEEEEEEEEEEEE note=live speed valid prerequisite confirmed, and rest just in case
# tx t=933.851s 10210040#0F08484848484848 note=live speed_60_kmh_candidate - shows 66 kmh
# tx t=933.963s 10210040#0F08484848484848 note=live speed_60_kmh_candidate - shows 66 kmh
# tx t=934.059s 10210040#0F08484848484848 note=live speed_60_kmh_candidate - shows 66 kmh
# tx t=934.059s 102CC040#EEEEEEEEEEEEEEEE note=live speed valid prerequisite confirmed, and rest just in case
# tx t=934.155s 10210040#0F08484848484848 note=live speed_60_kmh_candidate - shows 66 kmh
# tx t=934.251s 10210040#0F08484848484848 note=live speed_60_kmh_candidate - shows 66 kmh
# tx t=934.299s 102CC040#EEEEEEEEEEEEEEEE note=live speed valid prerequisite confirmed, and rest just in case
# tx t=934.347s 10210040#0F08484848484848 note=live speed_60_kmh_candidate - shows 66 kmh
# tx t=934.459s 10210040#0F08484848484848 note=live speed_60_kmh_candidate - shows 66 kmh
# tx t=934.552s 10210040#0F08484848484848 note=live speed_60_kmh_candidate - shows 66 kmh
# tx t=934.552s 102CC040#EEEEEEEEEEEEEEEE note=live speed valid prerequisite confirmed, and rest just in case
# tx t=934.647s 10210040#0F08484848484848 note=live speed_60_kmh_candidate - shows 66 kmh
# tx t=934.759s 10210040#0F08484848484848 note=live speed_60_kmh_candidate - shows 66 kmh
# tx t=934.807s 102CC040#EEEEEEEEEEEEEEEE note=live speed valid prerequisite confirmed, and rest just in case
# tx t=934.855s 10210040#0F08484848484848 note=live speed_60_kmh_candidate - shows 66 kmh
# tx t=934.951s 10210040#0F08484848484848 note=live speed_60_kmh_candidate - shows 66 kmh
# tx t=935.047s 10210040#0F08484848484848 note=live speed_60_kmh_candidate - shows 66 kmh
# tx t=935.063s 102CC040#EEEEEEEEEEEEEEEE note=live speed valid prerequisite confirmed, and rest just in case
# tx t=935.159s 10210040#0F08484848484848 note=live speed_60_kmh_candidate - shows 66 kmh
# tx t=935.255s 10210040#0F08484848484848 note=live speed_60_kmh_candidate - shows 66 kmh
# tx t=935.303s 102CC040#EEEEEEEEEEEEEEEE note=live speed valid prerequisite confirmed, and rest just in case
# tx t=935.351s 10210040#0F08484848484848 note=live speed_60_kmh_candidate - shows 66 kmh
# tx t=935.462s 10210040#0F08484848484848 note=live speed_60_kmh_candidate - shows 66 kmh
# tx t=935.557s 10210040#0F08484848484848 note=live speed_60_kmh_candidate - shows 66 kmh
# tx t=935.558s 102CC040#EEEEEEEEEEEEEEEE note=live speed valid prerequisite confirmed, and rest just in case
# tx t=935.653s 10210040#0F08484848484848 note=live speed_60_kmh_candidate - shows 66 kmh
# tx t=935.748s 10210040#0F08484848484848 note=live speed_60_kmh_candidate - shows 66 kmh
# tx t=935.810s 102CC040#EEEEEEEEEEEEEEEE note=live speed valid prerequisite confirmed, and rest just in case
# tx t=935.858s 10210040#0F08484848484848 note=live speed_60_kmh_candidate - shows 66 kmh
# tx t=935.953s 10210040#0F08484848484848 note=live speed_60_kmh_candidate - shows 66 kmh
# tx t=936.049s 10210040#0F08484848484848 note=live speed_60_kmh_candidate - shows 66 kmh
# tx t=936.049s 102CC040#EEEEEEEEEEEEEEEE note=live speed valid prerequisite confirmed, and rest just in case
# tx t=936.160s 10210040#0F08484848484848 note=live speed_60_kmh_candidate - shows 66 kmh
# tx t=936.254s 10210040#0F08484848484848 note=live speed_60_kmh_candidate - shows 66 kmh
# tx t=936.302s 102CC040#EEEEEEEEEEEEEEEE note=live speed valid prerequisite confirmed, and rest just in case
# tx t=936.349s 10210040#0F08484848484848 note=live speed_60_kmh_candidate - shows 66 kmh
# tx t=936.461s 10210040#0F08484848484848 note=live speed_60_kmh_candidate - shows 66 kmh
# tx t=936.556s 10210040#0F08484848484848 note=live speed_60_kmh_candidate - shows 66 kmh
# tx t=936.557s 102CC040#EEEEEEEEEEEEEEEE note=live speed valid prerequisite confirmed, and rest just in case
# tx t=936.651s 10210040#0F08484848484848 note=live speed_60_kmh_candidate - shows 66 kmh
# tx t=936.763s 10210040#0F08484848484848 note=live speed_60_kmh_candidate - shows 66 kmh
# tx t=936.810s 102CC040#EEEEEEEEEEEEEEEE note=live speed valid prerequisite confirmed, and rest just in case
# tx t=936.857s 10210040#0F08484848484848 note=live speed_60_kmh_candidate - shows 66 kmh
# tx t=936.952s 10210040#0F08484848484848 note=live speed_60_kmh_candidate - shows 66 kmh
# tx t=937.048s 10210040#0F08484848484848 note=live speed_60_kmh_candidate - shows 66 kmh
# tx t=937.064s 102CC040#EEEEEEEEEEEEEEEE note=live speed valid prerequisite confirmed, and rest just in case
# tx t=937.160s 10210040#0F08484848484848 note=live speed_60_kmh_candidate - shows 66 kmh
# tx t=937.256s 10210040#0F08484848484848 note=live speed_60_kmh_candidate - shows 66 kmh
# tx t=937.304s 102CC040#EEEEEEEEEEEEEEEE note=live speed valid prerequisite confirmed, and rest just in case
# tx t=937.352s 10210040#0F08484848484848 note=live speed_60_kmh_candidate - shows 66 kmh
# tx t=937.448s 10210040#0F08484848484848 note=live speed_60_kmh_candidate - shows 66 kmh
# tx t=937.560s 10210040#0F08484848484848 note=live speed_60_kmh_candidate - shows 66 kmh
# tx t=937.561s 102CC040#EEEEEEEEEEEEEEEE note=live speed valid prerequisite confirmed, and rest just in case
# tx t=937.656s 10210040#0F08484848484848 note=live speed_60_kmh_candidate - shows 66 kmh
# tx t=937.753s 10210040#0F08484848484848 note=live speed_60_kmh_candidate - shows 66 kmh
# tx t=937.800s 102CC040#EEEEEEEEEEEEEEEE note=live speed valid prerequisite confirmed, and rest just in case
# tx t=937.848s 10210040#0F08484848484848 note=live speed_60_kmh_candidate - shows 66 kmh
# tx t=937.960s 10210040#0F08484848484848 note=live speed_60_kmh_candidate - shows 66 kmh
# tx t=938.055s 10210040#0F08484848484848 note=live speed_60_kmh_candidate - shows 66 kmh
# tx t=938.055s 102CC040#EEEEEEEEEEEEEEEE note=live speed valid prerequisite confirmed, and rest just in case
# tx t=938.151s 10210040#0F08484848484848 note=live speed_60_kmh_candidate - shows 66 kmh
# tx t=938.263s 10210040#0F08484848484848 note=live speed_60_kmh_candidate - shows 66 kmh
# tx t=938.311s 102CC040#EEEEEEEEEEEEEEEE note=live speed valid prerequisite confirmed, and rest just in case
# tx t=938.358s 10210040#0F08484848484848 note=live speed_60_kmh_candidate - shows 66 kmh
# tx t=938.454s 10210040#0F08484848484848 note=live speed_60_kmh_candidate - shows 66 kmh
# tx t=938.550s 10210040#0F08484848484848 note=live speed_60_kmh_candidate - shows 66 kmh
# tx t=938.550s 102CC040#EEEEEEEEEEEEEEEE note=live speed valid prerequisite confirmed, and rest just in case
# tx t=938.663s 10210040#0F08484848484848 note=live speed_60_kmh_candidate - shows 66 kmh
# tx t=938.759s 10210040#0F08484848484848 note=live speed_60_kmh_candidate - shows 66 kmh
# tx t=938.807s 102CC040#EEEEEEEEEEEEEEEE note=live speed valid prerequisite confirmed, and rest just in case
# tx t=938.855s 10210040#0F08484848484848 note=live speed_60_kmh_candidate - shows 66 kmh
# tx t=938.950s 10210040#0F08484848484848 note=live speed_60_kmh_candidate - shows 66 kmh
# tx t=939.061s 10210040#0F08484848484848 note=live speed_60_kmh_candidate - shows 66 kmh
# tx t=939.061s 102CC040#EEEEEEEEEEEEEEEE note=live speed valid prerequisite confirmed, and rest just in case
# tx t=939.156s 10210040#0F08484848484848 note=live speed_60_kmh_candidate - shows 66 kmh
# tx t=939.252s 10210040#0F08484848484848 note=live speed_60_kmh_candidate - shows 66 kmh
# tx t=939.300s 102CC040#EEEEEEEEEEEEEEEE note=live speed valid prerequisite confirmed, and rest just in case
# tx t=939.348s 10210040#0F08484848484848 note=live speed_60_kmh_candidate - shows 66 kmh
# tx t=939.460s 10210040#0F08484848484848 note=live speed_60_kmh_candidate - shows 66 kmh
# tx t=939.554s 10210040#0F08484848484848 note=live speed_60_kmh_candidate - shows 66 kmh
# tx t=939.554s 102CC040#EEEEEEEEEEEEEEEE note=live speed valid prerequisite confirmed, and rest just in case
# tx t=939.648s 10210040#0F08484848484848 note=live speed_60_kmh_candidate - shows 66 kmh
# tx t=939.760s 10210040#0F08484848484848 note=live speed_60_kmh_candidate - shows 66 kmh
# tx t=939.808s 102CC040#EEEEEEEEEEEEEEEE note=live speed valid prerequisite confirmed, and rest just in case
# tx t=939.856s 10210040#0F08484848484848 note=live speed_60_kmh_candidate - shows 66 kmh
# tx t=939.951s 10210040#0F08484848484848 note=live speed_60_kmh_candidate - shows 66 kmh
# tx t=940.062s 10210040#0F08484848484848 note=live speed_60_kmh_candidate - shows 66 kmh
# tx t=940.062s 102CC040#EEEEEEEEEEEEEEEE note=live speed valid prerequisite confirmed, and rest just in case
# tx t=940.157s 10210040#0F08484848484848 note=live speed_60_kmh_candidate - shows 66 kmh
# tx t=940.251s 10210040#0F08484848484848 note=live speed_60_kmh_candidate - shows 66 kmh
# tx t=940.315s 102CC040#EEEEEEEEEEEEEEEE note=live speed valid prerequisite confirmed, and rest just in case
# tx t=940.362s 10210040#0F08484848484848 note=live speed_60_kmh_candidate - shows 66 kmh
# tx t=940.458s 10210040#0F08484848484848 note=live speed_60_kmh_candidate - shows 66 kmh
# tx t=940.553s 10210040#0F08484848484848 note=live speed_60_kmh_candidate - shows 66 kmh
# tx t=940.553s 102CC040#EEEEEEEEEEEEEEEE note=live speed valid prerequisite confirmed, and rest just in case
# tx t=940.663s 10210040#0F08484848484848 note=live speed_60_kmh_candidate - shows 66 kmh
# tx t=940.758s 10210040#0F08484848484848 note=live speed_60_kmh_candidate - shows 66 kmh
# tx t=940.807s 102CC040#EEEEEEEEEEEEEEEE note=live speed valid prerequisite confirmed, and rest just in case
# tx t=940.854s 10210040#0F08484848484848 note=live speed_60_kmh_candidate - shows 66 kmh
# tx t=940.949s 10210040#0F08484848484848 note=live speed_60_kmh_candidate - shows 66 kmh
# tx t=941.061s 10210040#0F08484848484848 note=live speed_60_kmh_candidate - shows 66 kmh
# tx t=941.061s 102CC040#EEEEEEEEEEEEEEEE note=live speed valid prerequisite confirmed, and rest just in case
# tx t=941.157s 10210040#0F08484848484848 note=live speed_60_kmh_candidate - shows 66 kmh
# tx t=941.253s 10210040#0F08484848484848 note=live speed_60_kmh_candidate - shows 66 kmh
# tx t=941.301s 102CC040#EEEEEEEEEEEEEEEE note=live speed valid prerequisite confirmed, and rest just in case
# tx t=941.348s 10210040#0F08484848484848 note=live speed_60_kmh_candidate - shows 66 kmh
# tx t=941.460s 10210040#0F08484848484848 note=live speed_60_kmh_candidate - shows 66 kmh
# tx t=941.555s 10210040#0F08484848484848 note=live speed_60_kmh_candidate - shows 66 kmh
# tx t=941.556s 102CC040#EEEEEEEEEEEEEEEE note=live speed valid prerequisite confirmed, and rest just in case
# tx t=941.649s 10210040#0F08484848484848 note=live speed_60_kmh_candidate - shows 66 kmh
# tx t=941.760s 10210040#0F08484848484848 note=live speed_60_kmh_candidate - shows 66 kmh
# tx t=941.808s 102CC040#EEEEEEEEEEEEEEEE note=live speed valid prerequisite confirmed, and rest just in case
# tx t=941.857s 10210040#0F08484848484848 note=live speed_60_kmh_candidate - shows 66 kmh
# tx t=941.951s 10210040#0F08484848484848 note=live speed_60_kmh_candidate - shows 66 kmh
# tx t=942.061s 10210040#0F08484848484848 note=live speed_60_kmh_candidate - shows 66 kmh
# tx t=942.062s 102CC040#EEEEEEEEEEEEEEEE note=live speed valid prerequisite confirmed, and rest just in case
# tx t=942.157s 10210040#0F08484848484848 note=live speed_60_kmh_candidate - shows 66 kmh
# tx t=942.251s 10210040#0F08484848484848 note=live speed_60_kmh_candidate - shows 66 kmh
# tx t=942.315s 102CC040#EEEEEEEEEEEEEEEE note=live speed valid prerequisite confirmed, and rest just in case
# tx t=942.362s 10210040#0F08484848484848 note=live speed_60_kmh_candidate - shows 66 kmh
# tx t=942.458s 10210040#0F08484848484848 note=live speed_60_kmh_candidate - shows 66 kmh
# tx t=942.553s 10210040#0F08484848484848 note=live speed_60_kmh_candidate - shows 66 kmh
# tx t=942.553s 102CC040#EEEEEEEEEEEEEEEE note=live speed valid prerequisite confirmed, and rest just in case
# tx t=942.663s 10210040#0F08484848484848 note=live speed_60_kmh_candidate - shows 66 kmh
# tx t=942.758s 10210040#0F08484848484848 note=live speed_60_kmh_candidate - shows 66 kmh
# tx t=942.806s 102CC040#EEEEEEEEEEEEEEEE note=live speed valid prerequisite confirmed, and rest just in case
# tx t=942.854s 10210040#0F08484848484848 note=live speed_60_kmh_candidate - shows 66 kmh
# tx t=942.949s 10210040#0F08484848484848 note=live speed_60_kmh_candidate - shows 66 kmh
# tx t=943.061s 10210040#0F08484848484848 note=live speed_60_kmh_candidate - shows 66 kmh
# tx t=943.061s 102CC040#EEEEEEEEEEEEEEEE note=live speed valid prerequisite confirmed, and rest just in case
# tx t=943.156s 10210040#0F08484848484848 note=live speed_60_kmh_candidate - shows 66 kmh
# tx t=943.252s 10210040#0F08484848484848 note=live speed_60_kmh_candidate - shows 66 kmh
# tx t=943.314s 102CC040#EEEEEEEEEEEEEEEE note=live speed valid prerequisite confirmed, and rest just in case
# tx t=943.361s 10210040#0F08484848484848 note=live speed_60_kmh_candidate - shows 66 kmh
# tx t=943.458s 10210040#0F08484848484848 note=live speed_60_kmh_candidate - shows 66 kmh
# tx t=943.552s 10210040#0F08484848484848 note=live speed_60_kmh_candidate - shows 66 kmh
# tx t=943.552s 102CC040#EEEEEEEEEEEEEEEE note=live speed valid prerequisite confirmed, and rest just in case
# tx t=943.648s 10210040#0F08484848484848 note=live speed_60_kmh_candidate - shows 66 kmh
# tx t=943.759s 10210040#0F08484848484848 note=live speed_60_kmh_candidate - shows 66 kmh
# tx t=943.807s 102CC040#EEEEEEEEEEEEEEEE note=live speed valid prerequisite confirmed, and rest just in case
# tx t=943.855s 10210040#0F08484848484848 note=live speed_60_kmh_candidate - shows 66 kmh
# tx t=943.950s 10210040#0F08484848484848 note=live speed_60_kmh_candidate - shows 66 kmh
# tx t=944.063s 10210040#0F08484848484848 note=live speed_60_kmh_candidate - shows 66 kmh
# tx t=944.063s 102CC040#EEEEEEEEEEEEEEEE note=live speed valid prerequisite confirmed, and rest just in case
# tx t=944.156s 10210040#0F08484848484848 note=live speed_60_kmh_candidate - shows 66 kmh
# tx t=944.251s 10210040#0F08484848484848 note=live speed_60_kmh_candidate - shows 66 kmh
# tx t=944.300s 102CC040#EEEEEEEEEEEEEEEE note=live speed valid prerequisite confirmed, and rest just in case
# tx t=944.347s 10210040#0F08484848484848 note=live speed_60_kmh_candidate - shows 66 kmh
# tx t=944.459s 10210040#0F08484848484848 note=live speed_60_kmh_candidate - shows 66 kmh
# tx t=944.555s 10210040#0F08484848484848 note=live speed_60_kmh_candidate - shows 66 kmh
# tx t=944.555s 102CC040#EEEEEEEEEEEEEEEE note=live speed valid prerequisite confirmed, and rest just in case
# tx t=944.651s 10210040#0F08484848484848 note=live speed_60_kmh_candidate - shows 66 kmh
# tx t=944.747s 10210040#0F08484848484848 note=live speed_60_kmh_candidate - shows 66 kmh
# tx t=944.811s 102CC040#EEEEEEEEEEEEEEEE note=live speed valid prerequisite confirmed, and rest just in case
# tx t=944.860s 10210040#0F08484848484848 note=live speed_60_kmh_candidate - shows 66 kmh
# tx t=944.955s 10210040#0F08484848484848 note=live speed_60_kmh_candidate - shows 66 kmh
# tx t=945.050s 10210040#0F08484848484848 note=live speed_60_kmh_candidate - shows 66 kmh
# tx t=945.051s 102CC040#EEEEEEEEEEEEEEEE note=live speed valid prerequisite confirmed, and rest just in case
# tx t=945.162s 10210040#0F08484848484848 note=live speed_60_kmh_candidate - shows 66 kmh
# tx t=945.258s 10210040#0F08484848484848 note=live speed_60_kmh_candidate - shows 66 kmh
# tx t=945.306s 102CC040#EEEEEEEEEEEEEEEE note=live speed valid prerequisite confirmed, and rest just in case
# tx t=945.352s 10210040#0F08484848484848 note=live speed_60_kmh_candidate - shows 66 kmh
# tx t=945.448s 10210040#0F08484848484848 note=live speed_60_kmh_candidate - shows 66 kmh
# tx t=945.560s 10210040#0F08484848484848 note=live speed_60_kmh_candidate - shows 66 kmh
# tx t=945.561s 102CC040#EEEEEEEEEEEEEEEE note=live speed valid prerequisite confirmed, and rest just in case
# tx t=945.656s 10210040#0F08484848484848 note=live speed_60_kmh_candidate - shows 66 kmh
# tx t=945.752s 10210040#0F08484848484848 note=live speed_60_kmh_candidate - shows 66 kmh
# tx t=945.800s 102CC040#EEEEEEEEEEEEEEEE note=live speed valid prerequisite confirmed, and rest just in case
# tx t=945.849s 10210040#0F08484848484848 note=live speed_60_kmh_candidate - shows 66 kmh
# tx t=945.960s 10210040#0F08484848484848 note=live speed_60_kmh_candidate - shows 66 kmh
# tx t=946.056s 10210040#0F08484848484848 note=live speed_60_kmh_candidate - shows 66 kmh
# tx t=946.056s 102CC040#EEEEEEEEEEEEEEEE note=live speed valid prerequisite confirmed, and rest just in case
# tx t=946.151s 10210040#0F08484848484848 note=live speed_60_kmh_candidate - shows 66 kmh
# tx t=946.263s 10210040#0F08484848484848 note=live speed_60_kmh_candidate - shows 66 kmh
# tx t=946.311s 102CC040#EEEEEEEEEEEEEEEE note=live speed valid prerequisite confirmed, and rest just in case
# tx t=946.358s 10210040#0F08484848484848 note=live speed_60_kmh_candidate - shows 66 kmh
# tx t=946.453s 10210040#0F08484848484848 note=live speed_60_kmh_candidate - shows 66 kmh
# tx t=946.549s 10210040#0F08484848484848 note=live speed_60_kmh_candidate - shows 66 kmh
# tx t=946.549s 102CC040#EEEEEEEEEEEEEEEE note=live speed valid prerequisite confirmed, and rest just in case
# tx t=946.661s 10210040#0F08484848484848 note=live speed_60_kmh_candidate - shows 66 kmh
# tx t=946.756s 10210040#0F08484848484848 note=live speed_60_kmh_candidate - shows 66 kmh
# tx t=946.803s 102CC040#EEEEEEEEEEEEEEEE note=live speed valid prerequisite confirmed, and rest just in case
# tx t=946.850s 10210040#0F08484848484848 note=live speed_60_kmh_candidate - shows 66 kmh
# tx t=946.961s 10210040#0F08484848484848 note=live speed_60_kmh_candidate - shows 66 kmh
# tx t=947.057s 10210040#0F08484848484848 note=live speed_60_kmh_candidate - shows 66 kmh
# tx t=947.057s 102CC040#EEEEEEEEEEEEEEEE note=live speed valid prerequisite confirmed, and rest just in case
# tx t=947.151s 10210040#0F08484848484848 note=live speed_60_kmh_candidate - shows 66 kmh
# tx t=947.261s 10210040#0F08484848484848 note=live speed_60_kmh_candidate - shows 66 kmh
# tx t=947.309s 102CC040#EEEEEEEEEEEEEEEE note=live speed valid prerequisite confirmed, and rest just in case
# tx t=947.356s 10210040#0F08484848484848 note=live speed_60_kmh_candidate - shows 66 kmh
# tx t=947.452s 10210040#0F08484848484848 note=live speed_60_kmh_candidate - shows 66 kmh
# tx t=947.547s 10210040#0F08484848484848 note=live speed_60_kmh_candidate - shows 66 kmh
# tx t=947.563s 102CC040#EEEEEEEEEEEEEEEE note=live speed valid prerequisite confirmed, and rest just in case
# tx t=947.660s 10210040#0F08484848484848 note=live speed_60_kmh_candidate - shows 66 kmh
# tx t=947.755s 10210040#0F08484848484848 note=live speed_60_kmh_candidate - shows 66 kmh
# tx t=947.803s 102CC040#EEEEEEEEEEEEEEEE note=live speed valid prerequisite confirmed, and rest just in case
# tx t=947.851s 10210040#0F08484848484848 note=live speed_60_kmh_candidate - shows 66 kmh
# tx t=947.962s 10210040#0F08484848484848 note=live speed_60_kmh_candidate - shows 66 kmh
# tx t=948.058s 10210040#0F08484848484848 note=live speed_60_kmh_candidate - shows 66 kmh
# tx t=948.058s 102CC040#EEEEEEEEEEEEEEEE note=live speed valid prerequisite confirmed, and rest just in case
# tx t=948.153s 10210040#0F08484848484848 note=live speed_60_kmh_candidate - shows 66 kmh
# tx t=948.249s 10210040#0F08484848484848 note=live speed_60_kmh_candidate - shows 66 kmh
# tx t=948.313s 102CC040#EEEEEEEEEEEEEEEE note=live speed valid prerequisite confirmed, and rest just in case
# tx t=948.360s 10210040#0F08484848484848 note=live speed_60_kmh_candidate - shows 66 kmh
# tx t=948.456s 10210040#0F08484848484848 note=live speed_60_kmh_candidate - shows 66 kmh
# tx t=948.551s 10210040#0F08484848484848 note=live speed_60_kmh_candidate - shows 66 kmh
# tx t=948.551s 102CC040#EEEEEEEEEEEEEEEE note=live speed valid prerequisite confirmed, and rest just in case
# tx t=948.662s 10210040#0F08484848484848 note=live speed_60_kmh_candidate - shows 66 kmh
# tx t=948.757s 10210040#0F08484848484848 note=live speed_60_kmh_candidate - shows 66 kmh
# tx t=948.806s 102CC040#EEEEEEEEEEEEEEEE note=live speed valid prerequisite confirmed, and rest just in case
# tx t=948.853s 10210040#0F08484848484848 note=live speed_60_kmh_candidate - shows 66 kmh
# tx t=948.948s 10210040#0F08484848484848 note=live speed_60_kmh_candidate - shows 66 kmh
# tx t=949.060s 10210040#0F08484848484848 note=live speed_60_kmh_candidate - shows 66 kmh
# tx t=949.060s 102CC040#EEEEEEEEEEEEEEEE note=live speed valid prerequisite confirmed, and rest just in case
# tx t=949.154s 10210040#0F08484848484848 note=live speed_60_kmh_candidate - shows 66 kmh
# tx t=949.249s 10210040#0F08484848484848 note=live speed_60_kmh_candidate - shows 66 kmh
# tx t=949.313s 102CC040#EEEEEEEEEEEEEEEE note=live speed valid prerequisite confirmed, and rest just in case
# tx t=949.361s 10210040#0F08484848484848 note=live speed_60_kmh_candidate - shows 66 kmh
# tx t=949.456s 10210040#0F08484848484848 note=live speed_60_kmh_candidate - shows 66 kmh
# tx t=949.552s 10210040#0F08484848484848 note=live speed_60_kmh_candidate - shows 66 kmh
# tx t=949.552s 102CC040#EEEEEEEEEEEEEEEE note=live speed valid prerequisite confirmed, and rest just in case
# tx t=949.647s 10210040#0F08484848484848 note=live speed_60_kmh_candidate - shows 66 kmh
# tx t=949.759s 10210040#0F08484848484848 note=live speed_60_kmh_candidate - shows 66 kmh
# tx t=949.807s 102CC040#EEEEEEEEEEEEEEEE note=live speed valid prerequisite confirmed, and rest just in case
# tx t=949.854s 10210040#0F08484848484848 note=live speed_60_kmh_candidate - shows 66 kmh
# tx t=949.950s 10210040#0F08484848484848 note=live speed_60_kmh_candidate - shows 66 kmh
# tx t=950.061s 10210040#0F08484848484848 note=live speed_60_kmh_candidate - shows 66 kmh
# tx t=950.062s 102CC040#EEEEEEEEEEEEEEEE note=live speed valid prerequisite confirmed, and rest just in case
# tx t=950.156s 10210040#0F08484848484848 note=live speed_60_kmh_candidate - shows 66 kmh
# tx t=950.252s 10210040#0F08484848484848 note=live speed_60_kmh_candidate - shows 66 kmh
# tx t=950.300s 102CC040#EEEEEEEEEEEEEEEE note=live speed valid prerequisite confirmed, and rest just in case
# tx t=950.348s 10210040#0F08484848484848 note=live speed_60_kmh_candidate - shows 66 kmh
# tx t=950.459s 10210040#0F08484848484848 note=live speed_60_kmh_candidate - shows 66 kmh
# tx t=950.554s 10210040#0F08484848484848 note=live speed_60_kmh_candidate - shows 66 kmh
# tx t=950.555s 102CC040#EEEEEEEEEEEEEEEE note=live speed valid prerequisite confirmed, and rest just in case
# tx t=950.650s 10210040#0F08484848484848 note=live speed_60_kmh_candidate - shows 66 kmh
# tx t=950.763s 10210040#0F08484848484848 note=live speed_60_kmh_candidate - shows 66 kmh
# tx t=950.811s 102CC040#EEEEEEEEEEEEEEEE note=live speed valid prerequisite confirmed, and rest just in case
# tx t=950.857s 10210040#0F08484848484848 note=live speed_60_kmh_candidate - shows 66 kmh
# tx t=950.952s 10210040#0F08484848484848 note=live speed_60_kmh_candidate - shows 66 kmh
# tx t=951.048s 10210040#0F08484848484848 note=live speed_60_kmh_candidate - shows 66 kmh
# tx t=951.064s 102CC040#EEEEEEEEEEEEEEEE note=live speed valid prerequisite confirmed, and rest just in case
# tx t=951.161s 10210040#0F08484848484848 note=live speed_60_kmh_candidate - shows 66 kmh
# tx t=951.256s 10210040#0F08484848484848 note=live speed_60_kmh_candidate - shows 66 kmh
# tx t=951.304s 102CC040#EEEEEEEEEEEEEEEE note=live speed valid prerequisite confirmed, and rest just in case
# tx t=951.352s 10210040#0F08484848484848 note=live speed_60_kmh_candidate - shows 66 kmh
# tx t=951.447s 10210040#0F08484848484848 note=live speed_60_kmh_candidate - shows 66 kmh
# tx t=951.559s 10210040#0F08484848484848 note=live speed_60_kmh_candidate - shows 66 kmh
# tx t=951.559s 102CC040#EEEEEEEEEEEEEEEE note=live speed valid prerequisite confirmed, and rest just in case
# tx t=951.654s 10210040#0F08484848484848 note=live speed_60_kmh_candidate - shows 66 kmh
# tx t=951.750s 10210040#0F08484848484848 note=live speed_60_kmh_candidate - shows 66 kmh
# tx t=951.814s 102CC040#EEEEEEEEEEEEEEEE note=live speed valid prerequisite confirmed, and rest just in case
# tx t=951.862s 10210040#0F08484848484848 note=live speed_60_kmh_candidate - shows 66 kmh
# tx t=951.958s 10210040#0F08484848484848 note=live speed_60_kmh_candidate - shows 66 kmh
# tx t=952.055s 10210040#0F08484848484848 note=live speed_60_kmh_candidate - shows 66 kmh
# tx t=952.055s 102CC040#EEEEEEEEEEEEEEEE note=live speed valid prerequisite confirmed, and rest just in case
# tx t=952.150s 10210040#0F08484848484848 note=live speed_60_kmh_candidate - shows 66 kmh
# tx t=952.262s 10210040#0F08484848484848 note=live speed_60_kmh_candidate - shows 66 kmh
# tx t=952.310s 102CC040#EEEEEEEEEEEEEEEE note=live speed valid prerequisite confirmed, and rest just in case
# tx t=952.357s 10210040#0F08484848484848 note=live speed_60_kmh_candidate - shows 66 kmh
# tx t=952.451s 10210040#0F08484848484848 note=live speed_60_kmh_candidate - shows 66 kmh
# tx t=952.547s 10210040#0F08484848484848 note=live speed_60_kmh_candidate - shows 66 kmh
# tx t=952.563s 102CC040#EEEEEEEEEEEEEEEE note=live speed valid prerequisite confirmed, and rest just in case
# tx t=952.657s 10210040#0F08484848484848 note=live speed_60_kmh_candidate - shows 66 kmh
# tx t=952.752s 10210040#0F08484848484848 note=live speed_60_kmh_candidate - shows 66 kmh
# tx t=952.800s 102CC040#EEEEEEEEEEEEEEEE note=live speed valid prerequisite confirmed, and rest just in case
# tx t=952.848s 10210040#0F08484848484848 note=live speed_60_kmh_candidate - shows 66 kmh
# tx t=952.960s 10210040#0F08484848484848 note=live speed_60_kmh_candidate - shows 66 kmh
# tx t=953.056s 10210040#0F08484848484848 note=live speed_60_kmh_candidate - shows 66 kmh
# tx t=953.056s 102CC040#EEEEEEEEEEEEEEEE note=live speed valid prerequisite confirmed, and rest just in case
# tx t=953.152s 10210040#0F08484848484848 note=live speed_60_kmh_candidate - shows 66 kmh
# tx t=953.248s 10210040#0F08484848484848 note=live speed_60_kmh_candidate - shows 66 kmh
# tx t=953.312s 102CC040#EEEEEEEEEEEEEEEE note=live speed valid prerequisite confirmed, and rest just in case
# tx t=953.360s 10210040#0F08484848484848 note=live speed_60_kmh_candidate - shows 66 kmh
# tx t=953.455s 10210040#0F08484848484848 note=live speed_60_kmh_candidate - shows 66 kmh
# tx t=953.550s 10210040#0F08484848484848 note=live speed_60_kmh_candidate - shows 66 kmh
# tx t=953.550s 102CC040#EEEEEEEEEEEEEEEE note=live speed valid prerequisite confirmed, and rest just in case
# tx t=953.660s 10210040#0F08484848484848 note=live speed_60_kmh_candidate - shows 66 kmh
# tx t=953.756s 10210040#0F08484848484848 note=live speed_60_kmh_candidate - shows 66 kmh
# tx t=953.804s 102CC040#EEEEEEEEEEEEEEEE note=live speed valid prerequisite confirmed, and rest just in case
# tx t=953.852s 10210040#0F08484848484848 note=live speed_60_kmh_candidate - shows 66 kmh
# tx t=953.962s 10210040#0F08484848484848 note=live speed_60_kmh_candidate - shows 66 kmh
# tx t=954.058s 10210040#0F08484848484848 note=live speed_60_kmh_candidate - shows 66 kmh
# tx t=954.059s 102CC040#EEEEEEEEEEEEEEEE note=live speed valid prerequisite confirmed, and rest just in case
# tx t=954.155s 10210040#0F08484848484848 note=live speed_60_kmh_candidate - shows 66 kmh
# tx t=954.251s 10210040#0F08484848484848 note=live speed_60_kmh_candidate - shows 66 kmh
# tx t=954.299s 102CC040#EEEEEEEEEEEEEEEE note=live speed valid prerequisite confirmed, and rest just in case
# tx t=954.347s 10210040#0F08484848484848 note=live speed_60_kmh_candidate - shows 66 kmh
# tx t=954.459s 10210040#0F08484848484848 note=live speed_60_kmh_candidate - shows 66 kmh
# tx t=954.555s 10210040#0F08484848484848 note=live speed_60_kmh_candidate - shows 66 kmh
# tx t=954.555s 102CC040#EEEEEEEEEEEEEEEE note=live speed valid prerequisite confirmed, and rest just in case
# tx t=954.651s 10210040#0F08484848484848 note=live speed_60_kmh_candidate - shows 66 kmh
# tx t=954.747s 10210040#0F08484848484848 note=live speed_60_kmh_candidate - shows 66 kmh
# tx t=954.811s 102CC040#EEEEEEEEEEEEEEEE note=live speed valid prerequisite confirmed, and rest just in case
# tx t=954.859s 10210040#0F08484848484848 note=live speed_60_kmh_candidate - shows 66 kmh
# tx t=954.955s 10210040#0F08484848484848 note=live speed_60_kmh_candidate - shows 66 kmh
# tx t=955.050s 10210040#0F08484848484848 note=live speed_60_kmh_candidate - shows 66 kmh
# tx t=955.051s 102CC040#EEEEEEEEEEEEEEEE note=live speed valid prerequisite confirmed, and rest just in case
# tx t=955.163s 10210040#0F08484848484848 note=live speed_60_kmh_candidate - shows 66 kmh
# tx t=955.259s 10210040#0F08484848484848 note=live speed_60_kmh_candidate - shows 66 kmh
# tx t=955.307s 102CC040#EEEEEEEEEEEEEEEE note=live speed valid prerequisite confirmed, and rest just in case
# tx t=955.355s 10210040#0F08484848484848 note=live speed_60_kmh_candidate - shows 66 kmh
# tx t=955.451s 10210040#0F08484848484848 note=live speed_60_kmh_candidate - shows 66 kmh
# tx t=955.547s 10210040#0F08484848484848 note=live speed_60_kmh_candidate - shows 66 kmh
# tx t=955.563s 102CC040#EEEEEEEEEEEEEEEE note=live speed valid prerequisite confirmed, and rest just in case
# tx t=955.658s 10210040#0F08484848484848 note=live speed_60_kmh_candidate - shows 66 kmh
(1780179196.223000) can0 10210040#0F08484848484848
(1780179196.223000) can0 102CC040#EEEEEEEEEEEEEEEE
(1780179196.224000) can0 10210040#0F08484848484848
(1780179196.228000) can0 10210040#0F08484848484848
(1780179196.232000) can0 10210040#0F08484848484848
(1780179196.236000) can0 102CC040#EEEEEEEEEEEEEEEE
(1780179196.254000) can0 10210040#0F08484848484848
(1780179196.255000) can0 10210040#0F08484848484848
(1780179196.255000) can0 102CC040#EEEEEEEEEEEEEEEE
(1780179196.255000) can0 10210040#0F08484848484848
(1780179196.258000) can0 10210040#0F08484848484848
(1780179196.261000) can0 10210040#0F08484848484848
(1780179196.265000) can0 102CC040#EEEEEEEEEEEEEEEE
(1780179196.270000) can0 10210040#0F08484848484848
(1780179196.286000) can0 10210040#0F08484848484848
(1780179196.287000) can0 102CC040#EEEEEEEEEEEEEEEE
(1780179196.287000) can0 10210040#0F08484848484848
(1780179196.287000) can0 10210040#0F08484848484848
(1780179196.290000) can0 10210040#0F08484848484848
(1780179196.294000) can0 102CC040#EEEEEEEEEEEEEEEE
(1780179196.298000) can0 10210040#0F08484848484848
(1780179196.302000) can0 10210040#0F08484848484848
# tx t=955.754s 10210040#0F08484848484848 note=live speed_60_kmh_candidate - shows 66 kmh
(1780179196.319000) can0 102CC040#EEEEEEEEEEEEEEEE
(1780179196.319000) can0 10210040#0F08484848484848
(1780179196.319000) can0 10210040#0F08484848484848
(1780179196.319000) can0 10210040#0F08484848484848
(1780179196.322000) can0 102CC040#EEEEEEEEEEEEEEEE
(1780179196.326000) can0 10210040#0F08484848484848
(1780179196.330000) can0 10210040#0F08484848484848
(1780179196.350000) can0 102CC040#EEEEEEEEEEEEEEEE
(1780179196.351000) can0 10210040#0F08484848484848
(1780179196.351000) can0 10210040#0F08484848484848
(1780179196.351000) can0 10210040#0F08484848484848
(1780179196.351000) can0 102CC040#EEEEEEEEEEEEEEEE
(1780179196.355000) can0 10210040#0F08484848484848
(1780179196.359000) can0 10210040#0F08484848484848
(1780179196.363000) can0 102CC040#EEEEEEEEEEEEEEEE
# tx t=955.802s 102CC040#EEEEEEEEEEEEEEEE note=live speed valid prerequisite confirmed, and rest just in case
(1780179196.367000) can0 10210040#0F08484848484848
(1780179196.371000) can0 10210040#0F08484848484848
(1780179196.375000) can0 10210040#0F08484848484848
(1780179196.379000) can0 102CC040#EEEEEEEEEEEEEEEE
(1780179196.398000) can0 10210040#0F08484848484848
(1780179196.399000) can0 10210040#0F08484848484848
(1780179196.399000) can0 102CC040#EEEEEEEEEEEEEEEE
(1780179196.399000) can0 10210040#0F08484848484848
(1780179196.399000) can0 10210040#0F08484848484848
(1780179196.403000) can0 10210040#0F08484848484848
(1780179196.407000) can0 102CC040#EEEEEEEEEEEEEEEE
(1780179196.411000) can0 10210040#0F08484848484848
# tx t=955.850s 10210040#0F08484848484848 note=live speed_60_kmh_candidate - shows 66 kmh
(1780179196.416000) can0 10210040#0F08484848484848
(1780179196.420000) can0 102CC040#EEEEEEEEEEEEEEEE
(1780179196.424000) can0 10210040#0F08484848484848
(1780179196.428000) can0 10210040#0F08484848484848
(1780179196.447000) can0 10210040#0F08484848484848
(1780179196.447000) can0 102CC040#EEEEEEEEEEEEEEEE
(1780179196.447000) can0 10210040#0F08484848484848
(1780179196.447000) can0 10210040#0F08484848484848
(1780179196.448000) can0 102CC040#EEEEEEEEEEEEEEEE
(1780179196.452000) can0 10210040#0F08484848484848
(1780179196.456000) can0 10210040#0F08484848484848
(1780179196.460000) can0 10210040#0F08484848484848
(1780179196.479000) can0 102CC040#EEEEEEEEEEEEEEEE
(1780179196.479000) can0 10210040#0F08484848484848
(1780179196.479000) can0 10210040#0F08484848484848
(1780179196.479000) can0 10210040#0F08484848484848
(1780179196.480000) can0 102CC040#EEEEEEEEEEEEEEEE
(1780179196.484000) can0 10210040#0F08484848484848
(1780179196.511000) can0 13FFE060#
# tx t=955.963s 10210040#0F08484848484848 note=live speed_60_kmh_candidate - shows 66 kmh
(1780179196.527000) can0 10210040#0F08484848484848
# tx t=956.059s 10210040#0F08484848484848 note=live speed_60_kmh_candidate - shows 66 kmh
# tx t=956.059s 102CC040#EEEEEEEEEEEEEEEE note=live speed valid prerequisite confirmed, and rest just in case
(1780179196.623000) can0 10210040#0F08484848484848
(1780179196.623000) can0 102CC040#EEEEEEEEEEEEEEEE
(1780179196.655000) can0 100#
# tx t=956.155s 10210040#0F08484848484848 note=live speed_60_kmh_candidate - shows 66 kmh
(1780179196.719000) can0 10210040#0F08484848484848
(1780179196.732000) can0 62C#0140000000000000
(1780179196.751000) can0 10244060#02
(1780179196.751000) can0 103BC060#00
(1780179196.751000) can0 103D6060#00
(1780179196.751000) can0 10424060#059964
(1780179196.752000) can0 10444060#00
(1780179196.755000) can0 10448060#00
(1780179196.757000) can0 1045C060#40
(1780179196.760000) can0 10774060#00
(1780179196.762000) can0 1084A060#00
(1780179196.765000) can0 10A04060#00
(1780179196.783000) can0 10ACE060#1E00000000000000
(1780179196.783000) can0 10AE8060#030E010104050000
(1780179196.783000) can0 103DA060#00
(1780179196.783000) can0 10812060#00
(1780179196.783000) can0 10B0A060#001E04
(1780179196.784000) can0 13FFE060#
# tx t=956.251s 10210040#0F08484848484848 note=live speed_60_kmh_candidate - shows 66 kmh
(1780179196.815000) can0 10AE8060#030E010104050000
(1780179196.815000) can0 10210040#0F08484848484848
(1780179196.821000) can0 1084A060#00
(1780179196.847000) can0 10AE8060#0016010800000000
(1780179196.851000) can0 10244060#02
(1780179196.854000) can0 103D6060#00
# tx t=956.299s 102CC040#EEEEEEEEEEEEEEEE note=live speed valid prerequisite confirmed, and rest just in case
(1780179196.863000) can0 102CC040#EEEEEEEEEEEEEEEE
(1780179196.873000) can0 10ACE060#1E00200000000000
(1780179196.894000) can0 10B0A060#002B04
# tx t=956.362s 10210040#0F08484848484848 note=live speed_60_kmh_candidate - shows 66 kmh
(1780179196.926000) can0 10210040#0F08484848484848
(1780179196.961000) can0 10244060#02
(1780179196.990000) can0 10ACE060#2B00000000000000
(1780179197.003000) can0 10AFC060#38FFFFFFFFFFFF2B
# tx t=956.458s 10210040#0F08484848484848 note=live speed_60_kmh_candidate - shows 66 kmh
(1780179197.022000) can0 10210040#0F08484848484848
# tx t=956.554s 10210040#0F08484848484848 note=live speed_60_kmh_candidate - shows 66 kmh
# tx t=956.554s 102CC040#EEEEEEEEEEEEEEEE note=live speed valid prerequisite confirmed, and rest just in case
(1780179197.119000) can0 10210040#0F08484848484848
(1780179197.119000) can0 102CC040#EEEEEEEEEEEEEEEE
# tx t=956.650s 10210040#0F08484848484848 note=live speed_60_kmh_candidate - shows 66 kmh
(1780179197.214000) can0 10210040#0F08484848484848
# tx t=956.761s 10210040#0F08484848484848 note=live speed_60_kmh_candidate - shows 66 kmh
(1780179197.326000) can0 10210040#0F08484848484848
# tx t=956.809s 102CC040#EEEEEEEEEEEEEEEE note=live speed valid prerequisite confirmed, and rest just in case
(1780179197.374000) can0 102CC040#EEEEEEEEEEEEEEEE
# tx t=956.857s 10210040#0F08484848484848 note=live speed_60_kmh_candidate - shows 66 kmh
(1780179197.422000) can0 10210040#0F08484848484848
(1780179197.501000) can0 10774060#00
# tx t=956.953s 10210040#0F08484848484848 note=live speed_60_kmh_candidate - shows 66 kmh
(1780179197.518000) can0 10210040#0F08484848484848
# tx t=957.050s 10210040#0F08484848484848 note=live speed_60_kmh_candidate - shows 66 kmh
# tx t=957.050s 102CC040#EEEEEEEEEEEEEEEE note=live speed valid prerequisite confirmed, and rest just in case
(1780179197.614000) can0 10210040#0F08484848484848
(1780179197.614000) can0 102CC040#EEEEEEEEEEEEEEEE
(1780179197.721000) can0 10424060#079964
# tx t=957.162s 10210040#0F08484848484848 note=live speed_60_kmh_candidate - shows 66 kmh
(1780179197.726000) can0 10210040#0F08484848484848
# tx t=957.258s 10210040#0F08484848484848 note=live speed_60_kmh_candidate - shows 66 kmh
(1780179197.822000) can0 10210040#0F08484848484848
# tx t=957.306s 102CC040#EEEEEEEEEEEEEEEE note=live speed valid prerequisite confirmed, and rest just in case
(1780179197.870000) can0 102CC040#EEEEEEEEEEEEEEEE
# tx t=957.354s 10210040#0F08484848484848 note=live speed_60_kmh_candidate - shows 66 kmh
(1780179197.918000) can0 10210040#0F08484848484848
(1780179197.950000) can0 13FFE060#
# tx t=957.450s 10210040#0F08484848484848 note=live speed_60_kmh_candidate - shows 66 kmh
(1780179198.014000) can0 10210040#0F08484848484848
# tx t=957.562s 10210040#0F08484848484848 note=live speed_60_kmh_candidate - shows 66 kmh
# tx t=957.562s 102CC040#EEEEEEEEEEEEEEEE note=live speed valid prerequisite confirmed, and rest just in case
(1780179198.127000) can0 10210040#0F08484848484848
(1780179198.127000) can0 102CC040#EEEEEEEEEEEEEEEE
# tx t=957.658s 10210040#0F08484848484848 note=live speed_60_kmh_candidate - shows 66 kmh
(1780179198.223000) can0 10210040#0F08484848484848
# tx t=957.753s 10210040#0F08484848484848 note=live speed_60_kmh_candidate - shows 66 kmh
(1780179198.318000) can0 10210040#0F08484848484848
# tx t=957.801s 102CC040#EEEEEEEEEEEEEEEE note=live speed valid prerequisite confirmed, and rest just in case
(1780179198.366000) can0 102CC040#EEEEEEEEEEEEEEEE
# tx t=957.848s 10210040#0F08484848484848 note=live speed_60_kmh_candidate - shows 66 kmh
(1780179198.413000) can0 10210040#0F08484848484848
# tx t=957.961s 10210040#0F08484848484848 note=live speed_60_kmh_candidate - shows 66 kmh
(1780179198.525000) can0 10210040#0F08484848484848
# tx t=958.057s 10210040#0F08484848484848 note=live speed_60_kmh_candidate - shows 66 kmh
# tx t=958.057s 102CC040#EEEEEEEEEEEEEEEE note=live speed valid prerequisite confirmed, and rest just in case
(1780179198.621000) can0 10210040#0F08484848484848
(1780179198.621000) can0 102CC040#EEEEEEEEEEEEEEEE
# tx t=958.153s 10210040#0F08484848484848 note=live speed_60_kmh_candidate - shows 66 kmh
(1780179198.717000) can0 10210040#0F08484848484848
# tx t=958.248s 10210040#0F08484848484848 note=live speed_60_kmh_candidate - shows 66 kmh
(1780179198.812000) can0 10210040#0F08484848484848
# tx t=958.312s 102CC040#EEEEEEEEEEEEEEEE note=live speed valid prerequisite confirmed, and rest just in case
(1780179198.876000) can0 102CC040#EEEEEEEEEEEEEEEE
# tx t=958.360s 10210040#0F08484848484848 note=live speed_60_kmh_candidate - shows 66 kmh
(1780179198.924000) can0 10210040#0F08484848484848
# tx t=958.456s 10210040#0F08484848484848 note=live speed_60_kmh_candidate - shows 66 kmh
(1780179199.020000) can0 10210040#0F08484848484848
# tx t=958.552s 10210040#0F08484848484848 note=live speed_60_kmh_candidate - shows 66 kmh
# tx t=958.552s 102CC040#EEEEEEEEEEEEEEEE note=live speed valid prerequisite confirmed, and rest just in case
(1780179199.117000) can0 10210040#0F08484848484848
(1780179199.117000) can0 102CC040#EEEEEEEEEEEEEEEE
(1780179199.148000) can0 13FFE060#
# tx t=958.648s 10210040#0F08484848484848 note=live speed_60_kmh_candidate - shows 66 kmh
(1780179199.213000) can0 10210040#0F08484848484848
# tx t=958.760s 10210040#0F08484848484848 note=live speed_60_kmh_candidate - shows 66 kmh
(1780179199.325000) can0 10210040#0F08484848484848
# tx t=958.808s 102CC040#EEEEEEEEEEEEEEEE note=live speed valid prerequisite confirmed, and rest just in case
(1780179199.373000) can0 102CC040#EEEEEEEEEEEEEEEE
# tx t=958.856s 10210040#0F08484848484848 note=live speed_60_kmh_candidate - shows 66 kmh
(1780179199.421000) can0 10210040#0F08484848484848
# tx t=958.952s 10210040#0F08484848484848 note=live speed_60_kmh_candidate - shows 66 kmh
(1780179199.517000) can0 10210040#0F08484848484848
# tx t=959.049s 10210040#0F08484848484848 note=live speed_60_kmh_candidate - shows 66 kmh
(1780179199.613000) can0 10210040#0F08484848484848
# tx t=959.065s 102CC040#EEEEEEEEEEEEEEEE note=live speed valid prerequisite confirmed, and rest just in case
(1780179199.629000) can0 102CC040#EEEEEEEEEEEEEEEE
# tx t=959.161s 10210040#0F08484848484848 note=live speed_60_kmh_candidate - shows 66 kmh
(1780179199.725000) can0 10210040#0F08484848484848
(1780179199.733000) can0 62C#0040000000000000
# tx t=959.257s 10210040#0F08484848484848 note=live speed_60_kmh_candidate - shows 66 kmh
(1780179199.821000) can0 10210040#0F08484848484848
# tx t=959.305s 102CC040#EEEEEEEEEEEEEEEE note=live speed valid prerequisite confirmed, and rest just in case
(1780179199.869000) can0 102CC040#EEEEEEEEEEEEEEEE
# tx t=959.352s 10210040#0F08484848484848 note=live speed_60_kmh_candidate - shows 66 kmh
(1780179199.916000) can0 10210040#0F08484848484848
# tx t=959.448s 10210040#0F08484848484848 note=live speed_60_kmh_candidate - shows 66 kmh
(1780179200.012000) can0 10210040#0F08484848484848
# tx t=959.560s 10210040#0F08484848484848 note=live speed_60_kmh_candidate - shows 66 kmh
# tx t=959.560s 102CC040#EEEEEEEEEEEEEEEE note=live speed valid prerequisite confirmed, and rest just in case
(1780179200.125000) can0 10210040#0F08484848484848
(1780179200.125000) can0 102CC040#EEEEEEEEEEEEEEEE
# tx t=959.656s 10210040#0F08484848484848 note=live speed_60_kmh_candidate - shows 66 kmh
(1780179200.221000) can0 10210040#0F08484848484848
(1780179200.259000) can0 10244060#06
# tx t=959.752s 10210040#0F08484848484848 note=live speed_60_kmh_candidate - shows 66 kmh
(1780179200.316000) can0 10210040#0F08484848484848
(1780179200.323000) can0 10424060#079964
(1780179200.348000) can0 13FFE060#
# tx t=959.800s 102CC040#EEEEEEEEEEEEEEEE note=live speed valid prerequisite confirmed, and rest just in case
(1780179200.364000) can0 102CC040#EEEEEEEEEEEEEEEE
# tx t=959.847s 10210040#0F08484848484848 note=live speed_60_kmh_candidate - shows 66 kmh
(1780179200.412000) can0 10210040#0F08484848484848
# tx t=959.959s 10210040#0F08484848484848 note=live speed_60_kmh_candidate - shows 66 kmh
(1780179200.523000) can0 10210040#0F08484848484848
(1780179200.555000) can0 10400060#862804FF88
# tx t=960.055s 10210040#0F08484848484848 note=live speed_60_kmh_candidate - shows 66 kmh
# tx t=960.055s 102CC040#EEEEEEEEEEEEEEEE note=live speed valid prerequisite confirmed, and rest just in case
(1780179200.619000) can0 10210040#0F08484848484848
(1780179200.619000) can0 102CC040#EEEEEEEEEEEEEEEE
# tx t=960.151s 10210040#0F08484848484848 note=live speed_60_kmh_candidate - shows 66 kmh
(1780179200.715000) can0 10210040#0F08484848484848
# tx t=960.263s 10210040#0F08484848484848 note=live speed_60_kmh_candidate - shows 66 kmh
(1780179200.827000) can0 10210040#0F08484848484848
# tx t=960.311s 102CC040#EEEEEEEEEEEEEEEE note=live speed valid prerequisite confirmed, and rest just in case
(1780179200.875000) can0 102CC040#EEEEEEEEEEEEEEEE
(1780179200.907000) can0 10ACE060#1E01200000000000
# tx t=960.359s 10210040#0F08484848484848 note=live speed_60_kmh_candidate - shows 66 kmh
(1780179200.923000) can0 10210040#0F08484848484848
# tx t=960.456s 10210040#0F08484848484848 note=live speed_60_kmh_candidate - shows 66 kmh
(1780179201.020000) can0 10210040#0F08484848484848
# tx t=960.550s 10210040#0F08484848484848 note=live speed_60_kmh_candidate - shows 66 kmh
# tx t=960.550s 102CC040#EEEEEEEEEEEEEEEE note=live speed valid prerequisite confirmed, and rest just in case
(1780179201.114000) can0 10210040#0F08484848484848
(1780179201.115000) can0 102CC040#EEEEEEEEEEEEEEEE
# tx t=960.662s 10210040#0F08484848484848 note=live speed_60_kmh_candidate - shows 66 kmh
(1780179201.226000) can0 10210040#0F08484848484848
