# cantool TX/RX capture bitrate=33333.333 fclk=170000000 brp=255 prop=1 phase1=13 phase2=5 sjw=4
# tx t=006.556s 100# note=native Corsa E SWCAN wake pulse
# tx t=006.558s 13FFE040# note=native fake BCM/source 0x40 presence seed
# tx t=006.558s 621#0140000000000000 note=native network-management startup/init seed
# tx t=006.559s 10210040#0000800000008000 note=native BCM/body base status from IPC_disconnected capture
# tx t=006.559s 10264040#0000000000000000 note=native BCM/body base zero-status frame
# tx t=006.559s 102CA040#0000000000000F00 note=native BCM/body base 102CA040 context
# tx t=006.559s 10220040#1000000040120000 note=native BCM/body 10220040 unlock/key-in variant
# tx t=006.560s 10230040#0000000000000000 note=native BCM/body 10230040 captured counter/state cycle variant 1/4
# tx t=006.560s 10240040#8004880100000007 note=native BCM/body 10240040 base/off variant
# tx t=006.560s 102C0040#0000000000 note=native BCM/body 102C0040 neutral captured context
# tx t=006.560s 10754040#000000 note=native key/body context no-key/off variant
# tx t=006.560s 10242040#00 note=native 10242040 off/unlock state
(1780158286.365000) can0 100#
(1780158286.366000) can0 13FFE040#
(1780158286.366000) can0 621#0140000000000000
# tx t=006.666s 621#0002000000000000 note=native unlock/key-in network-management seed
# tx t=006.667s 10210040#0000800000008000 note=native BCM/body base status from IPC_disconnected capture
# tx t=006.762s 10210040#0000800000008000 note=native BCM/body base status from IPC_disconnected capture
# tx t=006.810s 10230040#1000000010000000 note=native BCM/body 10230040 captured counter/state cycle variant 2/4
# tx t=006.857s 10210040#0000800000008000 note=native BCM/body base status from IPC_disconnected capture
# tx t=006.970s 10210040#0000800000008000 note=native BCM/body base status from IPC_disconnected capture
# tx t=007.064s 10210040#0000800000008000 note=native BCM/body base status from IPC_disconnected capture
# tx t=007.065s 10230040#2000000020000000 note=native BCM/body 10230040 captured counter/state cycle variant 3/4
# tx t=007.159s 10210040#0000800000008000 note=native BCM/body base status from IPC_disconnected capture
# tx t=007.270s 10210040#0000800000008000 note=native BCM/body base status from IPC_disconnected capture
# tx t=007.317s 10230040#3000000030000000 note=native BCM/body 10230040 captured counter/state cycle variant 4/4
# tx t=007.363s 10210040#0000800000008000 note=native BCM/body base status from IPC_disconnected capture
# tx t=007.458s 10210040#0000800000008000 note=native BCM/body base status from IPC_disconnected capture
# tx t=007.569s 621#0002000000000000 note=native unlock/key-in network-management context
# tx t=007.570s 10210040#0000800000008000 note=native BCM/body base status from IPC_disconnected capture
# tx t=007.570s 10264040#0000000000000000 note=native BCM/body base zero-status frame
# tx t=007.570s 102CA040#0000000000000F00 note=native BCM/body base 102CA040 context
# tx t=007.570s 10220040#1000000040120000 note=native BCM/body 10220040 unlock/key-in variant
# tx t=007.570s 10230040#0000000000000000 note=native BCM/body 10230040 captured counter/state cycle variant 1/4
# tx t=007.571s 10240040#8004880100000007 note=native BCM/body 10240040 base/off variant
# tx t=007.571s 102C0040#0000000000 note=native BCM/body 102C0040 neutral captured context
# tx t=007.571s 10754040#000000 note=native key/body context no-key/off variant
# tx t=007.571s 10242040#00 note=native 10242040 off/unlock state
# tx t=007.665s 10210040#0000800000008000 note=native BCM/body base status from IPC_disconnected capture
# tx t=007.760s 13FFE040# note=native fake BCM/source 0x40 presence, captured-like cadence
# tx t=007.761s 10210040#0000800000008000 note=native BCM/body base status from IPC_disconnected capture
# tx t=007.809s 10230040#1000000010000000 note=native BCM/body 10230040 captured counter/state cycle variant 2/4
(1780158287.644000) can0 10210040#0000800000008000
(1780158287.644000) can0 10264040#0000000000000000
(1780158287.647000) can0 102CA040#0000000000000F00
(1780158287.652000) can0 10220040#1000000040120000
(1780158287.654000) can0 10244060#00
(1780158287.658000) can0 10230040#0000000000000000
(1780158287.661000) can0 103BC060#00
(1780158287.665000) can0 10240040#8004880100000007
(1780158287.668000) can0 10444060#00
(1780158287.672000) can0 102C0040#0000000000
# tx t=007.871s 10210040#0000800000008000 note=native BCM/body base status from IPC_disconnected capture
(1780158287.675000) can0 10448060#00
(1780158287.679000) can0 10754040#000000
(1780158287.681000) can0 1045C060#00
(1780158287.686000) can0 10242040#00
(1780158287.689000) can0 621#0002000000000000
(1780158287.706000) can0 10210040#0000800000008000
(1780158287.706000) can0 10210040#0000800000008000
(1780158287.707000) can0 10774060#00
(1780158287.707000) can0 10A04060#00
(1780158287.707000) can0 10ACE060#1E00000000000000
(1780158287.708000) can0 10AE8060#030E010104050000
(1780158287.711000) can0 10B0A060#001E04
(1780158287.713000) can0 13FFE060#
(1780158287.717000) can0 10230040#1000000010000000
(1780158287.721000) can0 10210040#0000800000008000
(1780158287.726000) can0 10210040#0000800000008000
(1780158287.730000) can0 10210040#0000800000008000
(1780158287.734000) can0 10230040#2000000020000000
(1780158287.753000) can0 10210040#0000800000008000
(1780158287.753000) can0 10210040#0000800000008000
(1780158287.753000) can0 10230040#3000000030000000
(1780158287.753000) can0 10210040#0000800000008000
(1780158287.756000) can0 10210040#0000800000008000
(1780158287.761000) can0 621#0002000000000000
(1780158287.765000) can0 10210040#0000800000008000
# tx t=007.965s 10210040#0000800000008000 note=native BCM/body base status from IPC_disconnected capture
(1780158287.769000) can0 10264040#0000000000000000
(1780158287.773000) can0 102CA040#0000000000000F00
(1780158287.777000) can0 10220040#1000000040120000
(1780158287.782000) can0 10230040#0000000000000000
(1780158287.801000) can0 10240040#8004880100000007
(1780158287.801000) can0 102C0040#0000000000
(1780158287.801000) can0 10754040#000000
(1780158287.801000) can0 10242040#00
(1780158287.803000) can0 10210040#0000800000008000
(1780158287.806000) can0 13FFE040#
(1780158287.808000) can0 10210040#0000800000008000
(1780158287.813000) can0 10230040#1000000010000000
(1780158287.815000) can0 10210040#0000800000008000
(1780158287.833000) can0 10210040#0000800000008000
(1780158287.836000) can0 62C#0102000000000000
(1780158287.839000) can0 10244060#00
(1780158287.841000) can0 103BC060#00
(1780158287.844000) can0 1045C060#00
(1780158287.848000) can0 10ACE060#1E00000000000000
# tx t=008.060s 10210040#0000800000008000 note=native BCM/body base status from IPC_disconnected capture
# tx t=008.061s 10230040#2000000020000000 note=native BCM/body 10230040 captured counter/state cycle variant 3/4
(1780158287.865000) can0 10AE8060#030E010104050000
(1780158287.865000) can0 10B0A060#002B04
(1780158287.865000) can0 13FFE060#
(1780158287.865000) can0 10210040#0000800000008000
(1780158287.865000) can0 10230040#2000000020000000
(1780158287.896000) can0 10AE8060#030E010104050000
(1780158287.928000) can0 10AE8060#0016010800000000
# tx t=008.157s 10210040#0000800000008000 note=native BCM/body base status from IPC_disconnected capture
(1780158287.960000) can0 10ACE060#1E00000000000000
(1780158287.961000) can0 10210040#0000800000008000
(1780158288.055000) can0 103D6060#00
(1780158288.055000) can0 103DA060#00
(1780158288.056000) can0 1045C060#40
(1780158288.059000) can0 10812060#00
(1780158288.061000) can0 1084A060#00
(1780158288.066000) can0 10ACE060#2B40000000000000
# tx t=008.268s 10210040#0000800000008000 note=native BCM/body base status from IPC_disconnected capture
(1780158288.071000) can0 10210040#0000800000008000
(1780158288.103000) can0 10244060#02
(1780158288.103000) can0 10424060#059964
# tx t=008.316s 10230040#3000000030000000 note=native BCM/body 10230040 captured counter/state cycle variant 4/4
(1780158288.119000) can0 10230040#3000000030000000
# tx t=008.364s 10210040#0000800000008000 note=native BCM/body base status from IPC_disconnected capture
(1780158288.168000) can0 10210040#0000800000008000
(1780158288.176000) can0 10ACE060#1E00200000000000
(1780158288.202000) can0 10244060#02
# tx t=008.459s 10210040#0000800000008000 note=native BCM/body base status from IPC_disconnected capture
(1780158288.263000) can0 10210040#0000800000008000
(1780158288.294000) can0 10ACE060#2B00000000000000
(1780158288.303000) can0 10AFC060#38FFFFFFFFFFFF2B
# tx t=008.570s 621#0002000000000000 note=native unlock/key-in network-management context
# tx t=008.570s 10210040#0000800000008000 note=native BCM/body base status from IPC_disconnected capture
# tx t=008.570s 10264040#0000000000000000 note=native BCM/body base zero-status frame
# tx t=008.571s 102CA040#0000000000000F00 note=native BCM/body base 102CA040 context
# tx t=008.571s 10220040#1000000040120000 note=native BCM/body 10220040 unlock/key-in variant
# tx t=008.571s 10230040#0000000000000000 note=native BCM/body 10230040 captured counter/state cycle variant 1/4
# tx t=008.571s 10240040#8004880100000007 note=native BCM/body 10240040 base/off variant
# tx t=008.571s 102C0040#0000000000 note=native BCM/body 102C0040 neutral captured context
# tx t=008.571s 10754040#000000 note=native key/body context no-key/off variant
# tx t=008.571s 10242040#00 note=native 10242040 off/unlock state
(1780158288.375000) can0 621#0002000000000000
(1780158288.375000) can0 10210040#0000800000008000
(1780158288.375000) can0 10264040#0000000000000000
(1780158288.377000) can0 102CA040#0000000000000F00
(1780158288.382000) can0 10220040#1000000040120000
(1780158288.386000) can0 10230040#0000000000000000
(1780158288.404000) can0 10240040#8004880100000007
(1780158288.404000) can0 102C0040#0000000000
(1780158288.404000) can0 10754040#000000
(1780158288.404000) can0 10242040#00
# tx t=008.664s 10210040#0000800000008000 note=native BCM/body base status from IPC_disconnected capture
(1780158288.468000) can0 10210040#0000800000008000
# tx t=008.759s 10210040#0000800000008000 note=native BCM/body base status from IPC_disconnected capture
(1780158288.563000) can0 10210040#0000800000008000
# tx t=008.807s 10230040#1000000010000000 note=native BCM/body 10230040 captured counter/state cycle variant 2/4
(1780158288.611000) can0 10230040#1000000010000000
# tx t=008.854s 10210040#0000800000008000 note=native BCM/body base status from IPC_disconnected capture
(1780158288.658000) can0 10210040#0000800000008000
# tx t=008.965s 13FFE040# note=native fake BCM/source 0x40 presence, captured-like cadence
# tx t=008.965s 10210040#0000800000008000 note=native BCM/body base status from IPC_disconnected capture
(1780158288.769000) can0 13FFE040#
(1780158288.769000) can0 10210040#0000800000008000
# tx t=009.059s 10210040#0000800000008000 note=native BCM/body base status from IPC_disconnected capture
# tx t=009.060s 10230040#2000000020000000 note=native BCM/body 10230040 captured counter/state cycle variant 3/4
(1780158288.863000) can0 10210040#0000800000008000
(1780158288.863000) can0 10230040#2000000020000000
(1780158288.927000) can0 13FFE060#
(1780158288.931000) can0 10774060#00
# tx t=009.155s 10210040#0000800000008000 note=native BCM/body base status from IPC_disconnected capture
(1780158288.958000) can0 10210040#0000800000008000
# tx t=009.265s 10210040#0000800000008000 note=native BCM/body base status from IPC_disconnected capture
(1780158289.069000) can0 10210040#0000800000008000
# tx t=009.313s 10230040#3000000030000000 note=native BCM/body 10230040 captured counter/state cycle variant 4/4
(1780158289.117000) can0 10230040#3000000030000000
# tx t=009.359s 10210040#0000800000008000 note=native BCM/body base status from IPC_disconnected capture
(1780158289.162000) can0 10210040#0000800000008000
# tx t=009.469s 10210040#0000800000008000 note=native BCM/body base status from IPC_disconnected capture
(1780158289.273000) can0 10210040#0000800000008000
(1780158289.305000) can0 10424060#079964
# tx t=009.565s 621#0002000000000000 note=native unlock/key-in network-management context
# tx t=009.565s 10210040#0000800000008000 note=native BCM/body base status from IPC_disconnected capture
# tx t=009.565s 10264040#0000000000000000 note=native BCM/body base zero-status frame
# tx t=009.565s 102CA040#0000000000000F00 note=native BCM/body base 102CA040 context
# tx t=009.565s 10220040#1000000040120000 note=native BCM/body 10220040 unlock/key-in variant
# tx t=009.566s 10230040#0000000000000000 note=native BCM/body 10230040 captured counter/state cycle variant 1/4
# tx t=009.566s 10240040#8004880100000007 note=native BCM/body 10240040 base/off variant
# tx t=009.566s 102C0040#0000000000 note=native BCM/body 102C0040 neutral captured context
# tx t=009.566s 10754040#000000 note=native key/body context no-key/off variant
# tx t=009.566s 10242040#00 note=native 10242040 off/unlock state
(1780158289.369000) can0 621#0002000000000000
(1780158289.370000) can0 10210040#0000800000008000
(1780158289.370000) can0 10264040#0000000000000000
(1780158289.372000) can0 102CA040#0000000000000F00
(1780158289.376000) can0 10220040#1000000040120000
(1780158289.381000) can0 10230040#0000000000000000
(1780158289.400000) can0 10240040#8004880100000007
(1780158289.400000) can0 102C0040#0000000000
(1780158289.401000) can0 10754040#000000
(1780158289.401000) can0 10242040#00
# tx t=009.660s 10210040#0000800000008000 note=native BCM/body base status from IPC_disconnected capture
(1780158289.464000) can0 10210040#0000800000008000
# tx t=009.756s 10210040#0000800000008000 note=native BCM/body base status from IPC_disconnected capture
(1780158289.560000) can0 10210040#0000800000008000
# tx t=009.804s 10230040#1000000010000000 note=native BCM/body 10230040 captured counter/state cycle variant 2/4
(1780158289.608000) can0 10230040#1000000010000000
# tx t=009.868s 10210040#0000800000008000 note=native BCM/body base status from IPC_disconnected capture
(1780158289.672000) can0 10210040#0000800000008000
# tx t=009.963s 10210040#0000800000008000 note=native BCM/body base status from IPC_disconnected capture
(1780158289.767000) can0 10210040#0000800000008000
# tx t=010.059s 10210040#0000800000008000 note=native BCM/body base status from IPC_disconnected capture
# tx t=010.059s 10230040#2000000020000000 note=native BCM/body 10230040 captured counter/state cycle variant 3/4
(1780158289.862000) can0 10210040#0000800000008000
(1780158289.863000) can0 10230040#2000000020000000
# tx t=010.155s 13FFE040# note=native fake BCM/source 0x40 presence, captured-like cadence
# tx t=010.155s 10210040#0000800000008000 note=native BCM/body base status from IPC_disconnected capture
(1780158289.959000) can0 13FFE040#
(1780158289.959000) can0 10210040#0000800000008000
# tx t=010.264s 10210040#0000800000008000 note=native BCM/body base status from IPC_disconnected capture
(1780158290.068000) can0 10210040#0000800000008000
# tx t=010.312s 10230040#3000000030000000 note=native BCM/body 10230040 captured counter/state cycle variant 4/4
(1780158290.115000) can0 10230040#3000000030000000
(1780158290.122000) can0 13FFE060#
# tx t=010.360s 10210040#0000800000008000 note=native BCM/body base status from IPC_disconnected capture
(1780158290.164000) can0 10210040#0000800000008000
# tx t=010.455s 10210040#0000800000008000 note=native BCM/body base status from IPC_disconnected capture
(1780158290.259000) can0 10210040#0000800000008000
# tx t=010.566s 621#0002000000000000 note=native unlock/key-in network-management context
# tx t=010.566s 10210040#0000800000008000 note=native BCM/body base status from IPC_disconnected capture
# tx t=010.566s 10264040#0000000000000000 note=native BCM/body base zero-status frame
# tx t=010.566s 102CA040#0000000000000F00 note=native BCM/body base 102CA040 context
# tx t=010.566s 10220040#1000000040120000 note=native BCM/body 10220040 unlock/key-in variant
# tx t=010.567s 10230040#0000000000000000 note=native BCM/body 10230040 captured counter/state cycle variant 1/4
# tx t=010.567s 10240040#8004880100000007 note=native BCM/body 10240040 base/off variant
# tx t=010.567s 102C0040#0000000000 note=native BCM/body 102C0040 neutral captured context
# tx t=010.567s 10754040#000000 note=native key/body context no-key/off variant
# tx t=010.567s 10242040#00 note=native 10242040 off/unlock state
(1780158290.371000) can0 621#0002000000000000
(1780158290.371000) can0 10210040#0000800000008000
(1780158290.371000) can0 10264040#0000000000000000
(1780158290.373000) can0 102CA040#0000000000000F00
(1780158290.378000) can0 10220040#1000000040120000
(1780158290.382000) can0 10230040#0000000000000000
(1780158290.401000) can0 10240040#8004880100000007
(1780158290.402000) can0 102C0040#0000000000
(1780158290.402000) can0 10754040#000000
(1780158290.402000) can0 10242040#00
# tx t=010.661s 10210040#0000800000008000 note=native BCM/body base status from IPC_disconnected capture
(1780158290.465000) can0 10210040#0000800000008000
# tx t=010.756s 10210040#0000800000008000 note=native BCM/body base status from IPC_disconnected capture
(1780158290.560000) can0 10210040#0000800000008000
# tx t=010.818s 10230040#1000000010000000 note=native BCM/body 10230040 captured counter/state cycle variant 2/4
(1780158290.622000) can0 10230040#1000000010000000
# tx t=010.865s 10210040#0000800000008000 note=native BCM/body base status from IPC_disconnected capture
(1780158290.669000) can0 10210040#0000800000008000
# tx t=010.961s 10210040#0000800000008000 note=native BCM/body base status from IPC_disconnected capture
(1780158290.765000) can0 10210040#0000800000008000
(1780158290.831000) can0 62C#0040000000000000
# tx t=011.057s 10210040#0000800000008000 note=native BCM/body base status from IPC_disconnected capture
# tx t=011.058s 10230040#2000000020000000 note=native BCM/body 10230040 captured counter/state cycle variant 3/4
(1780158290.861000) can0 10210040#0000800000008000
(1780158290.861000) can0 10230040#2000000020000000
# tx t=011.169s 10210040#0000800000008000 note=native BCM/body base status from IPC_disconnected capture
(1780158290.972000) can0 10210040#0000800000008000
# tx t=011.264s 10210040#0000800000008000 note=native BCM/body base status from IPC_disconnected capture
(1780158291.067000) can0 10210040#0000800000008000
# tx t=011.312s 10230040#3000000030000000 note=native BCM/body 10230040 captured counter/state cycle variant 4/4
(1780158291.115000) can0 10230040#3000000030000000
# tx t=011.360s 13FFE040# note=native fake BCM/source 0x40 presence, captured-like cadence
# tx t=011.360s 10210040#0000800000008000 note=native BCM/body base status from IPC_disconnected capture
(1780158291.164000) can0 13FFE040#
(1780158291.164000) can0 10210040#0000800000008000
# tx t=011.456s 10210040#0000800000008000 note=native BCM/body base status from IPC_disconnected capture
(1780158291.260000) can0 10210040#0000800000008000
(1780158291.323000) can0 13FFE060#
# tx t=011.567s 621#0002000000000000 note=native unlock/key-in network-management context
# tx t=011.567s 10210040#0000800000008000 note=native BCM/body base status from IPC_disconnected capture
# tx t=011.567s 10264040#0000000000000000 note=native BCM/body base zero-status frame
# tx t=011.568s 102CA040#0000000000000F00 note=native BCM/body base 102CA040 context
# tx t=011.568s 10220040#1000000040120000 note=native BCM/body 10220040 unlock/key-in variant
# tx t=011.568s 10230040#0000000000000000 note=native BCM/body 10230040 captured counter/state cycle variant 1/4
# tx t=011.568s 10240040#8004880100000007 note=native BCM/body 10240040 base/off variant
# tx t=011.568s 102C0040#0000000000 note=native BCM/body 102C0040 neutral captured context
# tx t=011.568s 10754040#000000 note=native key/body context no-key/off variant
# tx t=011.568s 10242040#00 note=native 10242040 off/unlock state
(1780158291.372000) can0 621#0002000000000000
(1780158291.372000) can0 10210040#0000800000008000
(1780158291.372000) can0 10264040#0000000000000000
(1780158291.374000) can0 102CA040#0000000000000F00
(1780158291.379000) can0 10220040#1000000040120000
(1780158291.383000) can0 10230040#0000000000000000
(1780158291.402000) can0 10240040#8004880100000007
(1780158291.403000) can0 102C0040#0000000000
(1780158291.403000) can0 10754040#000000
(1780158291.403000) can0 10242040#00
# tx t=011.662s 10210040#0000800000008000 note=native BCM/body base status from IPC_disconnected capture
(1780158291.465000) can0 10210040#0000800000008000
# tx t=011.757s 10210040#0000800000008000 note=native BCM/body base status from IPC_disconnected capture
(1780158291.561000) can0 10210040#0000800000008000
# tx t=011.819s 10230040#1000000010000000 note=native BCM/body 10230040 captured counter/state cycle variant 2/4
(1780158291.623000) can0 10230040#1000000010000000
# tx t=011.865s 10210040#0000800000008000 note=native BCM/body base status from IPC_disconnected capture
(1780158291.669000) can0 10210040#0000800000008000
# tx t=011.960s 10210040#0000800000008000 note=native BCM/body base status from IPC_disconnected capture
(1780158291.764000) can0 10210040#0000800000008000
# tx t=012.055s 10210040#0000800000008000 note=native BCM/body base status from IPC_disconnected capture
# tx t=012.056s 10230040#2000000020000000 note=native BCM/body 10230040 captured counter/state cycle variant 3/4
(1780158291.859000) can0 10210040#0000800000008000
(1780158291.859000) can0 10230040#2000000020000000
# tx t=012.167s 10210040#0000800000008000 note=native BCM/body base status from IPC_disconnected capture
(1780158291.970000) can0 10210040#0000800000008000
# tx t=012.263s 10210040#0000800000008000 note=native BCM/body base status from IPC_disconnected capture
(1780158292.066000) can0 10210040#0000800000008000
# tx t=012.311s 10230040#3000000030000000 note=native BCM/body 10230040 captured counter/state cycle variant 4/4
(1780158292.114000) can0 10230040#3000000030000000
# tx t=012.358s 10210040#0000800000008000 note=native BCM/body base status from IPC_disconnected capture
(1780158292.162000) can0 10210040#0000800000008000
# tx t=012.468s 10210040#0000800000008000 note=native BCM/body base status from IPC_disconnected capture
(1780158292.272000) can0 10210040#0000800000008000
# tx t=012.564s 13FFE040# note=native fake BCM/source 0x40 presence, captured-like cadence
# tx t=012.564s 621#0002000000000000 note=native unlock/key-in network-management context
# tx t=012.564s 10210040#0000800000008000 note=native BCM/body base status from IPC_disconnected capture
# tx t=012.564s 10264040#0000000000000000 note=native BCM/body base zero-status frame
# tx t=012.564s 102CA040#0000000000000F00 note=native BCM/body base 102CA040 context
# tx t=012.564s 10220040#1000000040120000 note=native BCM/body 10220040 unlock/key-in variant
# tx t=012.564s 10230040#0000000000000000 note=native BCM/body 10230040 captured counter/state cycle variant 1/4
# tx t=012.565s 1022E040#0000000000000000 note=native BCM/body 1022E040 captured counter/state cycle variant 1/4
# tx t=012.565s 10240040#8004880100000007 note=native BCM/body 10240040 base/off variant
# tx t=012.565s 102C0040#0000000000 note=native BCM/body 102C0040 neutral captured context
# tx t=012.565s 10754040#040000 note=native key/body context key-present variant
# tx t=012.565s 10242040#01 note=native 10242040 key-in/key-on state
(1780158292.368000) can0 13FFE040#
(1780158292.369000) can0 621#0002000000000000
(1780158292.369000) can0 10210040#0000800000008000
(1780158292.369000) can0 10264040#0000000000000000
(1780158292.373000) can0 102CA040#0000000000000F00
(1780158292.378000) can0 10220040#1000000040120000
(1780158292.382000) can0 10230040#0000000000000000
(1780158292.399000) can0 1022E040#0000000000000000
(1780158292.399000) can0 10240040#8004880100000007
(1780158292.400000) can0 102C0040#0000000000
(1780158292.400000) can0 10754040#040000
(1780158292.404000) can0 10242040#01
# tx t=012.659s 10210040#0000800000008000 note=native BCM/body base status from IPC_disconnected capture
(1780158292.463000) can0 10424060#079964
(1780158292.463000) can0 10210040#0000800000008000
(1780158292.525000) can0 13FFE060#
# tx t=012.770s 10210040#0000800000008000 note=native BCM/body base status from IPC_disconnected capture
(1780158292.574000) can0 10210040#0000800000008000
# tx t=012.817s 10230040#1000000010000000 note=native BCM/body 10230040 captured counter/state cycle variant 2/4
# tx t=012.817s 1022E040#1000000010000000 note=native BCM/body 1022E040 captured counter/state cycle variant 2/4
(1780158292.621000) can0 10230040#1000000010000000
(1780158292.621000) can0 1022E040#1000000010000000
# tx t=012.863s 10210040#0000800000008000 note=native BCM/body base status from IPC_disconnected capture
(1780158292.667000) can0 10210040#0000800000008000
(1780158292.730000) can0 10244060#02
# tx t=012.958s 10210040#0000800000008000 note=native BCM/body base status from IPC_disconnected capture
(1780158292.762000) can0 10210040#0000800000008000
# tx t=013.069s 10210040#0000800000008000 note=native BCM/body base status from IPC_disconnected capture
# tx t=013.069s 10230040#2000000020000000 note=native BCM/body 10230040 captured counter/state cycle variant 3/4
# tx t=013.069s 1022E040#2000000020000000 note=native BCM/body 1022E040 captured counter/state cycle variant 3/4
(1780158292.873000) can0 10210040#0000800000008000
(1780158292.873000) can0 10230040#2000000020000000
(1780158292.873000) can0 1022E040#2000000020000000
# tx t=013.164s 10210040#0000800000008000 note=native BCM/body base status from IPC_disconnected capture
(1780158292.968000) can0 10210040#0000800000008000
# tx t=013.260s 10210040#0000800000008000 note=native BCM/body base status from IPC_disconnected capture
(1780158293.063000) can0 10210040#0000800000008000
# tx t=013.308s 10230040#3000000030000000 note=native BCM/body 10230040 captured counter/state cycle variant 4/4
# tx t=013.308s 1022E040#3000000030000000 note=native BCM/body 1022E040 captured counter/state cycle variant 4/4
(1780158293.112000) can0 10230040#3000000030000000
(1780158293.112000) can0 1022E040#3000000030000000
# tx t=013.355s 10210040#0000800000008000 note=native BCM/body base status from IPC_disconnected capture
(1780158293.159000) can0 10210040#0000800000008000
# tx t=013.466s 10210040#0000800000008000 note=native BCM/body base status from IPC_disconnected capture
(1780158293.270000) can0 10210040#0000800000008000
# tx t=013.560s 621#0002000000000000 note=native unlock/key-in network-management context
# tx t=013.560s 10210040#0000800000008000 note=native BCM/body base status from IPC_disconnected capture
# tx t=013.560s 10264040#0000000000000000 note=native BCM/body base zero-status frame
# tx t=013.560s 102CA040#0000000000000F00 note=native BCM/body base 102CA040 context
# tx t=013.561s 10220040#1000000040120000 note=native BCM/body 10220040 unlock/key-in variant
# tx t=013.561s 10230040#0000000000000000 note=native BCM/body 10230040 captured counter/state cycle variant 1/4
# tx t=013.561s 1022E040#0000000000000000 note=native BCM/body 1022E040 captured counter/state cycle variant 1/4
# tx t=013.561s 10240040#8004880100000007 note=native BCM/body 10240040 base/off variant
# tx t=013.561s 102C0040#0000000000 note=native BCM/body 102C0040 neutral captured context
# tx t=013.561s 10754040#040000 note=native key/body context key-present variant
# tx t=013.561s 10242040#01 note=native 10242040 key-in/key-on state
(1780158293.365000) can0 621#0002000000000000
(1780158293.365000) can0 10210040#0000800000008000
(1780158293.365000) can0 10264040#0000000000000000
(1780158293.367000) can0 102CA040#0000000000000F00
(1780158293.372000) can0 10220040#1000000040120000
(1780158293.376000) can0 10230040#0000000000000000
(1780158293.395000) can0 1022E040#0000000000000000
(1780158293.396000) can0 10240040#8004880100000007
(1780158293.396000) can0 102C0040#0000000000
(1780158293.396000) can0 10754040#040000
(1780158293.398000) can0 10242040#01
# tx t=013.669s 10210040#0000800000008000 note=native BCM/body base status from IPC_disconnected capture
(1780158293.473000) can0 10210040#0000800000008000
# tx t=013.765s 13FFE040# note=native fake BCM/source 0x40 presence, captured-like cadence
# tx t=013.765s 10210040#0000800000008000 note=native BCM/body base status from IPC_disconnected capture
(1780158293.569000) can0 13FFE040#
(1780158293.569000) can0 10210040#0000800000008000
# tx t=013.813s 10230040#1000000010000000 note=native BCM/body 10230040 captured counter/state cycle variant 2/4
# tx t=013.813s 1022E040#1000000010000000 note=native BCM/body 1022E040 captured counter/state cycle variant 2/4
(1780158293.617000) can0 10230040#1000000010000000
(1780158293.617000) can0 1022E040#1000000010000000
# tx t=013.860s 10210040#0000800000008000 note=native BCM/body base status from IPC_disconnected capture
(1780158293.663000) can0 10210040#0000800000008000
(1780158293.726000) can0 13FFE060#
# tx t=013.954s 10210040#0000800000008000 note=native BCM/body base status from IPC_disconnected capture
(1780158293.758000) can0 10210040#0000800000008000
(1780158293.829000) can0 62C#0040000000000000
# tx t=014.065s 10210040#0000800000008000 note=native BCM/body base status from IPC_disconnected capture
# tx t=014.066s 10230040#2000000020000000 note=native BCM/body 10230040 captured counter/state cycle variant 3/4
# tx t=014.066s 1022E040#2000000020000000 note=native BCM/body 1022E040 captured counter/state cycle variant 3/4
(1780158293.869000) can0 10210040#0000800000008000
(1780158293.869000) can0 10230040#2000000020000000
(1780158293.870000) can0 1022E040#2000000020000000
# tx t=014.160s 10210040#0000800000008000 note=native BCM/body base status from IPC_disconnected capture
(1780158293.963000) can0 10210040#0000800000008000
# tx t=014.255s 10210040#0000800000008000 note=native BCM/body base status from IPC_disconnected capture
(1780158294.058000) can0 10210040#0000800000008000
# tx t=014.318s 10230040#3000000030000000 note=native BCM/body 10230040 captured counter/state cycle variant 4/4
# tx t=014.318s 1022E040#3000000030000000 note=native BCM/body 1022E040 captured counter/state cycle variant 4/4
(1780158294.122000) can0 10230040#3000000030000000
(1780158294.122000) can0 1022E040#3000000030000000
# tx t=014.365s 10210040#0000800000008000 note=native BCM/body base status from IPC_disconnected capture
(1780158294.169000) can0 10210040#0000800000008000
# tx t=014.460s 10210040#0000800000008000 note=native BCM/body base status from IPC_disconnected capture
(1780158294.264000) can0 10210040#0000800000008000
# tx t=014.569s 621#0002000000000000 note=native unlock/key-in network-management context
# tx t=014.569s 10210040#0000800000008000 note=native BCM/body base status from IPC_disconnected capture
# tx t=014.569s 10264040#0000000000000000 note=native BCM/body base zero-status frame
# tx t=014.570s 102CA040#0000000000000F00 note=native BCM/body base 102CA040 context
# tx t=014.570s 10220040#1000000040120000 note=native BCM/body 10220040 unlock/key-in variant
# tx t=014.570s 10230040#0000000000000000 note=native BCM/body 10230040 captured counter/state cycle variant 1/4
# tx t=014.570s 1022E040#0000000000000000 note=native BCM/body 1022E040 captured counter/state cycle variant 1/4
# tx t=014.570s 10240040#8004880100000007 note=native BCM/body 10240040 base/off variant
# tx t=014.570s 102C0040#0000000000 note=native BCM/body 102C0040 neutral captured context
# tx t=014.570s 10754040#040000 note=native key/body context key-present variant
# tx t=014.570s 10242040#01 note=native 10242040 key-in/key-on state
(1780158294.374000) can0 621#0002000000000000
(1780158294.374000) can0 10210040#0000800000008000
(1780158294.374000) can0 10264040#0000000000000000
(1780158294.376000) can0 102CA040#0000000000000F00
(1780158294.381000) can0 10220040#1000000040120000
(1780158294.385000) can0 10230040#0000000000000000
(1780158294.404000) can0 1022E040#0000000000000000
(1780158294.405000) can0 10240040#8004880100000007
(1780158294.405000) can0 102C0040#0000000000
(1780158294.405000) can0 10754040#040000
(1780158294.407000) can0 10242040#01
# tx t=014.664s 10210040#0000800000008000 note=native BCM/body base status from IPC_disconnected capture
(1780158294.468000) can0 10210040#0000800000008000
# tx t=014.760s 10210040#0000800000008000 note=native BCM/body base status from IPC_disconnected capture
(1780158294.564000) can0 10210040#0000800000008000
# tx t=014.807s 10230040#1000000010000000 note=native BCM/body 10230040 captured counter/state cycle variant 2/4
# tx t=014.807s 1022E040#1000000010000000 note=native BCM/body 1022E040 captured counter/state cycle variant 2/4
(1780158294.611000) can0 10230040#1000000010000000
(1780158294.611000) can0 1022E040#1000000010000000
# tx t=014.855s 10210040#0000800000008000 note=native BCM/body base status from IPC_disconnected capture
(1780158294.659000) can0 10210040#0000800000008000
# tx t=014.965s 13FFE040# note=native fake BCM/source 0x40 presence, captured-like cadence
# tx t=014.966s 10210040#0000800000008000 note=native BCM/body base status from IPC_disconnected capture
(1780158294.769000) can0 13FFE040#
(1780158294.769000) can0 10210040#0000800000008000
# tx t=015.060s 10210040#0000800000008000 note=native BCM/body base status from IPC_disconnected capture
# tx t=015.060s 10230040#2000000020000000 note=native BCM/body 10230040 captured counter/state cycle variant 3/4
# tx t=015.060s 1022E040#2000000020000000 note=native BCM/body 1022E040 captured counter/state cycle variant 3/4
(1780158294.864000) can0 10210040#0000800000008000
(1780158294.864000) can0 10230040#2000000020000000
(1780158294.864000) can0 1022E040#2000000020000000
(1780158294.926000) can0 13FFE060#
# tx t=015.170s 10210040#0000800000008000 note=native BCM/body base status from IPC_disconnected capture
(1780158294.973000) can0 10210040#0000800000008000
# tx t=015.265s 10210040#0000800000008000 note=native BCM/body base status from IPC_disconnected capture
(1780158295.068000) can0 10210040#0000800000008000
# tx t=015.312s 10230040#3000000030000000 note=native BCM/body 10230040 captured counter/state cycle variant 4/4
# tx t=015.312s 1022E040#3000000030000000 note=native BCM/body 1022E040 captured counter/state cycle variant 4/4
(1780158295.116000) can0 10230040#3000000030000000
(1780158295.116000) can0 1022E040#3000000030000000
# tx t=015.359s 10210040#0000800000008000 note=native BCM/body base status from IPC_disconnected capture
(1780158295.162000) can0 10210040#0000800000008000
# tx t=015.470s 10210040#0000800000008000 note=native BCM/body base status from IPC_disconnected capture
(1780158295.274000) can0 10210040#0000800000008000
# tx t=015.564s 621#0002000000000000 note=native unlock/key-in network-management context
# tx t=015.564s 10210040#0000800000008000 note=native BCM/body base status from IPC_disconnected capture
# tx t=015.564s 10264040#0000000000000000 note=native BCM/body base zero-status frame
# tx t=015.565s 102CA040#0000000000000F00 note=native BCM/body base 102CA040 context
# tx t=015.565s 10220040#1000000040120000 note=native BCM/body 10220040 unlock/key-in variant
# tx t=015.565s 10230040#0000000000000000 note=native BCM/body 10230040 captured counter/state cycle variant 1/4
# tx t=015.565s 1022E040#0000000000000000 note=native BCM/body 1022E040 captured counter/state cycle variant 1/4
# tx t=015.565s 10240040#8004880100000007 note=native BCM/body 10240040 base/off variant
# tx t=015.565s 102C0040#0000000000 note=native BCM/body 102C0040 neutral captured context
# tx t=015.565s 10754040#040000 note=native key/body context key-present variant
# tx t=015.565s 10242040#01 note=native 10242040 key-in/key-on state
(1780158295.369000) can0 621#0002000000000000
(1780158295.369000) can0 10210040#0000800000008000
(1780158295.369000) can0 10264040#0000000000000000
(1780158295.371000) can0 102CA040#0000000000000F00
(1780158295.375000) can0 10220040#1000000040120000
(1780158295.380000) can0 10230040#0000000000000000
(1780158295.398000) can0 1022E040#0000000000000000
(1780158295.399000) can0 10240040#8004880100000007
(1780158295.399000) can0 102C0040#0000000000
(1780158295.399000) can0 10754040#040000
(1780158295.402000) can0 10242040#01
# tx t=015.659s 10210040#0000800000008000 note=native BCM/body base status from IPC_disconnected capture
(1780158295.463000) can0 10210040#0000800000008000
# tx t=015.770s 10210040#0000800000008000 note=native BCM/body base status from IPC_disconnected capture
(1780158295.574000) can0 10210040#0000800000008000
# tx t=015.818s 10230040#1000000010000000 note=native BCM/body 10230040 captured counter/state cycle variant 2/4
# tx t=015.818s 1022E040#1000000010000000 note=native BCM/body 1022E040 captured counter/state cycle variant 2/4
(1780158295.622000) can0 10230040#1000000010000000
(1780158295.622000) can0 1022E040#1000000010000000
# tx t=015.866s 10210040#0000800000008000 note=native BCM/body base status from IPC_disconnected capture
(1780158295.670000) can0 10210040#0000800000008000
# tx t=015.960s 10210040#0000800000008000 note=native BCM/body base status from IPC_disconnected capture
(1780158295.764000) can0 10210040#0000800000008000
# tx t=016.054s 10210040#0000800000008000 note=native BCM/body base status from IPC_disconnected capture
# tx t=016.055s 10230040#2000000020000000 note=native BCM/body 10230040 captured counter/state cycle variant 3/4
# tx t=016.055s 1022E040#2000000020000000 note=native BCM/body 1022E040 captured counter/state cycle variant 3/4
(1780158295.858000) can0 10210040#0000800000008000
(1780158295.858000) can0 10230040#2000000020000000
(1780158295.858000) can0 1022E040#2000000020000000
# tx t=016.166s 13FFE040# note=native fake BCM/source 0x40 presence, captured-like cadence
# tx t=016.166s 10210040#0000800000008000 note=native BCM/body base status from IPC_disconnected capture
(1780158295.970000) can0 13FFE040#
(1780158295.970000) can0 10210040#0000800000008000
# tx t=016.261s 10210040#0000800000008000 note=native BCM/body base status from IPC_disconnected capture
(1780158296.064000) can0 10210040#0000800000008000
# tx t=016.308s 10230040#3000000030000000 note=native BCM/body 10230040 captured counter/state cycle variant 4/4
# tx t=016.308s 1022E040#3000000030000000 note=native BCM/body 1022E040 captured counter/state cycle variant 4/4
(1780158296.112000) can0 10230040#3000000030000000
(1780158296.112000) can0 1022E040#3000000030000000
(1780158296.122000) can0 13FFE060#
# tx t=016.355s 10210040#0000800000008000 note=native BCM/body base status from IPC_disconnected capture
(1780158296.158000) can0 10210040#0000800000008000
# tx t=016.466s 10210040#0000800000008000 note=native BCM/body base status from IPC_disconnected capture
(1780158296.270000) can0 10210040#0000800000008000
# tx t=016.561s 621#0002000000000000 note=native unlock/key-in network-management context
# tx t=016.561s 10210040#0000800000008000 note=native BCM/body base status from IPC_disconnected capture
# tx t=016.561s 10264040#0000000000000000 note=native BCM/body base zero-status frame
# tx t=016.561s 102CA040#0000000000000F00 note=native BCM/body base 102CA040 context
# tx t=016.562s 10220040#1000000040120000 note=native BCM/body 10220040 unlock/key-in variant
# tx t=016.562s 10230040#0000000000000000 note=native BCM/body 10230040 captured counter/state cycle variant 1/4
# tx t=016.562s 1022E040#0000000000000000 note=native BCM/body 1022E040 captured counter/state cycle variant 1/4
# tx t=016.562s 10240040#8004880100000007 note=native BCM/body 10240040 base/off variant
# tx t=016.562s 102C0040#0000000000 note=native BCM/body 102C0040 neutral captured context
# tx t=016.562s 10754040#040000 note=native key/body context key-present variant
# tx t=016.562s 10242040#01 note=native 10242040 key-in/key-on state
(1780158296.366000) can0 621#0002000000000000
(1780158296.366000) can0 10210040#0000800000008000
(1780158296.366000) can0 10264040#0000000000000000
(1780158296.368000) can0 102CA040#0000000000000F00
(1780158296.372000) can0 10220040#1000000040120000
(1780158296.377000) can0 10230040#0000000000000000
(1780158296.395000) can0 1022E040#0000000000000000
(1780158296.396000) can0 10240040#8004880100000007
(1780158296.396000) can0 102C0040#0000000000
(1780158296.396000) can0 10754040#040000
(1780158296.399000) can0 10242040#01
# tx t=016.655s 10210040#0000800000008000 note=native BCM/body base status from IPC_disconnected capture
(1780158296.459000) can0 10210040#0000800000008000
# tx t=016.766s 10210040#0000800000008000 note=native BCM/body base status from IPC_disconnected capture
(1780158296.570000) can0 10210040#0000800000008000
# tx t=016.812s 10230040#1000000010000000 note=native BCM/body 10230040 captured counter/state cycle variant 2/4
# tx t=016.813s 1022E040#1000000010000000 note=native BCM/body 1022E040 captured counter/state cycle variant 2/4
(1780158296.616000) can0 10230040#1000000010000000
(1780158296.616000) can0 1022E040#1000000010000000
# tx t=016.860s 10210040#0000800000008000 note=native BCM/body base status from IPC_disconnected capture
(1780158296.664000) can0 10210040#0000800000008000
# tx t=016.955s 10210040#0000800000008000 note=native BCM/body base status from IPC_disconnected capture
(1780158296.759000) can0 10210040#0000800000008000
(1780158296.827000) can0 62C#0040000000000000
# tx t=017.067s 10210040#0000800000008000 note=native BCM/body base status from IPC_disconnected capture
# tx t=017.067s 10230040#2000000020000000 note=native BCM/body 10230040 captured counter/state cycle variant 3/4
# tx t=017.067s 1022E040#2000000020000000 note=native BCM/body 1022E040 captured counter/state cycle variant 3/4
(1780158296.871000) can0 10210040#0000800000008000
(1780158296.871000) can0 10230040#2000000020000000
(1780158296.871000) can0 1022E040#2000000020000000
# tx t=017.162s 10210040#0000800000008000 note=native BCM/body base status from IPC_disconnected capture
(1780158296.965000) can0 10210040#0000800000008000
# tx t=017.256s 10210040#0000800000008000 note=native BCM/body base status from IPC_disconnected capture
(1780158297.059000) can0 10210040#0000800000008000
# tx t=017.320s 10230040#3000000030000000 note=native BCM/body 10230040 captured counter/state cycle variant 4/4
# tx t=017.320s 1022E040#3000000030000000 note=native BCM/body 1022E040 captured counter/state cycle variant 4/4
(1780158297.124000) can0 10230040#3000000030000000
(1780158297.124000) can0 1022E040#3000000030000000
# tx t=017.368s 13FFE040# note=native fake BCM/source 0x40 presence, captured-like cadence
# tx t=017.368s 10210040#0000800000008000 note=native BCM/body base status from IPC_disconnected capture
(1780158297.172000) can0 13FFE040#
(1780158297.172000) can0 10210040#0000800000008000
# tx t=017.463s 10210040#0000800000008000 note=native BCM/body base status from IPC_disconnected capture
(1780158297.267000) can0 10210040#0000800000008000
(1780158297.329000) can0 13FFE060#
# tx t=017.558s 621#0002000000000000 note=native unlock/key-in network-management context
# tx t=017.558s 10210040#0000800000008000 note=native BCM/body base status from IPC_disconnected capture
# tx t=017.558s 10264040#0000000000000000 note=native BCM/body base zero-status frame
# tx t=017.559s 102CA040#0000000000000F00 note=native BCM/body base 102CA040 context
# tx t=017.559s 10220040#1000000040120000 note=native BCM/body 10220040 unlock/key-in variant
# tx t=017.559s 10230040#0000000000000000 note=native BCM/body 10230040 captured counter/state cycle variant 1/4
# tx t=017.559s 1022E040#0000000000000000 note=native BCM/body 1022E040 captured counter/state cycle variant 1/4
# tx t=017.559s 10240040#8004880100000007 note=native BCM/body 10240040 base/off variant
# tx t=017.559s 102C0040#0000000000 note=native BCM/body 102C0040 neutral captured context
# tx t=017.560s 10754040#040000 note=native key/body context key-present variant
# tx t=017.560s 10242040#01 note=native 10242040 key-in/key-on state
(1780158297.363000) can0 621#0002000000000000
(1780158297.363000) can0 10210040#0000800000008000
(1780158297.363000) can0 10264040#0000000000000000
(1780158297.365000) can0 102CA040#0000000000000F00
(1780158297.369000) can0 10220040#1000000040120000
(1780158297.374000) can0 10230040#0000000000000000
(1780158297.393000) can0 1022E040#0000000000000000
(1780158297.393000) can0 10240040#8004880100000007
(1780158297.393000) can0 102C0040#0000000000
(1780158297.393000) can0 10754040#040000
(1780158297.396000) can0 10242040#01
# tx t=017.669s 10210040#0000800000008000 note=native BCM/body base status from IPC_disconnected capture
(1780158297.472000) can0 10210040#0000800000008000
# tx t=017.763s 10210040#0000800000008000 note=native BCM/body base status from IPC_disconnected capture
(1780158297.567000) can0 10210040#0000800000008000
# tx t=017.810s 10230040#1000000010000000 note=native BCM/body 10230040 captured counter/state cycle variant 2/4
# tx t=017.810s 1022E040#1000000010000000 note=native BCM/body 1022E040 captured counter/state cycle variant 2/4
(1780158297.614000) can0 10230040#1000000010000000
(1780158297.614000) can0 1022E040#1000000010000000
# tx t=017.858s 10210040#0000800000008000 note=native BCM/body base status from IPC_disconnected capture
(1780158297.662000) can0 10210040#0000800000008000
(1780158297.725000) can0 10244060#02
# tx t=017.969s 10210040#0000800000008000 note=native BCM/body base status from IPC_disconnected capture
(1780158297.773000) can0 10210040#0000800000008000
# tx t=018.063s 10210040#0000800000008000 note=native BCM/body base status from IPC_disconnected capture
# tx t=018.064s 10230040#2000000020000000 note=native BCM/body 10230040 captured counter/state cycle variant 3/4
# tx t=018.064s 1022E040#2000000020000000 note=native BCM/body 1022E040 captured counter/state cycle variant 3/4
(1780158297.868000) can0 10210040#0000800000008000
(1780158297.868000) can0 10230040#2000000020000000
(1780158297.868000) can0 1022E040#2000000020000000
# tx t=018.159s 10210040#0000800000008000 note=native BCM/body base status from IPC_disconnected capture
(1780158297.962000) can0 10210040#0000800000008000
# tx t=018.269s 10210040#0000800000008000 note=native BCM/body base status from IPC_disconnected capture
(1780158298.073000) can0 10210040#0000800000008000
# tx t=018.317s 10230040#3000000030000000 note=native BCM/body 10230040 captured counter/state cycle variant 4/4
# tx t=018.318s 1022E040#3000000030000000 note=native BCM/body 1022E040 captured counter/state cycle variant 4/4
(1780158298.121000) can0 10230040#3000000030000000
(1780158298.121000) can0 1022E040#3000000030000000
# tx t=018.364s 10210040#0000800000008000 note=native BCM/body base status from IPC_disconnected capture
(1780158298.168000) can0 10210040#0000800000008000
# tx t=018.457s 10210040#0000800000008000 note=native BCM/body base status from IPC_disconnected capture
(1780158298.260000) can0 10210040#0000800000008000
# tx t=018.568s 13FFE040# note=native fake BCM/source 0x40 presence, captured-like cadence
# tx t=018.568s 621#0052000000000000 note=native key-on network-management context
# tx t=018.569s 10210040#0000800000008000 note=native BCM/body base status from IPC_disconnected capture
# tx t=018.569s 10264040#0000000000000000 note=native BCM/body base zero-status frame
# tx t=018.569s 102CA040#0000000000000F00 note=native BCM/body base 102CA040 context
# tx t=018.569s 10220040#1000000040080000 note=native BCM/body 10220040 key-on variant
# tx t=018.569s 10230040#0000000000000000 note=native BCM/body 10230040 captured counter/state cycle variant 1/4
# tx t=018.569s 1022E040#0000000000000000 note=native BCM/body 1022E040 captured counter/state cycle variant 1/4
# tx t=018.569s 10240040#8004880100000007 note=native BCM/body 10240040 base/off variant
# tx t=018.569s 102C0040#803C96B503 note=native BCM/body 102C0040 key-on captured context
# tx t=018.569s 10754040#040400 note=native key/body context key-on variant
# tx t=018.569s 10242040#01 note=native 10242040 key-in/key-on state
(1780158298.373000) can0 13FFE040#
(1780158298.373000) can0 621#0052000000000000
(1780158298.373000) can0 10210040#0000800000008000
(1780158298.374000) can0 10264040#0000000000000000
(1780158298.377000) can0 102CA040#0000000000000F00
(1780158298.382000) can0 10220040#1000000040080000
(1780158298.386000) can0 10230040#0000000000000000
(1780158298.388000) can0 100#
(1780158298.390000) can0 10244060#02
(1780158298.395000) can0 1022E040#0000000000000000
(1780158298.399000) can0 10240040#8004880100000007
(1780158298.418000) can0 102C0040#803C96B503
(1780158298.419000) can0 10754040#040400
(1780158298.419000) can0 10242040#01
(1780158298.419000) can0 103BC060#00
(1780158298.420000) can0 103D6060#00
(1780158298.423000) can0 103DA060#00
(1780158298.425000) can0 1045C060#40
(1780158298.433000) can0 10812060#00
(1780158298.450000) can0 1084A060#00
(1780158298.451000) can0 10ACE060#1E00200000000000
(1780158298.451000) can0 10AE8060#030E010104050000
(1780158298.451000) can0 10308060#000002
(1780158298.451000) can0 13FFE060#
(1780158298.456000) can0 62C#0110000000000000
(1780158298.464000) can0 13FFE060#
# tx t=018.663s 10210040#0000800000008000 note=native BCM/body base status from IPC_disconnected capture
(1780158298.467000) can0 10210040#0000800000008000
(1780158298.476000) can0 10AE8060#0016010800000000
(1780158298.498000) can0 10244060#02
(1780158298.498000) can0 10424060#079964
# tx t=018.757s 10210040#0000800000008000 note=native BCM/body base status from IPC_disconnected capture
(1780158298.561000) can0 10ACE060#2B00000000000000
(1780158298.561000) can0 10210040#0000800000008000
(1780158298.569000) can0 10AFC060#38FFFFFFFFFFFF2B
(1780158298.604000) can0 10244060#02
# tx t=018.805s 10230040#1000000010000000 note=native BCM/body 10230040 captured counter/state cycle variant 2/4
# tx t=018.806s 1022E040#1000000010000000 note=native BCM/body 1022E040 captured counter/state cycle variant 2/4
(1780158298.609000) can0 10230040#1000000010000000
(1780158298.609000) can0 1022E040#1000000010000000
(1780158298.621000) can0 10600060#0160B902005B00
# tx t=018.867s 10210040#0000800000008000 note=native BCM/body base status from IPC_disconnected capture
(1780158298.671000) can0 10210040#0000800000008000
# tx t=018.962s 10210040#0000800000008000 note=native BCM/body base status from IPC_disconnected capture
(1780158298.766000) can0 10210040#0000800000008000
# tx t=019.057s 10210040#0000800000008000 note=native BCM/body base status from IPC_disconnected capture
# tx t=019.058s 10230040#2000000020000000 note=native BCM/body 10230040 captured counter/state cycle variant 3/4
# tx t=019.058s 1022E040#2000000020000000 note=native BCM/body 1022E040 captured counter/state cycle variant 3/4
(1780158298.861000) can0 10210040#0000800000008000
(1780158298.861000) can0 10230040#2000000020000000
(1780158298.862000) can0 1022E040#2000000020000000
# tx t=019.169s 10210040#0000800000008000 note=native BCM/body base status from IPC_disconnected capture
(1780158298.973000) can0 10210040#0000800000008000
# tx t=019.264s 10210040#0000800000008000 note=native BCM/body base status from IPC_disconnected capture
(1780158299.067000) can0 10210040#0000800000008000
# tx t=019.311s 10230040#3000000030000000 note=native BCM/body 10230040 captured counter/state cycle variant 4/4
# tx t=019.311s 1022E040#3000000030000000 note=native BCM/body 1022E040 captured counter/state cycle variant 4/4
(1780158299.115000) can0 10230040#3000000030000000
(1780158299.115000) can0 1022E040#3000000030000000
