# cantool TX/RX capture bitrate=33333.333 fclk=170000000 brp=255 prop=1 phase1=13 phase2=5 sjw=4
# tx t=010.823s 100# note=native key-first-turn replay SWCAN wake pulse from disconnected seed
# tx t=010.824s 13FFE040# note=native key-first-turn replay BCM/source 0x40 presence seed
# tx t=010.825s 10210040#0000800000008000 note=native key-first-turn replay source 0x40 body status 0x108
# tx t=010.826s 10220040#1000000040080000 note=native key-first-turn replay source 0x40 body status 0x110
# tx t=010.826s 1022E040#1000000010000000 note=native key-first-turn replay source 0x40 1022E040 captured state cycle variant 1/4
# tx t=010.826s 10230040#0000000000000000 note=native key-first-turn replay source 0x40 10230040 captured state cycle variant 1/4
# tx t=010.827s 10240040#83FF880100D80FFD note=native key-first-turn replay source 0x40 10240040 top captured payload
# tx t=010.827s 10264040#0000000000000000 note=native key-first-turn replay source 0x40 body status 0x132
# tx t=010.827s 102C0040#803C96B503 note=native key-first-turn replay wrapped 0x160 ignition/power mode from disconnected seed
# tx t=010.827s 102CA040#0000000000000F00 note=native key-first-turn replay source 0x40 body status 0x165
(1780163136.036000) can0 100#
(1780163136.037000) can0 13FFE040#
(1780163136.037000) can0 10210040#0000800000008000
# tx t=010.846s 106B8040#0000000000000000 note=native key-first-turn replay source 0x40 body/HMI status 0x35C
# tx t=010.885s 1022A040#00B00000000000 note=native key-first-turn replay source 0x40 body status 0x115
# tx t=010.901s 1022C040#00000000 note=native key-first-turn replay source 0x40 body status 0x116
# tx t=010.933s 621#0052000000000000 note=native key-first-turn replay 621 key-on seed
# tx t=010.933s 10210040#0000800000008000 note=native key-first-turn replay source 0x40 body status 0x108
# tx t=010.933s 10220040#1000000040080000 note=native key-first-turn replay source 0x40 body status 0x110
# tx t=010.934s 1022E040#2000000020000000 note=native key-first-turn replay source 0x40 1022E040 captured state cycle variant 2/4
# tx t=010.934s 10230040#1000000010000000 note=native key-first-turn replay source 0x40 10230040 captured state cycle variant 2/4
# tx t=010.934s 10240040#83FF880100D80FFD note=native key-first-turn replay source 0x40 10240040 top captured payload
# tx t=010.934s 10264040#0000000000000000 note=native key-first-turn replay source 0x40 body status 0x132
# tx t=010.934s 102C0040#803C96B503 note=native key-first-turn replay wrapped 0x160 ignition/power mode from disconnected seed
# tx t=010.935s 102CA040#0000000000000F00 note=native key-first-turn replay source 0x40 body status 0x165
# tx t=010.935s 102CC040#0800000000000000 note=native key-first-turn replay source 0x40 body status 0x166
# tx t=010.949s 102CE040#0700070000000000 note=native key-first-turn replay source 0x40 body status 0x167
# tx t=010.980s 10780040#0000000000000000 note=native key-first-turn replay source 0x40 body/HMI status 0x3C0
# tx t=010.996s 10800040#000000000000 note=native key-first-turn replay source 0x40 body/HMI status 0x400
# tx t=011.027s 10210040#0000800000008000 note=native key-first-turn replay source 0x40 body status 0x108
# tx t=011.028s 10220040#1000000040080000 note=native key-first-turn replay source 0x40 body status 0x110
# tx t=011.028s 1022E040#3000000030000000 note=native key-first-turn replay source 0x40 1022E040 captured state cycle variant 3/4
# tx t=011.028s 10230040#2000000020000000 note=native key-first-turn replay source 0x40 10230040 captured state cycle variant 3/4
# tx t=011.028s 10240040#83FF880100D80FFD note=native key-first-turn replay source 0x40 10240040 top captured payload
# tx t=011.028s 10264040#0000000000000000 note=native key-first-turn replay source 0x40 body status 0x132
# tx t=011.028s 102C0040#803C96B503 note=native key-first-turn replay wrapped 0x160 ignition/power mode from disconnected seed
# tx t=011.028s 102CA040#0000000000000F00 note=native key-first-turn replay source 0x40 body status 0x165
# tx t=011.028s 10248040#00005DA6A300 note=native key-first-turn replay source 0x40 dynamic body/DIC status 0x124
# tx t=011.057s 106B8040#0000000000000000 note=native key-first-turn replay source 0x40 body/HMI status 0x35C
# tx t=011.073s 102D0040#0000000000000000 note=native key-first-turn replay source 0x40 body status 0x168
# tx t=011.121s 10210040#0000800000008000 note=native key-first-turn replay source 0x40 body status 0x108
# tx t=011.122s 10220040#1000000040080000 note=native key-first-turn replay source 0x40 body status 0x110
# tx t=011.122s 1022E040#0000000000000000 note=native key-first-turn replay source 0x40 1022E040 captured state cycle variant 4/4
# tx t=011.122s 10230040#3000000030000000 note=native key-first-turn replay source 0x40 10230040 captured state cycle variant 4/4
# tx t=011.122s 10240040#83FF880100D80FFD note=native key-first-turn replay source 0x40 10240040 top captured payload
# tx t=011.122s 10264040#0000000000000000 note=native key-first-turn replay source 0x40 body status 0x132
# tx t=011.123s 102C0040#803C96B503 note=native key-first-turn replay wrapped 0x160 ignition/power mode from disconnected seed
# tx t=011.123s 102CA040#0000000000000F00 note=native key-first-turn replay source 0x40 body status 0x165
# tx t=011.123s 1022A040#00B00000000000 note=native key-first-turn replay source 0x40 body status 0x115
# tx t=011.123s 10788040#100A00000000 note=native key-first-turn replay source 0x40 body/HMI status 0x3C4
# tx t=011.152s 1022C040#00000000 note=native key-first-turn replay source 0x40 body status 0x116
# tx t=011.185s 102CC040#0800000000000000 note=native key-first-turn replay source 0x40 body status 0x166
# tx t=011.185s 10806040#0000000000 note=native key-first-turn replay source 0x40 body/HMI status 0x403
# tx t=011.201s 102CE040#0700070000000000 note=native key-first-turn replay source 0x40 body status 0x167
# tx t=011.232s 10210040#0000800000008000 note=native key-first-turn replay source 0x40 body status 0x108
# tx t=011.233s 10220040#1000000040080000 note=native key-first-turn replay source 0x40 body status 0x110
# tx t=011.233s 1022E040#1000000010000000 note=native key-first-turn replay source 0x40 1022E040 captured state cycle variant 1/4
# tx t=011.233s 10230040#0000000000000000 note=native key-first-turn replay source 0x40 10230040 captured state cycle variant 1/4
# tx t=011.233s 10240040#83FF880100D80FFD note=native key-first-turn replay source 0x40 10240040 top captured payload
# tx t=011.233s 10264040#0000000000000000 note=native key-first-turn replay source 0x40 body status 0x132
# tx t=011.233s 102C0040#803C96B503 note=native key-first-turn replay wrapped 0x160 ignition/power mode from disconnected seed
# tx t=011.234s 102CA040#0000000000000F00 note=native key-first-turn replay source 0x40 body status 0x165
# tx t=011.234s 10780040#0000000000000000 note=native key-first-turn replay source 0x40 body/HMI status 0x3C0
# tx t=011.249s 106B8040#0000000000000000 note=native key-first-turn replay source 0x40 body/HMI status 0x35C
# tx t=011.249s 10800040#000000000000 note=native key-first-turn replay source 0x40 body/HMI status 0x400
# tx t=011.328s 10210040#0000800000008000 note=native key-first-turn replay source 0x40 body status 0x108
# tx t=011.328s 10220040#1000000040080000 note=native key-first-turn replay source 0x40 body status 0x110
# tx t=011.328s 1022E040#2000000020000000 note=native key-first-turn replay source 0x40 1022E040 captured state cycle variant 2/4
# tx t=011.328s 10230040#1000000010000000 note=native key-first-turn replay source 0x40 10230040 captured state cycle variant 2/4
# tx t=011.329s 10240040#83FF880100D80FFD note=native key-first-turn replay source 0x40 10240040 top captured payload
# tx t=011.329s 10264040#0000000000000000 note=native key-first-turn replay source 0x40 body status 0x132
# tx t=011.329s 102C0040#803C96B503 note=native key-first-turn replay wrapped 0x160 ignition/power mode from disconnected seed
# tx t=011.329s 102CA040#0000000000000F00 note=native key-first-turn replay source 0x40 body status 0x165
# tx t=011.329s 10242040#01 note=native key-first-turn replay source 0x40 key/ignition sub-state 0x121
# tx t=011.375s 1022A040#00B00000000000 note=native key-first-turn replay source 0x40 body status 0x115
# tx t=011.407s 1022C040#00000000 note=native key-first-turn replay source 0x40 body status 0x116
# tx t=011.423s 10210040#0000800000008000 note=native key-first-turn replay source 0x40 body status 0x108
# tx t=011.423s 10220040#1000000040080000 note=native key-first-turn replay source 0x40 body status 0x110
# tx t=011.424s 1022E040#3000000030000000 note=native key-first-turn replay source 0x40 1022E040 captured state cycle variant 3/4
# tx t=011.424s 10230040#2000000020000000 note=native key-first-turn replay source 0x40 10230040 captured state cycle variant 3/4
# tx t=011.424s 10240040#83FF880100D80FFD note=native key-first-turn replay source 0x40 10240040 top captured payload
# tx t=011.424s 10264040#0000000000000000 note=native key-first-turn replay source 0x40 body status 0x132
# tx t=011.424s 102C0040#803C96B503 note=native key-first-turn replay wrapped 0x160 ignition/power mode from disconnected seed
# tx t=011.424s 102CA040#0000000000000F00 note=native key-first-turn replay source 0x40 body status 0x165
# tx t=011.424s 102CC040#0800000000000000 note=native key-first-turn replay source 0x40 body status 0x166
# tx t=011.424s 10754040#040400 note=native key-first-turn replay key-present/key-on context
# tx t=011.455s 106B8040#0000000000000000 note=native key-first-turn replay source 0x40 body/HMI status 0x35C
# tx t=011.455s 102CE040#0700070000000000 note=native key-first-turn replay source 0x40 body status 0x167
# tx t=011.486s 10780040#0000000000000000 note=native key-first-turn replay source 0x40 body/HMI status 0x3C0
# tx t=011.502s 10800040#000000000000 note=native key-first-turn replay source 0x40 body/HMI status 0x400
# tx t=011.533s 10210040#0000800000008000 note=native key-first-turn replay source 0x40 body status 0x108
# tx t=011.533s 10220040#1000000040080000 note=native key-first-turn replay source 0x40 body status 0x110
# tx t=011.533s 1022E040#0000000000000000 note=native key-first-turn replay source 0x40 1022E040 captured state cycle variant 4/4
# tx t=011.533s 10230040#3000000030000000 note=native key-first-turn replay source 0x40 10230040 captured state cycle variant 4/4
# tx t=011.533s 10240040#83FF880100D80FFD note=native key-first-turn replay source 0x40 10240040 top captured payload
# tx t=011.533s 10264040#0000000000000000 note=native key-first-turn replay source 0x40 body status 0x132
# tx t=011.533s 102C0040#803C96B503 note=native key-first-turn replay wrapped 0x160 ignition/power mode from disconnected seed
# tx t=011.533s 102CA040#0000000000000F00 note=native key-first-turn replay source 0x40 body status 0x165
# tx t=011.534s 10248040#00005DA6A300 note=native key-first-turn replay source 0x40 dynamic body/DIC status 0x124
# tx t=011.579s 102D0040#0000000000000000 note=native key-first-turn replay source 0x40 body status 0x168
# tx t=011.627s 10210040#0000800000008000 note=native key-first-turn replay source 0x40 body status 0x108
# tx t=011.627s 10220040#1000000040080000 note=native key-first-turn replay source 0x40 body status 0x110
# tx t=011.627s 1022E040#1000000010000000 note=native key-first-turn replay source 0x40 1022E040 captured state cycle variant 1/4
# tx t=011.628s 10230040#0000000000000000 note=native key-first-turn replay source 0x40 10230040 captured state cycle variant 1/4
# tx t=011.628s 10240040#83FF880100D80FFD note=native key-first-turn replay source 0x40 10240040 top captured payload
# tx t=011.628s 10264040#0000000000000000 note=native key-first-turn replay source 0x40 body status 0x132
# tx t=011.628s 102C0040#803C96B503 note=native key-first-turn replay wrapped 0x160 ignition/power mode from disconnected seed
# tx t=011.628s 102CA040#0000000000000F00 note=native key-first-turn replay source 0x40 body status 0x165
# tx t=011.628s 1022A040#00B00000000000 note=native key-first-turn replay source 0x40 body status 0x115
# tx t=011.629s 10788040#100A00000000 note=native key-first-turn replay source 0x40 body/HMI status 0x3C4
# tx t=011.658s 106B8040#0000000000000000 note=native key-first-turn replay source 0x40 body/HMI status 0x35C
# tx t=011.658s 1022C040#00000000 note=native key-first-turn replay source 0x40 body status 0x116
# tx t=011.674s 102CC040#0800000000000000 note=native key-first-turn replay source 0x40 body status 0x166
# tx t=011.706s 102CE040#0700070000000000 note=native key-first-turn replay source 0x40 body status 0x167
# tx t=011.722s 10210040#0000800000008000 note=native key-first-turn replay source 0x40 body status 0x108
# tx t=011.722s 10220040#1000000040080000 note=native key-first-turn replay source 0x40 body status 0x110
# tx t=011.723s 1022E040#2000000020000000 note=native key-first-turn replay source 0x40 1022E040 captured state cycle variant 2/4
# tx t=011.723s 10230040#1000000010000000 note=native key-first-turn replay source 0x40 10230040 captured state cycle variant 2/4
# tx t=011.723s 10240040#83FF880100D80FFD note=native key-first-turn replay source 0x40 10240040 top captured payload
# tx t=011.723s 10264040#0000000000000000 note=native key-first-turn replay source 0x40 body status 0x132
# tx t=011.723s 102C0040#803C96B503 note=native key-first-turn replay wrapped 0x160 ignition/power mode from disconnected seed
# tx t=011.723s 102CA040#0000000000000F00 note=native key-first-turn replay source 0x40 body status 0x165
# tx t=011.723s 10780040#0000000000000000 note=native key-first-turn replay source 0x40 body/HMI status 0x3C0
# tx t=011.723s 10806040#0000000000 note=native key-first-turn replay source 0x40 body/HMI status 0x403
# tx t=011.753s 10800040#000000000000 note=native key-first-turn replay source 0x40 body/HMI status 0x400
# tx t=011.833s 621#0052000000000000 note=native key-first-turn replay 621 key-on keepalive
# tx t=011.833s 10210040#0000800000008000 note=native key-first-turn replay source 0x40 body status 0x108
# tx t=011.833s 10220040#1000000040080000 note=native key-first-turn replay source 0x40 body status 0x110
# tx t=011.833s 1022E040#3000000030000000 note=native key-first-turn replay source 0x40 1022E040 captured state cycle variant 3/4
# tx t=011.834s 10230040#2000000020000000 note=native key-first-turn replay source 0x40 10230040 captured state cycle variant 3/4
# tx t=011.834s 10240040#83FF880100D80FFD note=native key-first-turn replay source 0x40 10240040 top captured payload
# tx t=011.834s 10264040#0000000000000000 note=native key-first-turn replay source 0x40 body status 0x132
# tx t=011.834s 102C0040#803C96B503 note=native key-first-turn replay wrapped 0x160 ignition/power mode from disconnected seed
# tx t=011.834s 102CA040#0000000000000F00 note=native key-first-turn replay source 0x40 body status 0x165
# tx t=011.848s 106B8040#0000000000000000 note=native key-first-turn replay source 0x40 body/HMI status 0x35C
# tx t=011.879s 1022A040#00B00000000000 note=native key-first-turn replay source 0x40 body status 0x115
# tx t=011.911s 1022C040#00000000 note=native key-first-turn replay source 0x40 body status 0x116
# tx t=011.927s 10210040#0000800000008000 note=native key-first-turn replay source 0x40 body status 0x108
# tx t=011.927s 10220040#1000000040080000 note=native key-first-turn replay source 0x40 body status 0x110
# tx t=011.928s 1022E040#0000000000000000 note=native key-first-turn replay source 0x40 1022E040 captured state cycle variant 4/4
# tx t=011.928s 10230040#3000000030000000 note=native key-first-turn replay source 0x40 10230040 captured state cycle variant 4/4
# tx t=011.928s 10240040#83FF880100D80FFD note=native key-first-turn replay source 0x40 10240040 top captured payload
# tx t=011.928s 10264040#0000000000000000 note=native key-first-turn replay source 0x40 body status 0x132
# tx t=011.928s 102C0040#803C96B503 note=native key-first-turn replay wrapped 0x160 ignition/power mode from disconnected seed
# tx t=011.928s 102CA040#0000000000000F00 note=native key-first-turn replay source 0x40 body status 0x165
# tx t=011.929s 102CC040#0800000000000000 note=native key-first-turn replay source 0x40 body status 0x166
# tx t=011.958s 102CE040#0700070000000000 note=native key-first-turn replay source 0x40 body status 0x167
# tx t=011.974s 10780040#0000000000000000 note=native key-first-turn replay source 0x40 body/HMI status 0x3C0
# tx t=012.006s 10800040#000000000000 note=native key-first-turn replay source 0x40 body/HMI status 0x400
# tx t=012.021s 13FFE040# note=native key-first-turn replay BCM/source 0x40 presence
# tx t=012.021s 10210040#0000800000008000 note=native key-first-turn replay source 0x40 body status 0x108
# tx t=012.021s 10220040#1000000040080000 note=native key-first-turn replay source 0x40 body status 0x110
# tx t=012.021s 1022E040#1000000010000000 note=native key-first-turn replay source 0x40 1022E040 captured state cycle variant 1/4
# tx t=012.021s 10230040#0000000000000000 note=native key-first-turn replay source 0x40 10230040 captured state cycle variant 1/4
# tx t=012.021s 10240040#83FF880100D80FFD note=native key-first-turn replay source 0x40 10240040 top captured payload
# tx t=012.022s 10264040#0000000000000000 note=native key-first-turn replay source 0x40 body status 0x132
# tx t=012.022s 102C0040#803C96B503 note=native key-first-turn replay wrapped 0x160 ignition/power mode from disconnected seed
# tx t=012.022s 102CA040#0000000000000F00 note=native key-first-turn replay source 0x40 body status 0x165
# tx t=012.022s 10248040#00005DA6A300 note=native key-first-turn replay source 0x40 dynamic body/DIC status 0x124
# tx t=012.052s 106B8040#0000000000000000 note=native key-first-turn replay source 0x40 body/HMI status 0x35C
# tx t=012.084s 102D0040#0000000000000000 note=native key-first-turn replay source 0x40 body status 0x168
# tx t=012.131s 10210040#0000800000008000 note=native key-first-turn replay source 0x40 body status 0x108
# tx t=012.132s 10220040#1000000040080000 note=native key-first-turn replay source 0x40 body status 0x110
# tx t=012.132s 1022E040#2000000020000000 note=native key-first-turn replay source 0x40 1022E040 captured state cycle variant 2/4
# tx t=012.132s 10230040#1000000010000000 note=native key-first-turn replay source 0x40 10230040 captured state cycle variant 2/4
# tx t=012.132s 10240040#83FF880100D80FFD note=native key-first-turn replay source 0x40 10240040 top captured payload
# tx t=012.132s 10264040#0000000000000000 note=native key-first-turn replay source 0x40 body status 0x132
# tx t=012.133s 102C0040#803C96B503 note=native key-first-turn replay wrapped 0x160 ignition/power mode from disconnected seed
# tx t=012.133s 102CA040#0000000000000F00 note=native key-first-turn replay source 0x40 body status 0x165
# tx t=012.133s 1022A040#00B00000000000 note=native key-first-turn replay source 0x40 body status 0x115
# tx t=012.133s 10788040#100A00000000 note=native key-first-turn replay source 0x40 body/HMI status 0x3C4
# tx t=012.147s 1022C040#00000000 note=native key-first-turn replay source 0x40 body status 0x116
# tx t=012.177s 102CC040#0800000000000000 note=native key-first-turn replay source 0x40 body status 0x166
# tx t=012.208s 102CE040#0700070000000000 note=native key-first-turn replay source 0x40 body status 0x167
# tx t=012.224s 10210040#0000800000008000 note=native key-first-turn replay source 0x40 body status 0x108
# tx t=012.224s 10220040#1000000040080000 note=native key-first-turn replay source 0x40 body status 0x110
# tx t=012.224s 1022E040#3000000030000000 note=native key-first-turn replay source 0x40 1022E040 captured state cycle variant 3/4
# tx t=012.224s 10230040#2000000020000000 note=native key-first-turn replay source 0x40 10230040 captured state cycle variant 3/4
# tx t=012.224s 10240040#83FF880100D80FFD note=native key-first-turn replay source 0x40 10240040 top captured payload
# tx t=012.225s 10264040#0000000000000000 note=native key-first-turn replay source 0x40 body status 0x132
# tx t=012.225s 102C0040#803C96B503 note=native key-first-turn replay wrapped 0x160 ignition/power mode from disconnected seed
# tx t=012.225s 102CA040#0000000000000F00 note=native key-first-turn replay source 0x40 body status 0x165
# tx t=012.225s 10780040#0000000000000000 note=native key-first-turn replay source 0x40 body/HMI status 0x3C0
# tx t=012.255s 106B8040#0000000000000000 note=native key-first-turn replay source 0x40 body/HMI status 0x35C
# tx t=012.255s 10800040#000000000000 note=native key-first-turn replay source 0x40 body/HMI status 0x400
# tx t=012.271s 10806040#0000000000 note=native key-first-turn replay source 0x40 body/HMI status 0x403
# tx t=012.334s 10210040#0000800000008000 note=native key-first-turn replay source 0x40 body status 0x108
# tx t=012.334s 10220040#1000000040080000 note=native key-first-turn replay source 0x40 body status 0x110
# tx t=012.334s 1022E040#0000000000000000 note=native key-first-turn replay source 0x40 1022E040 captured state cycle variant 4/4
# tx t=012.334s 10230040#3000000030000000 note=native key-first-turn replay source 0x40 10230040 captured state cycle variant 4/4
# tx t=012.334s 10240040#83FF880100D80FFD note=native key-first-turn replay source 0x40 10240040 top captured payload
# tx t=012.334s 10264040#0000000000000000 note=native key-first-turn replay source 0x40 body status 0x132
# tx t=012.335s 102C0040#803C96B503 note=native key-first-turn replay wrapped 0x160 ignition/power mode from disconnected seed
# tx t=012.335s 102CA040#0000000000000F00 note=native key-first-turn replay source 0x40 body status 0x165
# tx t=012.381s 1022A040#00B00000000000 note=native key-first-turn replay source 0x40 body status 0x115
# tx t=012.396s 1022C040#00000000 note=native key-first-turn replay source 0x40 body status 0x116
# tx t=012.428s 10210040#0000800000008000 note=native key-first-turn replay source 0x40 body status 0x108
# tx t=012.429s 10220040#1000000040080000 note=native key-first-turn replay source 0x40 body status 0x110
# tx t=012.429s 1022E040#1000000010000000 note=native key-first-turn replay source 0x40 1022E040 captured state cycle variant 1/4
# tx t=012.429s 10230040#0000000000000000 note=native key-first-turn replay source 0x40 10230040 captured state cycle variant 1/4
# tx t=012.429s 10240040#83FF880100D80FFD note=native key-first-turn replay source 0x40 10240040 top captured payload
# tx t=012.429s 10264040#0000000000000000 note=native key-first-turn replay source 0x40 body status 0x132
# tx t=012.429s 102C0040#803C96B503 note=native key-first-turn replay wrapped 0x160 ignition/power mode from disconnected seed
# tx t=012.429s 102CA040#0000000000000F00 note=native key-first-turn replay source 0x40 body status 0x165
# tx t=012.430s 102CC040#0800000000000000 note=native key-first-turn replay source 0x40 body status 0x166
# tx t=012.430s 10754040#040400 note=native key-first-turn replay key-present/key-on context
# tx t=012.460s 106B8040#0000000000000000 note=native key-first-turn replay source 0x40 body/HMI status 0x35C
# tx t=012.460s 102CE040#0700070000000000 note=native key-first-turn replay source 0x40 body status 0x167
# tx t=012.475s 10780040#0000000000000000 note=native key-first-turn replay source 0x40 body/HMI status 0x3C0
# tx t=012.507s 10800040#000000000000 note=native key-first-turn replay source 0x40 body/HMI status 0x400
# tx t=012.523s 10210040#0000800000008000 note=native key-first-turn replay source 0x40 body status 0x108
# tx t=012.524s 10220040#1000000040080000 note=native key-first-turn replay source 0x40 body status 0x110
# tx t=012.524s 1022E040#2000000020000000 note=native key-first-turn replay source 0x40 1022E040 captured state cycle variant 2/4
# tx t=012.524s 10230040#1000000010000000 note=native key-first-turn replay source 0x40 10230040 captured state cycle variant 2/4
# tx t=012.524s 10240040#83FF880100D80FFD note=native key-first-turn replay source 0x40 10240040 top captured payload
# tx t=012.524s 10264040#0000000000000000 note=native key-first-turn replay source 0x40 body status 0x132
# tx t=012.524s 102C0040#803C96B503 note=native key-first-turn replay wrapped 0x160 ignition/power mode from disconnected seed
# tx t=012.525s 102CA040#0000000000000F00 note=native key-first-turn replay source 0x40 body status 0x165
# tx t=012.525s 10248040#00005DA6A300 note=native key-first-turn replay source 0x40 dynamic body/DIC status 0x124
# tx t=012.571s 102D0040#0000000000000000 note=native key-first-turn replay source 0x40 body status 0x168
# tx t=012.635s 10210040#0000800000008000 note=native key-first-turn replay source 0x40 body status 0x108
# tx t=012.635s 10220040#1000000040080000 note=native key-first-turn replay source 0x40 body status 0x110
# tx t=012.636s 1022E040#3000000030000000 note=native key-first-turn replay source 0x40 1022E040 captured state cycle variant 3/4
