# cantool TX/RX capture bitrate=33333.333 fclk=170000000 brp=255 prop=1 phase1=13 phase2=5 sjw=4
# tx t=144.777s 100# note=native Corsa E SWCAN wake pulse
# tx t=144.777s 13FFE040# note=native fake BCM/source 0x40 presence seed
# tx t=144.777s 621#0140000000000000 note=native network-management startup/init seed
# tx t=144.778s 10210040#0000800000008000 note=native BCM/body base status from IPC_disconnected capture
# tx t=144.778s 10264040#0000000000000000 note=native BCM/body base zero-status frame
# tx t=144.778s 102CA040#0000000000000F00 note=native BCM/body base 102CA040 context
# tx t=144.778s 10220040#1000000040080000 note=native BCM/body 10220040 key-on variant
# tx t=144.778s 10230040#0000000000000000 note=native BCM/body 10230040 captured counter/state cycle variant 1/4
# tx t=144.779s 1022E040#1000000010000000 note=native BCM/body 1022E040 key-on counter/state cycle variant 1/3
# tx t=144.779s 10240040#83FE880100D70FFD note=native BCM/body 10240040 key-on/second-turn variant
# tx t=144.779s 102C0040#803C96B503 note=native BCM/body 102C0040 key-on captured context
# tx t=144.779s 10754040#040400 note=native key/body context immediate key-on hold variant
# tx t=144.779s 10242040#02 note=native 10242040 immediate second-turn/key-on hold state
(1780160192.576000) can0 100#
(1780160192.576000) can0 13FFE040#
(1780160192.576000) can0 621#0140000000000000
(1780160192.576000) can0 10210040#0000800000008000
(1780160192.577000) can0 10264040#0000000000000000
(1780160192.581000) can0 102CA040#0000000000000F00
(1780160192.585000) can0 10220040#1000000040080000
(1780160192.604000) can0 10230040#0000000000000000
(1780160192.604000) can0 1022E040#1000000010000000
(1780160192.605000) can0 10240040#83FE880100D70FFD
(1780160192.605000) can0 102C0040#803C96B503
(1780160192.607000) can0 10754040#040400
(1780160192.611000) can0 10242040#02
(1780160192.617000) can0 103BC060#00
(1780160192.619000) can0 10244060#02
(1780160192.622000) can0 103D6060#00
(1780160192.624000) can0 103DA060#00
(1780160192.627000) can0 10448060#00
(1780160192.629000) can0 1045C060#40
(1780160192.651000) can0 10774060#00
(1780160192.651000) can0 10812060#00
(1780160192.652000) can0 1084A060#00
(1780160192.652000) can0 10A04060#00
(1780160192.652000) can0 10ACE060#1E00200000000000
(1780160192.653000) can0 10AE8060#030E010104050000
(1780160192.657000) can0 13FFE060#
# tx t=144.887s 621#0052000000000000 note=native key-on network-management seed
# tx t=144.887s 10210040#0000800000008000 note=native BCM/body base status from IPC_disconnected capture
(1780160192.684000) can0 10AE8060#0016010800000000
(1780160192.684000) can0 621#0052000000000000
(1780160192.684000) can0 10210040#0000800000008000
(1780160192.714000) can0 62C#0112000000000000
(1780160192.714000) can0 13FFE060#
(1780160192.715000) can0 10AE8060#030E010104050000
(1780160192.726000) can0 10244060#02
(1780160192.729000) can0 103BC060#00
(1780160192.737000) can0 1045C060#40
(1780160192.741000) can0 10AE8060#0016010800000000
(1780160192.760000) can0 103D6060#00
(1780160192.760000) can0 103DA060#00
(1780160192.760000) can0 10424060#079964
(1780160192.760000) can0 10812060#00
(1780160192.761000) can0 1084A060#00
(1780160192.761000) can0 10ACE060#2B00000000000000
# tx t=144.980s 10210040#0000800000008000 note=native BCM/body base status from IPC_disconnected capture
(1780160192.776000) can0 10210040#0000800000008000
# tx t=145.028s 10230040#1000000010000000 note=native BCM/body 10230040 captured counter/state cycle variant 2/4
# tx t=145.028s 1022E040#2000000020000000 note=native BCM/body 1022E040 key-on counter/state cycle variant 2/3
# tx t=145.028s 13FFE080# note=radio/source 0x80 companion presence during TPMS OK/dismiss probe
(1780160192.824000) can0 10230040#1000000010000000
(1780160192.824000) can0 1022E040#2000000020000000
(1780160192.825000) can0 13FFE080#
(1780160192.837000) can0 10244060#02
(1780160192.868000) can0 10ACE060#1E00200000000000
# tx t=145.091s 10210040#0000800000008000 note=native BCM/body base status from IPC_disconnected capture
(1780160192.887000) can0 10210040#0000800000008000
# tx t=145.139s 13FFE058# note=SDM/source 0x58 companion presence during TPMS OK/dismiss probe
(1780160192.935000) can0 13FFE058#
(1780160192.946000) can0 10244060#02
(1780160192.978000) can0 10ACE060#2B00000000000000
# tx t=145.187s 10210040#0000800000008000 note=native BCM/body base status from IPC_disconnected capture
(1780160192.983000) can0 10210040#0000800000008000
(1780160192.998000) can0 10AFC060#38FFFFFFFFFFFF2B
# tx t=145.282s 10210040#0000800000008000 note=native BCM/body base status from IPC_disconnected capture
# tx t=145.282s 10230040#2000000020000000 note=native BCM/body 10230040 captured counter/state cycle variant 3/4
# tx t=145.283s 1022E040#3000000030000000 note=native BCM/body 1022E040 key-on counter/state cycle variant 3/3
(1780160193.079000) can0 10210040#0000800000008000
(1780160193.079000) can0 10230040#2000000020000000
(1780160193.079000) can0 1022E040#3000000030000000
# tx t=145.392s 10210040#0000800000008000 note=native BCM/body base status from IPC_disconnected capture
(1780160193.188000) can0 10210040#0000800000008000
# tx t=145.485s 10210040#0000800000008000 note=native BCM/body base status from IPC_disconnected capture
(1780160193.282000) can0 10210040#0000800000008000
# tx t=145.533s 10230040#3000000030000000 note=native BCM/body 10230040 captured counter/state cycle variant 4/4
# tx t=145.533s 1022E040#1000000010000000 note=native BCM/body 1022E040 key-on counter/state cycle variant 1/3
(1780160193.330000) can0 10230040#3000000030000000
(1780160193.330000) can0 1022E040#1000000010000000
# tx t=145.581s 10210040#0000800000008000 note=native BCM/body base status from IPC_disconnected capture
(1780160193.378000) can0 10210040#0000800000008000
# tx t=145.693s 10210040#0000800000008000 note=native BCM/body base status from IPC_disconnected capture
(1780160193.489000) can0 10210040#0000800000008000
# tx t=145.788s 621#0052000000000000 note=native key-on network-management context
# tx t=145.789s 10210040#0000800000008000 note=native BCM/body base status from IPC_disconnected capture
# tx t=145.789s 10264040#0000000000000000 note=native BCM/body base zero-status frame
# tx t=145.789s 102CA040#0000000000000F00 note=native BCM/body base 102CA040 context
# tx t=145.789s 10220040#1000000040080000 note=native BCM/body 10220040 key-on variant
# tx t=145.789s 10230040#0000000000000000 note=native BCM/body 10230040 captured counter/state cycle variant 1/4
# tx t=145.789s 1022E040#2000000020000000 note=native BCM/body 1022E040 key-on counter/state cycle variant 2/3
# tx t=145.790s 10240040#83FE880100D70FFD note=native BCM/body 10240040 key-on/second-turn variant
# tx t=145.790s 102C0040#803C96B503 note=native BCM/body 102C0040 key-on captured context
# tx t=145.790s 10754040#040400 note=native key/body context immediate key-on hold variant
# tx t=145.790s 10242040#02 note=native 10242040 immediate second-turn/key-on hold state
(1780160193.586000) can0 621#0052000000000000
(1780160193.586000) can0 10210040#0000800000008000
(1780160193.586000) can0 10264040#0000000000000000
(1780160193.588000) can0 102CA040#0000000000000F00
(1780160193.592000) can0 10220040#1000000040080000
(1780160193.597000) can0 10230040#0000000000000000
(1780160193.616000) can0 1022E040#2000000020000000
(1780160193.616000) can0 10240040#83FE880100D70FFD
(1780160193.616000) can0 102C0040#803C96B503
(1780160193.616000) can0 10754040#040400
(1780160193.619000) can0 10242040#02
# tx t=145.883s 10210040#0000800000008000 note=native BCM/body base status from IPC_disconnected capture
(1780160193.680000) can0 10210040#0000800000008000
# tx t=145.980s 13FFE040# note=native fake BCM/source 0x40 presence, captured-like cadence
# tx t=145.980s 10210040#0000800000008000 note=native BCM/body base status from IPC_disconnected capture
(1780160193.776000) can0 13FFE040#
(1780160193.776000) can0 10210040#0000800000008000
# tx t=146.028s 10230040#1000000010000000 note=native BCM/body 10230040 captured counter/state cycle variant 2/4
# tx t=146.028s 1022E040#3000000030000000 note=native BCM/body 1022E040 key-on counter/state cycle variant 3/3
(1780160193.824000) can0 10230040#1000000010000000
(1780160193.824000) can0 1022E040#3000000030000000
# tx t=146.092s 10210040#0000800000008000 note=native BCM/body base status from IPC_disconnected capture
(1780160193.888000) can0 10210040#0000800000008000
(1780160193.896000) can0 13FFE060#
# tx t=146.186s 10210040#0000800000008000 note=native BCM/body base status from IPC_disconnected capture
(1780160193.982000) can0 10210040#0000800000008000
# tx t=146.281s 10210040#0000800000008000 note=native BCM/body base status from IPC_disconnected capture
# tx t=146.281s 10230040#2000000020000000 note=native BCM/body 10230040 captured counter/state cycle variant 3/4
# tx t=146.281s 1022E040#1000000010000000 note=native BCM/body 1022E040 key-on counter/state cycle variant 1/3
(1780160194.078000) can0 10210040#0000800000008000
(1780160194.078000) can0 10230040#2000000020000000
(1780160194.078000) can0 1022E040#1000000010000000
# tx t=146.392s 10210040#0000800000008000 note=native BCM/body base status from IPC_disconnected capture
(1780160194.188000) can0 10210040#0000800000008000
# tx t=146.487s 10210040#0000800000008000 note=native BCM/body base status from IPC_disconnected capture
(1780160194.283000) can0 10210040#0000800000008000
# tx t=146.535s 10230040#3000000030000000 note=native BCM/body 10230040 captured counter/state cycle variant 4/4
# tx t=146.536s 1022E040#2000000020000000 note=native BCM/body 1022E040 key-on counter/state cycle variant 2/3
# tx t=146.536s 13FFE080# note=radio/source 0x80 companion presence during TPMS OK/dismiss probe
(1780160194.332000) can0 10230040#3000000030000000
(1780160194.332000) can0 1022E040#2000000020000000
(1780160194.332000) can0 13FFE080#
# tx t=146.583s 10210040#0000800000008000 note=native BCM/body base status from IPC_disconnected capture
(1780160194.381000) can0 10210040#0000800000008000
# tx t=146.678s 10210040#0000800000008000 note=native BCM/body base status from IPC_disconnected capture
(1780160194.481000) can0 10210040#0000800000008000
# tx t=146.790s 621#0052000000000000 note=native key-on network-management context
# tx t=146.790s 10210040#0000800000008000 note=native BCM/body base status from IPC_disconnected capture
# tx t=146.790s 10264040#0000000000000000 note=native BCM/body base zero-status frame
# tx t=146.791s 102CA040#0000000000000F00 note=native BCM/body base 102CA040 context
# tx t=146.791s 10220040#1000000040080000 note=native BCM/body 10220040 key-on variant
# tx t=146.791s 10230040#0000000000000000 note=native BCM/body 10230040 captured counter/state cycle variant 1/4
# tx t=146.791s 1022E040#3000000030000000 note=native BCM/body 1022E040 key-on counter/state cycle variant 3/3
# tx t=146.791s 10240040#83FE880100D70FFD note=native BCM/body 10240040 key-on/second-turn variant
# tx t=146.792s 102C0040#803C96B503 note=native BCM/body 102C0040 key-on captured context
# tx t=146.792s 10754040#040400 note=native key/body context immediate key-on hold variant
# tx t=146.792s 10242040#02 note=native 10242040 immediate second-turn/key-on hold state
(1780160194.588000) can0 621#0052000000000000
(1780160194.588000) can0 10210040#0000800000008000
(1780160194.588000) can0 10264040#0000000000000000
(1780160194.590000) can0 102CA040#0000000000000F00
(1780160194.594000) can0 10220040#1000000040080000
(1780160194.599000) can0 10230040#0000000000000000
(1780160194.617000) can0 1022E040#3000000030000000
(1780160194.617000) can0 10240040#83FE880100D70FFD
(1780160194.617000) can0 102C0040#803C96B503
(1780160194.618000) can0 10754040#040400
(1780160194.620000) can0 10242040#02
# tx t=146.836s 13FFE058# note=SDM/source 0x58 companion presence during TPMS OK/dismiss probe
(1780160194.633000) can0 13FFE058#
# tx t=146.883s 10210040#0000800000008000 note=native BCM/body base status from IPC_disconnected capture
(1780160194.679000) can0 10210040#0000800000008000
# tx t=146.978s 10210040#0000800000008000 note=native BCM/body base status from IPC_disconnected capture
(1780160194.774000) can0 10210040#0000800000008000
# tx t=147.042s 10230040#1000000010000000 note=native BCM/body 10230040 captured counter/state cycle variant 2/4
# tx t=147.042s 1022E040#1000000010000000 note=native BCM/body 1022E040 key-on counter/state cycle variant 1/3
(1780160194.838000) can0 10230040#1000000010000000
(1780160194.838000) can0 1022E040#1000000010000000
# tx t=147.090s 10210040#0000800000008000 note=native BCM/body base status from IPC_disconnected capture
(1780160194.886000) can0 10210040#0000800000008000
# tx t=147.186s 13FFE040# note=native fake BCM/source 0x40 presence, captured-like cadence
# tx t=147.186s 10210040#0000800000008000 note=native BCM/body base status from IPC_disconnected capture
(1780160194.982000) can0 13FFE040#
(1780160194.982000) can0 10210040#0000800000008000
# tx t=147.282s 10210040#0000800000008000 note=native BCM/body base status from IPC_disconnected capture
# tx t=147.282s 10230040#2000000020000000 note=native BCM/body 10230040 captured counter/state cycle variant 3/4
# tx t=147.282s 1022E040#2000000020000000 note=native BCM/body 1022E040 key-on counter/state cycle variant 2/3
(1780160195.079000) can0 10210040#0000800000008000
(1780160195.079000) can0 10230040#2000000020000000
(1780160195.079000) can0 1022E040#2000000020000000
(1780160195.110000) can0 13FFE060#
# tx t=147.378s 10210040#0000800000008000 note=native BCM/body base status from IPC_disconnected capture
(1780160195.174000) can0 10210040#0000800000008000
# tx t=147.487s 10210040#0000800000008000 note=native BCM/body base status from IPC_disconnected capture
(1780160195.283000) can0 10210040#0000800000008000
# tx t=147.534s 10230040#3000000030000000 note=native BCM/body 10230040 captured counter/state cycle variant 4/4
# tx t=147.534s 1022E040#3000000030000000 note=native BCM/body 1022E040 key-on counter/state cycle variant 3/3
(1780160195.330000) can0 10230040#3000000030000000
(1780160195.330000) can0 1022E040#3000000030000000
# tx t=147.581s 10210040#0000800000008000 note=native BCM/body base status from IPC_disconnected capture
(1780160195.378000) can0 10210040#0000800000008000
# tx t=147.691s 10210040#0000800000008000 note=native BCM/body base status from IPC_disconnected capture
(1780160195.488000) can0 10210040#0000800000008000
# tx t=147.785s 621#0052000000000000 note=native key-on network-management context
# tx t=147.786s 10210040#0000800000008000 note=native BCM/body base status from IPC_disconnected capture
# tx t=147.786s 10264040#0000000000000000 note=native BCM/body base zero-status frame
# tx t=147.786s 102CA040#0000000000000F00 note=native BCM/body base 102CA040 context
# tx t=147.786s 10220040#1000000040080000 note=native BCM/body 10220040 key-on variant
# tx t=147.786s 10230040#0000000000000000 note=native BCM/body 10230040 captured counter/state cycle variant 1/4
# tx t=147.786s 1022E040#1000000010000000 note=native BCM/body 1022E040 key-on counter/state cycle variant 1/3
# tx t=147.787s 10240040#83FE880100D70FFD note=native BCM/body 10240040 key-on/second-turn variant
# tx t=147.787s 102C0040#803C96B503 note=native BCM/body 102C0040 key-on captured context
# tx t=147.787s 10754040#040400 note=native key/body context immediate key-on hold variant
# tx t=147.787s 10242040#02 note=native 10242040 immediate second-turn/key-on hold state
# tx t=147.787s 10414040#00017B05 note=native lock/body key-on context one-shot captured variant
(1780160195.583000) can0 621#0052000000000000
(1780160195.584000) can0 10210040#0000800000008000
(1780160195.584000) can0 10264040#0000000000000000
(1780160195.585000) can0 102CA040#0000000000000F00
(1780160195.590000) can0 10220040#1000000040080000
(1780160195.594000) can0 10230040#0000000000000000
(1780160195.614000) can0 1022E040#1000000010000000
(1780160195.614000) can0 10240040#83FE880100D70FFD
(1780160195.614000) can0 102C0040#803C96B503
(1780160195.614000) can0 10754040#040400
(1780160195.616000) can0 10242040#02
(1780160195.619000) can0 10414040#00017B05
# tx t=147.880s 10210040#0000800000008000 note=native BCM/body base status from IPC_disconnected capture
(1780160195.677000) can0 10210040#0000800000008000
(1780160195.709000) can0 10600060#0160C020005B00
# tx t=147.992s 10210040#0000800000008000 note=native BCM/body base status from IPC_disconnected capture
(1780160195.788000) can0 10210040#0000800000008000
# tx t=148.039s 10230040#1000000010000000 note=native BCM/body 10230040 captured counter/state cycle variant 2/4
# tx t=148.039s 1022E040#2000000020000000 note=native BCM/body 1022E040 key-on counter/state cycle variant 2/3
# tx t=148.039s 13FFE080# note=radio/source 0x80 companion presence during TPMS OK/dismiss probe
(1780160195.835000) can0 10230040#1000000010000000
(1780160195.835000) can0 1022E040#2000000020000000
(1780160195.836000) can0 13FFE080#
# tx t=148.087s 10210040#0000800000008000 note=native BCM/body base status from IPC_disconnected capture
(1780160195.883000) can0 10210040#0000800000008000
# tx t=148.183s 10210040#0000800000008000 note=native BCM/body base status from IPC_disconnected capture
(1780160195.979000) can0 10210040#0000800000008000
# tx t=148.278s 10210040#0000800000008000 note=native BCM/body base status from IPC_disconnected capture
# tx t=148.278s 10230040#2000000020000000 note=native BCM/body 10230040 captured counter/state cycle variant 3/4
# tx t=148.278s 1022E040#3000000030000000 note=native BCM/body 1022E040 key-on counter/state cycle variant 3/3
(1780160196.075000) can0 10210040#0000800000008000
(1780160196.075000) can0 10230040#2000000020000000
(1780160196.075000) can0 1022E040#3000000030000000
# tx t=148.389s 13FFE040# note=native fake BCM/source 0x40 presence, captured-like cadence
# tx t=148.389s 10210040#0000800000008000 note=native BCM/body base status from IPC_disconnected capture
(1780160196.186000) can0 13FFE040#
(1780160196.186000) can0 10210040#0000800000008000
# tx t=148.484s 10210040#0000800000008000 note=native BCM/body base status from IPC_disconnected capture
(1780160196.281000) can0 10210040#0000800000008000
(1780160196.295000) can0 13FFE060#
# tx t=148.531s 10230040#3000000030000000 note=native BCM/body 10230040 captured counter/state cycle variant 4/4
# tx t=148.532s 1022E040#1000000010000000 note=native BCM/body 1022E040 key-on counter/state cycle variant 1/3
# tx t=148.532s 13FFE058# note=SDM/source 0x58 companion presence during TPMS OK/dismiss probe
(1780160196.328000) can0 10230040#3000000030000000
(1780160196.328000) can0 1022E040#1000000010000000
(1780160196.328000) can0 13FFE058#
# tx t=148.579s 10210040#0000800000008000 note=native BCM/body base status from IPC_disconnected capture
(1780160196.375000) can0 10210040#0000800000008000
# tx t=148.690s 10210040#0000800000008000 note=native BCM/body base status from IPC_disconnected capture
(1780160196.486000) can0 10210040#0000800000008000
# tx t=148.784s 621#0052000000000000 note=native key-on network-management context
# tx t=148.785s 10210040#0000800000008000 note=native BCM/body base status from IPC_disconnected capture
# tx t=148.785s 10264040#0000000000000000 note=native BCM/body base zero-status frame
# tx t=148.785s 102CA040#0000000000000F00 note=native BCM/body base 102CA040 context
# tx t=148.786s 10220040#1000000040080000 note=native BCM/body 10220040 key-on variant
# tx t=148.786s 10230040#0000000000000000 note=native BCM/body 10230040 captured counter/state cycle variant 1/4
# tx t=148.786s 1022E040#2000000020000000 note=native BCM/body 1022E040 key-on counter/state cycle variant 2/3
# tx t=148.786s 10240040#83FE880100D70FFD note=native BCM/body 10240040 key-on/second-turn variant
# tx t=148.786s 102C0040#803C96B503 note=native BCM/body 102C0040 key-on captured context
# tx t=148.786s 10754040#040400 note=native key/body context immediate key-on hold variant
# tx t=148.786s 10242040#02 note=native 10242040 immediate second-turn/key-on hold state
(1780160196.583000) can0 621#0052000000000000
(1780160196.583000) can0 10210040#0000800000008000
(1780160196.583000) can0 10264040#0000000000000000
(1780160196.584000) can0 102CA040#0000000000000F00
(1780160196.588000) can0 10220040#1000000040080000
(1780160196.592000) can0 10230040#0000000000000000
(1780160196.611000) can0 1022E040#2000000020000000
(1780160196.611000) can0 10240040#83FE880100D70FFD
(1780160196.611000) can0 102C0040#803C96B503
(1780160196.611000) can0 10754040#040400
(1780160196.614000) can0 10242040#02
# tx t=148.878s 10210040#0000800000008000 note=native BCM/body base status from IPC_disconnected capture
(1780160196.675000) can0 10210040#0000800000008000
# tx t=148.990s 10210040#0000800000008000 note=native BCM/body base status from IPC_disconnected capture
(1780160196.787000) can0 10210040#0000800000008000
# tx t=149.038s 10230040#1000000010000000 note=native BCM/body 10230040 captured counter/state cycle variant 2/4
# tx t=149.038s 1022E040#3000000030000000 note=native BCM/body 1022E040 key-on counter/state cycle variant 3/3
(1780160196.835000) can0 10230040#1000000010000000
(1780160196.835000) can0 1022E040#3000000030000000
# tx t=149.084s 10210040#0000800000008000 note=native BCM/body base status from IPC_disconnected capture
(1780160196.881000) can0 10210040#0000800000008000
# tx t=149.178s 10210040#0000800000008000 note=native BCM/body base status from IPC_disconnected capture
(1780160196.975000) can0 10210040#0000800000008000
# tx t=149.290s 10210040#0000800000008000 note=native BCM/body base status from IPC_disconnected capture
# tx t=149.290s 10230040#2000000020000000 note=native BCM/body 10230040 captured counter/state cycle variant 3/4
# tx t=149.290s 1022E040#1000000010000000 note=native BCM/body 1022E040 key-on counter/state cycle variant 1/3
(1780160197.087000) can0 10210040#0000800000008000
(1780160197.087000) can0 10230040#2000000020000000
(1780160197.087000) can0 1022E040#1000000010000000
# tx t=149.386s 10210040#0000800000008000 note=native BCM/body base status from IPC_disconnected capture
(1780160197.182000) can0 10210040#0000800000008000
# tx t=149.481s 10210040#0000800000008000 note=native BCM/body base status from IPC_disconnected capture
(1780160197.277000) can0 10210040#0000800000008000
# tx t=149.528s 10230040#3000000030000000 note=native BCM/body 10230040 captured counter/state cycle variant 4/4
# tx t=149.528s 1022E040#2000000020000000 note=native BCM/body 1022E040 key-on counter/state cycle variant 2/3
# tx t=149.528s 13FFE080# note=radio/source 0x80 companion presence during TPMS OK/dismiss probe
(1780160197.325000) can0 10230040#3000000030000000
(1780160197.325000) can0 1022E040#2000000020000000
(1780160197.325000) can0 13FFE080#
# tx t=149.591s 13FFE040# note=native fake BCM/source 0x40 presence, captured-like cadence
# tx t=149.592s 10210040#0000800000008000 note=native BCM/body base status from IPC_disconnected capture
(1780160197.388000) can0 13FFE040#
(1780160197.388000) can0 10210040#0000800000008000
# tx t=149.687s 10210040#0000800000008000 note=native BCM/body base status from IPC_disconnected capture
(1780160197.483000) can0 10210040#0000800000008000
(1780160197.494000) can0 13FFE060#
# tx t=149.782s 621#0052000000000000 note=native key-on network-management context
# tx t=149.783s 10210040#0000800000008000 note=native BCM/body base status from IPC_disconnected capture
# tx t=149.783s 10264040#0000000000000000 note=native BCM/body base zero-status frame
# tx t=149.783s 102CA040#0000000000000F00 note=native BCM/body base 102CA040 context
# tx t=149.783s 10220040#1000000040080000 note=native BCM/body 10220040 key-on variant
# tx t=149.783s 10230040#0000000000000000 note=native BCM/body 10230040 captured counter/state cycle variant 1/4
# tx t=149.783s 1022E040#3000000030000000 note=native BCM/body 1022E040 key-on counter/state cycle variant 3/3
# tx t=149.784s 10240040#83FE880100D70FFD note=native BCM/body 10240040 key-on/second-turn variant
# tx t=149.784s 102C0040#803C96B503 note=native BCM/body 102C0040 key-on captured context
# tx t=149.784s 10754040#040400 note=native key/body context immediate key-on hold variant
# tx t=149.784s 10242040#02 note=native 10242040 immediate second-turn/key-on hold state
# tx t=149.784s 10438040#03 note=TPMS dismiss HMI DLC-1 button candidate 0x03
(1780160197.580000) can0 621#0052000000000000
(1780160197.580000) can0 10210040#0000800000008000
(1780160197.581000) can0 10264040#0000000000000000
(1780160197.582000) can0 102CA040#0000000000000F00
(1780160197.587000) can0 10220040#1000000040080000
(1780160197.591000) can0 10230040#0000000000000000
(1780160197.611000) can0 1022E040#3000000030000000
(1780160197.611000) can0 10240040#83FE880100D70FFD
(1780160197.611000) can0 102C0040#803C96B503
(1780160197.611000) can0 10754040#040400
(1780160197.613000) can0 10242040#02
(1780160197.617000) can0 10438040#03
# tx t=149.877s 10210040#0000800000008000 note=native BCM/body base status from IPC_disconnected capture
(1780160197.673000) can0 10210040#0000800000008000
(1780160197.703000) can0 10244060#02
# tx t=149.923s 10438040#00 note=TPMS dismiss HMI DLC-1 release
(1780160197.720000) can0 10438040#00
# tx t=149.986s 10210040#0000800000008000 note=native BCM/body base status from IPC_disconnected capture
(1780160197.782000) can0 10210040#0000800000008000
# tx t=150.033s 10230040#1000000010000000 note=native BCM/body 10230040 captured counter/state cycle variant 2/4
# tx t=150.033s 1022E040#1000000010000000 note=native BCM/body 1022E040 key-on counter/state cycle variant 1/3
(1780160197.829000) can0 10230040#1000000010000000
(1780160197.829000) can0 1022E040#1000000010000000
# tx t=150.080s 10210040#0000800000008000 note=native BCM/body base status from IPC_disconnected capture
(1780160197.877000) can0 10210040#0000800000008000
# tx t=150.191s 10210040#0000800000008000 note=native BCM/body base status from IPC_disconnected capture
(1780160197.987000) can0 10210040#0000800000008000
# tx t=150.238s 13FFE058# note=SDM/source 0x58 companion presence during TPMS OK/dismiss probe
(1780160198.035000) can0 13FFE058#
# tx t=150.286s 10210040#0000800000008000 note=native BCM/body base status from IPC_disconnected capture
# tx t=150.286s 10230040#2000000020000000 note=native BCM/body 10230040 captured counter/state cycle variant 3/4
# tx t=150.287s 1022E040#2000000020000000 note=native BCM/body 1022E040 key-on counter/state cycle variant 2/3
(1780160198.083000) can0 10210040#0000800000008000
(1780160198.083000) can0 10230040#2000000020000000
(1780160198.083000) can0 1022E040#2000000020000000
# tx t=150.382s 10210040#0000800000008000 note=native BCM/body base status from IPC_disconnected capture
(1780160198.178000) can0 10210040#0000800000008000
# tx t=150.477s 10210040#0000800000008000 note=native BCM/body base status from IPC_disconnected capture
(1780160198.273000) can0 10210040#0000800000008000
# tx t=150.540s 10230040#3000000030000000 note=native BCM/body 10230040 captured counter/state cycle variant 4/4
# tx t=150.540s 1022E040#3000000030000000 note=native BCM/body 1022E040 key-on counter/state cycle variant 3/3
(1780160198.336000) can0 10230040#3000000030000000
(1780160198.336000) can0 1022E040#3000000030000000
# tx t=150.586s 10210040#0000800000008000 note=native BCM/body base status from IPC_disconnected capture
(1780160198.382000) can0 10210040#0000800000008000
# tx t=150.681s 10210040#0000800000008000 note=native BCM/body base status from IPC_disconnected capture
# tx t=150.681s 10438040#0300000000000000 note=TPMS dismiss HMI full-DLC button candidate 0x03
(1780160198.478000) can0 10210040#0000800000008000
(1780160198.478000) can0 10438040#0300000000000000
# tx t=150.792s 13FFE040# note=native fake BCM/source 0x40 presence, captured-like cadence
# tx t=150.792s 621#0052000000000000 note=native key-on network-management context
# tx t=150.792s 10210040#0000800000008000 note=native BCM/body base status from IPC_disconnected capture
# tx t=150.792s 10264040#0000000000000000 note=native BCM/body base zero-status frame
# tx t=150.792s 102CA040#0000000000000F00 note=native BCM/body base 102CA040 context
# tx t=150.792s 10220040#1000000040080000 note=native BCM/body 10220040 key-on variant
# tx t=150.792s 10230040#0000000000000000 note=native BCM/body 10230040 captured counter/state cycle variant 1/4
# tx t=150.793s 1022E040#1000000010000000 note=native BCM/body 1022E040 key-on counter/state cycle variant 1/3
# tx t=150.793s 10240040#83FE880100D70FFD note=native BCM/body 10240040 key-on/second-turn variant
# tx t=150.793s 102C0040#803C96B503 note=native BCM/body 102C0040 key-on captured context
# tx t=150.793s 10754040#040400 note=native key/body context immediate key-on hold variant
# tx t=150.793s 10242040#02 note=native 10242040 immediate second-turn/key-on hold state
(1780160198.589000) can0 13FFE040#
(1780160198.589000) can0 621#0052000000000000
(1780160198.589000) can0 10210040#0000800000008000
(1780160198.590000) can0 10264040#0000000000000000
(1780160198.594000) can0 102CA040#0000000000000F00
(1780160198.598000) can0 10220040#1000000040080000
(1780160198.602000) can0 10230040#0000000000000000
# tx t=150.824s 10438040#0000000000000000 note=TPMS dismiss HMI full-DLC release
(1780160198.620000) can0 1022E040#1000000010000000
(1780160198.620000) can0 10240040#83FE880100D70FFD
(1780160198.620000) can0 102C0040#803C96B503
(1780160198.621000) can0 10754040#040400
(1780160198.624000) can0 10242040#02
(1780160198.628000) can0 10438040#0000000000000000
# tx t=150.887s 10210040#0000800000008000 note=native BCM/body base status from IPC_disconnected capture
(1780160198.683000) can0 10210040#0000800000008000
(1780160198.693000) can0 13FFE060#
# tx t=150.982s 10210040#0000800000008000 note=native BCM/body base status from IPC_disconnected capture
(1780160198.778000) can0 10210040#0000800000008000
# tx t=151.030s 10230040#1000000010000000 note=native BCM/body 10230040 captured counter/state cycle variant 2/4
# tx t=151.030s 1022E040#2000000020000000 note=native BCM/body 1022E040 key-on counter/state cycle variant 2/3
# tx t=151.030s 13FFE080# note=radio/source 0x80 companion presence during TPMS OK/dismiss probe
(1780160198.827000) can0 10230040#1000000010000000
(1780160198.827000) can0 1022E040#2000000020000000
(1780160198.827000) can0 13FFE080#
# tx t=151.093s 10210040#0000800000008000 note=native BCM/body base status from IPC_disconnected capture
(1780160198.889000) can0 10210040#0000800000008000
# tx t=151.187s 10210040#0000800000008000 note=native BCM/body base status from IPC_disconnected capture
(1780160198.984000) can0 10210040#0000800000008000
# tx t=151.283s 10210040#0000800000008000 note=native BCM/body base status from IPC_disconnected capture
# tx t=151.283s 10230040#2000000020000000 note=native BCM/body 10230040 captured counter/state cycle variant 3/4
# tx t=151.283s 1022E040#3000000030000000 note=native BCM/body 1022E040 key-on counter/state cycle variant 3/3
(1780160199.079000) can0 10210040#0000800000008000
(1780160199.079000) can0 10230040#2000000020000000
(1780160199.080000) can0 1022E040#3000000030000000
# tx t=151.393s 10210040#0000800000008000 note=native BCM/body base status from IPC_disconnected capture
(1780160199.189000) can0 10210040#0000800000008000
# tx t=151.487s 10210040#0000800000008000 note=native BCM/body base status from IPC_disconnected capture
(1780160199.283000) can0 10210040#0000800000008000
# tx t=151.535s 10230040#3000000030000000 note=native BCM/body 10230040 captured counter/state cycle variant 4/4
# tx t=151.535s 1022E040#1000000010000000 note=native BCM/body 1022E040 key-on counter/state cycle variant 1/3
(1780160199.332000) can0 10230040#3000000030000000
(1780160199.332000) can0 1022E040#1000000010000000
# tx t=151.582s 10210040#0000800000008000 note=native BCM/body base status from IPC_disconnected capture
# tx t=151.583s 10438040#04 note=TPMS dismiss HMI DLC-1 button candidate 0x04
(1780160199.379000) can0 10210040#0000800000008000
(1780160199.379000) can0 10438040#04
# tx t=151.693s 10210040#0000800000008000 note=native BCM/body base status from IPC_disconnected capture
(1780160199.489000) can0 10210040#0000800000008000
# tx t=151.725s 10438040#00 note=TPMS dismiss HMI DLC-1 release
(1780160199.521000) can0 10438040#00
# tx t=151.787s 621#0052000000000000 note=native key-on network-management context
# tx t=151.788s 10210040#0000800000008000 note=native BCM/body base status from IPC_disconnected capture
# tx t=151.788s 10264040#0000000000000000 note=native BCM/body base zero-status frame
# tx t=151.788s 102CA040#0000000000000F00 note=native BCM/body base 102CA040 context
# tx t=151.788s 10220040#1000000040080000 note=native BCM/body 10220040 key-on variant
# tx t=151.788s 10230040#0000000000000000 note=native BCM/body 10230040 captured counter/state cycle variant 1/4
# tx t=151.788s 1022E040#2000000020000000 note=native BCM/body 1022E040 key-on counter/state cycle variant 2/3
# tx t=151.788s 10240040#83FE880100D70FFD note=native BCM/body 10240040 key-on/second-turn variant
# tx t=151.789s 102C0040#803C96B503 note=native BCM/body 102C0040 key-on captured context
# tx t=151.789s 10754040#040400 note=native key/body context immediate key-on hold variant
# tx t=151.789s 10242040#02 note=native 10242040 immediate second-turn/key-on hold state
(1780160199.585000) can0 621#0052000000000000
(1780160199.585000) can0 10210040#0000800000008000
(1780160199.585000) can0 10264040#0000000000000000
(1780160199.587000) can0 102CA040#0000000000000F00
(1780160199.592000) can0 10220040#1000000040080000
(1780160199.596000) can0 10230040#0000000000000000
(1780160199.615000) can0 1022E040#2000000020000000
(1780160199.616000) can0 10240040#83FE880100D70FFD
(1780160199.616000) can0 102C0040#803C96B503
(1780160199.616000) can0 10754040#040400
(1780160199.618000) can0 10242040#02
# tx t=151.883s 10210040#0000800000008000 note=native BCM/body base status from IPC_disconnected capture
(1780160199.680000) can0 10210040#0000800000008000
# tx t=151.932s 13FFE058# note=SDM/source 0x58 companion presence during TPMS OK/dismiss probe
(1780160199.728000) can0 13FFE058#
# tx t=151.980s 13FFE040# note=native fake BCM/source 0x40 presence, captured-like cadence
# tx t=151.980s 10210040#0000800000008000 note=native BCM/body base status from IPC_disconnected capture
(1780160199.776000) can0 13FFE040#
(1780160199.776000) can0 10210040#0000800000008000
# tx t=152.028s 10230040#1000000010000000 note=native BCM/body 10230040 captured counter/state cycle variant 2/4
# tx t=152.028s 1022E040#3000000030000000 note=native BCM/body 1022E040 key-on counter/state cycle variant 3/3
(1780160199.824000) can0 10230040#1000000010000000
(1780160199.824000) can0 1022E040#3000000030000000
# tx t=152.091s 10210040#0000800000008000 note=native BCM/body base status from IPC_disconnected capture
(1780160199.887000) can0 10210040#0000800000008000
(1780160199.893000) can0 13FFE060#
# tx t=152.186s 10210040#0000800000008000 note=native BCM/body base status from IPC_disconnected capture
(1780160199.983000) can0 10210040#0000800000008000
# tx t=152.280s 10210040#0000800000008000 note=native BCM/body base status from IPC_disconnected capture
# tx t=152.280s 10230040#2000000020000000 note=native BCM/body 10230040 captured counter/state cycle variant 3/4
# tx t=152.280s 1022E040#1000000010000000 note=native BCM/body 1022E040 key-on counter/state cycle variant 1/3
(1780160200.076000) can0 10210040#0000800000008000
(1780160200.077000) can0 10230040#2000000020000000
(1780160200.077000) can0 1022E040#1000000010000000
# tx t=152.391s 10210040#0000800000008000 note=native BCM/body base status from IPC_disconnected capture
(1780160200.188000) can0 10210040#0000800000008000
# tx t=152.486s 10210040#0000800000008000 note=native BCM/body base status from IPC_disconnected capture
# tx t=152.486s 10438040#0400000000000000 note=TPMS dismiss HMI full-DLC button candidate 0x04
(1780160200.282000) can0 10210040#0000800000008000
(1780160200.282000) can0 10438040#0400000000000000
# tx t=152.533s 10230040#3000000030000000 note=native BCM/body 10230040 captured counter/state cycle variant 4/4
# tx t=152.533s 1022E040#2000000020000000 note=native BCM/body 1022E040 key-on counter/state cycle variant 2/3
# tx t=152.533s 13FFE080# note=radio/source 0x80 companion presence during TPMS OK/dismiss probe
(1780160200.329000) can0 10230040#3000000030000000
(1780160200.330000) can0 1022E040#2000000020000000
(1780160200.330000) can0 13FFE080#
# tx t=152.581s 10210040#0000800000008000 note=native BCM/body base status from IPC_disconnected capture
(1780160200.377000) can0 10210040#0000800000008000
# tx t=152.629s 10438040#0000000000000000 note=TPMS dismiss HMI full-DLC release
(1780160200.425000) can0 10438040#0000000000000000
# tx t=152.692s 10210040#0000800000008000 note=native BCM/body base status from IPC_disconnected capture
(1780160200.488000) can0 10210040#0000800000008000
# tx t=152.787s 621#0052000000000000 note=native key-on network-management context
# tx t=152.788s 10210040#0000800000008000 note=native BCM/body base status from IPC_disconnected capture
# tx t=152.788s 10264040#0000000000000000 note=native BCM/body base zero-status frame
# tx t=152.788s 102CA040#0000000000000F00 note=native BCM/body base 102CA040 context
# tx t=152.788s 10220040#1000000040080000 note=native BCM/body 10220040 key-on variant
# tx t=152.788s 10230040#0000000000000000 note=native BCM/body 10230040 captured counter/state cycle variant 1/4
# tx t=152.788s 1022E040#3000000030000000 note=native BCM/body 1022E040 key-on counter/state cycle variant 3/3
# tx t=152.788s 10240040#83FE880100D70FFD note=native BCM/body 10240040 key-on/second-turn variant
# tx t=152.789s 102C0040#803C96B503 note=native BCM/body 102C0040 key-on captured context
# tx t=152.789s 10754040#040400 note=native key/body context immediate key-on hold variant
# tx t=152.789s 10242040#02 note=native 10242040 immediate second-turn/key-on hold state
(1780160200.585000) can0 621#0052000000000000
(1780160200.585000) can0 10210040#0000800000008000
(1780160200.585000) can0 10264040#0000000000000000
(1780160200.587000) can0 102CA040#0000000000000F00
(1780160200.592000) can0 10220040#1000000040080000
(1780160200.596000) can0 10230040#0000000000000000
(1780160200.614000) can0 1022E040#3000000030000000
(1780160200.615000) can0 10240040#83FE880100D70FFD
(1780160200.615000) can0 102C0040#803C96B503
(1780160200.615000) can0 10754040#040400
(1780160200.618000) can0 10242040#02
# tx t=152.882s 10210040#0000800000008000 note=native BCM/body base status from IPC_disconnected capture
(1780160200.678000) can0 10210040#0000800000008000
# tx t=152.993s 10210040#0000800000008000 note=native BCM/body base status from IPC_disconnected capture
(1780160200.790000) can0 10210040#0000800000008000
# tx t=153.041s 10230040#1000000010000000 note=native BCM/body 10230040 captured counter/state cycle variant 2/4
# tx t=153.042s 1022E040#1000000010000000 note=native BCM/body 1022E040 key-on counter/state cycle variant 1/3
(1780160200.838000) can0 10230040#1000000010000000
(1780160200.838000) can0 1022E040#1000000010000000
# tx t=153.087s 10210040#0000800000008000 note=native BCM/body base status from IPC_disconnected capture
(1780160200.884000) can0 10210040#0000800000008000
# tx t=153.182s 13FFE040# note=native fake BCM/source 0x40 presence, captured-like cadence
# tx t=153.182s 10210040#0000800000008000 note=native BCM/body base status from IPC_disconnected capture
(1780160200.979000) can0 13FFE040#
(1780160200.979000) can0 10210040#0000800000008000
# tx t=153.290s 10210040#0000800000008000 note=native BCM/body base status from IPC_disconnected capture
# tx t=153.290s 10230040#2000000020000000 note=native BCM/body 10230040 captured counter/state cycle variant 3/4
# tx t=153.291s 1022E040#2000000020000000 note=native BCM/body 1022E040 key-on counter/state cycle variant 2/3
(1780160201.087000) can0 10210040#0000800000008000
(1780160201.087000) can0 10230040#2000000020000000
(1780160201.087000) can0 1022E040#2000000020000000
(1780160201.102000) can0 13FFE060#
# tx t=153.385s 10210040#0000800000008000 note=native BCM/body base status from IPC_disconnected capture
# tx t=153.385s 10438040#05 note=TPMS dismiss HMI DLC-1 button candidate 0x05
(1780160201.182000) can0 10210040#0000800000008000
(1780160201.182000) can0 10438040#05
# tx t=153.480s 10210040#0000800000008000 note=native BCM/body base status from IPC_disconnected capture
(1780160201.277000) can0 10210040#0000800000008000
# tx t=153.528s 10230040#3000000030000000 note=native BCM/body 10230040 captured counter/state cycle variant 4/4
# tx t=153.529s 1022E040#3000000030000000 note=native BCM/body 1022E040 key-on counter/state cycle variant 3/3
# tx t=153.529s 10438040#00 note=TPMS dismiss HMI DLC-1 release
(1780160201.325000) can0 10230040#3000000030000000
(1780160201.325000) can0 1022E040#3000000030000000
(1780160201.325000) can0 10438040#00
# tx t=153.592s 10210040#0000800000008000 note=native BCM/body base status from IPC_disconnected capture
(1780160201.388000) can0 10210040#0000800000008000
# tx t=153.639s 13FFE058# note=SDM/source 0x58 companion presence during TPMS OK/dismiss probe
(1780160201.436000) can0 13FFE058#
# tx t=153.688s 10210040#0000800000008000 note=native BCM/body base status from IPC_disconnected capture
(1780160201.484000) can0 10210040#0000800000008000
# tx t=153.783s 621#0052000000000000 note=native key-on network-management context
# tx t=153.783s 10210040#0000800000008000 note=native BCM/body base status from IPC_disconnected capture
# tx t=153.783s 10264040#0000000000000000 note=native BCM/body base zero-status frame
# tx t=153.783s 102CA040#0000000000000F00 note=native BCM/body base 102CA040 context
# tx t=153.783s 10220040#1000000040080000 note=native BCM/body 10220040 key-on variant
# tx t=153.783s 10230040#0000000000000000 note=native BCM/body 10230040 captured counter/state cycle variant 1/4
# tx t=153.784s 1022E040#1000000010000000 note=native BCM/body 1022E040 key-on counter/state cycle variant 1/3
# tx t=153.784s 10240040#83FE880100D70FFD note=native BCM/body 10240040 key-on/second-turn variant
# tx t=153.784s 102C0040#803C96B503 note=native BCM/body 102C0040 key-on captured context
# tx t=153.784s 10754040#040400 note=native key/body context immediate key-on hold variant
# tx t=153.784s 10242040#02 note=native 10242040 immediate second-turn/key-on hold state
(1780160201.580000) can0 621#0052000000000000
(1780160201.581000) can0 10210040#0000800000008000
(1780160201.581000) can0 10264040#0000000000000000
(1780160201.583000) can0 102CA040#0000000000000F00
(1780160201.587000) can0 10220040#1000000040080000
(1780160201.591000) can0 10230040#0000000000000000
(1780160201.611000) can0 1022E040#1000000010000000
(1780160201.611000) can0 10240040#83FE880100D70FFD
(1780160201.612000) can0 102C0040#803C96B503
(1780160201.612000) can0 10754040#040400
(1780160201.613000) can0 10242040#02
# tx t=153.878s 10210040#0000800000008000 note=native BCM/body base status from IPC_disconnected capture
(1780160201.675000) can0 10210040#0000800000008000
# tx t=153.991s 10210040#0000800000008000 note=native BCM/body base status from IPC_disconnected capture
(1780160201.787000) can0 10210040#0000800000008000
# tx t=154.039s 10230040#1000000010000000 note=native BCM/body 10230040 captured counter/state cycle variant 2/4
# tx t=154.039s 1022E040#2000000020000000 note=native BCM/body 1022E040 key-on counter/state cycle variant 2/3
# tx t=154.039s 13FFE080# note=radio/source 0x80 companion presence during TPMS OK/dismiss probe
(1780160201.835000) can0 10230040#1000000010000000
(1780160201.836000) can0 1022E040#2000000020000000
(1780160201.836000) can0 13FFE080#
# tx t=154.087s 10210040#0000800000008000 note=native BCM/body base status from IPC_disconnected capture
(1780160201.883000) can0 10210040#0000800000008000
# tx t=154.181s 10210040#0000800000008000 note=native BCM/body base status from IPC_disconnected capture
(1780160201.977000) can0 10210040#0000800000008000
# tx t=154.292s 10210040#0000800000008000 note=native BCM/body base status from IPC_disconnected capture
# tx t=154.292s 10230040#2000000020000000 note=native BCM/body 10230040 captured counter/state cycle variant 3/4
# tx t=154.292s 1022E040#3000000030000000 note=native BCM/body 1022E040 key-on counter/state cycle variant 3/3
# tx t=154.292s 10438040#0500000000000000 note=TPMS dismiss HMI full-DLC button candidate 0x05
(1780160202.089000) can0 10210040#0000800000008000
(1780160202.089000) can0 10230040#2000000020000000
(1780160202.089000) can0 1022E040#3000000030000000
(1780160202.092000) can0 10438040#0500000000000000
# tx t=154.386s 13FFE040# note=native fake BCM/source 0x40 presence, captured-like cadence
# tx t=154.387s 10210040#0000800000008000 note=native BCM/body base status from IPC_disconnected capture
(1780160202.183000) can0 13FFE040#
(1780160202.183000) can0 10210040#0000800000008000
# tx t=154.417s 10438040#0000000000000000 note=TPMS dismiss HMI full-DLC release
(1780160202.214000) can0 10438040#0000000000000000
# tx t=154.480s 10210040#0000800000008000 note=native BCM/body base status from IPC_disconnected capture
(1780160202.276000) can0 10210040#0000800000008000
(1780160202.307000) can0 13FFE060#
# tx t=154.542s 10230040#3000000030000000 note=native BCM/body 10230040 captured counter/state cycle variant 4/4
# tx t=154.543s 1022E040#1000000010000000 note=native BCM/body 1022E040 key-on counter/state cycle variant 1/3
(1780160202.339000) can0 10230040#3000000030000000
(1780160202.339000) can0 1022E040#1000000010000000
# tx t=154.590s 10210040#0000800000008000 note=native BCM/body base status from IPC_disconnected capture
(1780160202.387000) can0 10210040#0000800000008000
# tx t=154.686s 10210040#0000800000008000 note=native BCM/body base status from IPC_disconnected capture
(1780160202.482000) can0 10210040#0000800000008000
# tx t=154.780s 621#0052000000000000 note=native key-on network-management context
# tx t=154.781s 10210040#0000800000008000 note=native BCM/body base status from IPC_disconnected capture
# tx t=154.781s 10264040#0000000000000000 note=native BCM/body base zero-status frame
# tx t=154.781s 102CA040#0000000000000F00 note=native BCM/body base 102CA040 context
# tx t=154.781s 10220040#1000000040080000 note=native BCM/body 10220040 key-on variant
# tx t=154.781s 10230040#0000000000000000 note=native BCM/body 10230040 captured counter/state cycle variant 1/4
# tx t=154.782s 1022E040#2000000020000000 note=native BCM/body 1022E040 key-on counter/state cycle variant 2/3
# tx t=154.782s 10240040#83FE880100D70FFD note=native BCM/body 10240040 key-on/second-turn variant
# tx t=154.782s 102C0040#803C96B503 note=native BCM/body 102C0040 key-on captured context
# tx t=154.782s 10754040#040400 note=native key/body context immediate key-on hold variant
# tx t=154.782s 10242040#02 note=native 10242040 immediate second-turn/key-on hold state
(1780160202.578000) can0 621#0052000000000000
(1780160202.579000) can0 10210040#0000800000008000
(1780160202.579000) can0 10264040#0000000000000000
(1780160202.580000) can0 102CA040#0000000000000F00
(1780160202.585000) can0 10220040#1000000040080000
(1780160202.589000) can0 10230040#0000000000000000
(1780160202.608000) can0 1022E040#2000000020000000
(1780160202.608000) can0 10240040#83FE880100D70FFD
(1780160202.608000) can0 102C0040#803C96B503
(1780160202.608000) can0 10754040#040400
(1780160202.611000) can0 10242040#02
# tx t=154.891s 10210040#0000800000008000 note=native BCM/body base status from IPC_disconnected capture
(1780160202.687000) can0 10210040#0000800000008000
(1780160202.694000) can0 10244060#02
# tx t=154.986s 10210040#0000800000008000 note=native BCM/body base status from IPC_disconnected capture
(1780160202.783000) can0 10210040#0000800000008000
# tx t=155.034s 10230040#1000000010000000 note=native BCM/body 10230040 captured counter/state cycle variant 2/4
# tx t=155.035s 1022E040#3000000030000000 note=native BCM/body 1022E040 key-on counter/state cycle variant 3/3
(1780160202.831000) can0 10230040#1000000010000000
(1780160202.831000) can0 1022E040#3000000030000000
# tx t=155.082s 10210040#0000800000008000 note=native BCM/body base status from IPC_disconnected capture
(1780160202.878000) can0 10210040#0000800000008000
# tx t=155.177s 10210040#0000800000008000 note=native BCM/body base status from IPC_disconnected capture
# tx t=155.178s 10438040#06 note=TPMS dismiss HMI DLC-1 button candidate 0x06
(1780160202.974000) can0 10210040#0000800000008000
(1780160202.974000) can0 10438040#06
# tx t=155.288s 10210040#0000800000008000 note=native BCM/body base status from IPC_disconnected capture
# tx t=155.288s 10230040#2000000020000000 note=native BCM/body 10230040 captured counter/state cycle variant 3/4
# tx t=155.288s 1022E040#1000000010000000 note=native BCM/body 1022E040 key-on counter/state cycle variant 1/3
(1780160203.085000) can0 10210040#0000800000008000
(1780160203.085000) can0 10230040#2000000020000000
(1780160203.085000) can0 1022E040#1000000010000000
# tx t=155.320s 10438040#00 note=TPMS dismiss HMI DLC-1 release
(1780160203.116000) can0 10438040#00
# tx t=155.336s 13FFE058# note=SDM/source 0x58 companion presence during TPMS OK/dismiss probe
(1780160203.132000) can0 13FFE058#
# tx t=155.384s 10210040#0000800000008000 note=native BCM/body base status from IPC_disconnected capture
(1780160203.180000) can0 10210040#0000800000008000
# tx t=155.479s 10210040#0000800000008000 note=native BCM/body base status from IPC_disconnected capture
(1780160203.275000) can0 10210040#0000800000008000
# tx t=155.527s 10230040#3000000030000000 note=native BCM/body 10230040 captured counter/state cycle variant 4/4
# tx t=155.527s 1022E040#2000000020000000 note=native BCM/body 1022E040 key-on counter/state cycle variant 2/3
# tx t=155.528s 13FFE080# note=radio/source 0x80 companion presence during TPMS OK/dismiss probe
(1780160203.324000) can0 10230040#3000000030000000
(1780160203.324000) can0 1022E040#2000000020000000
(1780160203.324000) can0 13FFE080#
# tx t=155.590s 13FFE040# note=native fake BCM/source 0x40 presence, captured-like cadence
# tx t=155.590s 10210040#0000800000008000 note=native BCM/body base status from IPC_disconnected capture
(1780160203.387000) can0 13FFE040#
(1780160203.387000) can0 10210040#0000800000008000
# tx t=155.686s 10210040#0000800000008000 note=native BCM/body base status from IPC_disconnected capture
(1780160203.483000) can0 10210040#0000800000008000
(1780160203.491000) can0 13FFE060#
# tx t=155.782s 621#0052000000000000 note=native key-on network-management context
# tx t=155.782s 10210040#0000800000008000 note=native BCM/body base status from IPC_disconnected capture
# tx t=155.783s 10264040#0000000000000000 note=native BCM/body base zero-status frame
# tx t=155.783s 102CA040#0000000000000F00 note=native BCM/body base 102CA040 context
# tx t=155.783s 10220040#1000000040080000 note=native BCM/body 10220040 key-on variant
# tx t=155.783s 10230040#0000000000000000 note=native BCM/body 10230040 captured counter/state cycle variant 1/4
# tx t=155.783s 1022E040#3000000030000000 note=native BCM/body 1022E040 key-on counter/state cycle variant 3/3
# tx t=155.783s 10240040#83FE880100D70FFD note=native BCM/body 10240040 key-on/second-turn variant
# tx t=155.783s 102C0040#803C96B503 note=native BCM/body 102C0040 key-on captured context
# tx t=155.784s 10754040#040400 note=native key/body context immediate key-on hold variant
# tx t=155.784s 10242040#02 note=native 10242040 immediate second-turn/key-on hold state
(1780160203.580000) can0 621#0052000000000000
(1780160203.580000) can0 10210040#0000800000008000
(1780160203.580000) can0 10264040#0000000000000000
(1780160203.582000) can0 102CA040#0000000000000F00
(1780160203.586000) can0 10220040#1000000040080000
(1780160203.591000) can0 10230040#0000000000000000
(1780160203.610000) can0 1022E040#3000000030000000
(1780160203.611000) can0 10240040#83FE880100D70FFD
(1780160203.611000) can0 102C0040#803C96B503
(1780160203.611000) can0 10754040#040400
(1780160203.613000) can0 10242040#02
# tx t=155.877s 10210040#0000800000008000 note=native BCM/body base status from IPC_disconnected capture
(1780160203.674000) can0 10210040#0000800000008000
# tx t=155.988s 10210040#0000800000008000 note=native BCM/body base status from IPC_disconnected capture
(1780160203.784000) can0 10210040#0000800000008000
# tx t=156.036s 10230040#1000000010000000 note=native BCM/body 10230040 captured counter/state cycle variant 2/4
# tx t=156.036s 1022E040#1000000010000000 note=native BCM/body 1022E040 key-on counter/state cycle variant 1/3
(1780160203.833000) can0 10230040#1000000010000000
(1780160203.833000) can0 1022E040#1000000010000000
# tx t=156.084s 10210040#0000800000008000 note=native BCM/body base status from IPC_disconnected capture
# tx t=156.084s 10438040#0600000000000000 note=TPMS dismiss HMI full-DLC button candidate 0x06
(1780160203.880000) can0 10210040#0000800000008000
(1780160203.880000) can0 10438040#0600000000000000
# tx t=156.179s 10210040#0000800000008000 note=native BCM/body base status from IPC_disconnected capture
(1780160203.975000) can0 10210040#0000800000008000
# tx t=156.227s 10438040#0000000000000000 note=TPMS dismiss HMI full-DLC release
(1780160204.023000) can0 10438040#0000000000000000
# tx t=156.289s 10210040#0000800000008000 note=native BCM/body base status from IPC_disconnected capture
# tx t=156.290s 10230040#2000000020000000 note=native BCM/body 10230040 captured counter/state cycle variant 3/4
# tx t=156.290s 1022E040#2000000020000000 note=native BCM/body 1022E040 key-on counter/state cycle variant 2/3
(1780160204.086000) can0 10210040#0000800000008000
(1780160204.086000) can0 10230040#2000000020000000
(1780160204.086000) can0 1022E040#2000000020000000
# tx t=156.384s 10210040#0000800000008000 note=native BCM/body base status from IPC_disconnected capture
(1780160204.180000) can0 10210040#0000800000008000
# tx t=156.478s 10210040#0000800000008000 note=native BCM/body base status from IPC_disconnected capture
(1780160204.274000) can0 10210040#0000800000008000
# tx t=156.542s 10230040#3000000030000000 note=native BCM/body 10230040 captured counter/state cycle variant 4/4
# tx t=156.542s 1022E040#3000000030000000 note=native BCM/body 1022E040 key-on counter/state cycle variant 3/3
(1780160204.338000) can0 10230040#3000000030000000
(1780160204.338000) can0 1022E040#3000000030000000
# tx t=156.590s 10210040#0000800000008000 note=native BCM/body base status from IPC_disconnected capture
(1780160204.386000) can0 10210040#0000800000008000
# tx t=156.685s 10210040#0000800000008000 note=native BCM/body base status from IPC_disconnected capture
(1780160204.481000) can0 10210040#0000800000008000
# tx t=156.781s 13FFE040# note=native fake BCM/source 0x40 presence, captured-like cadence
# tx t=156.781s 621#0052000000000000 note=native key-on network-management context
# tx t=156.781s 10210040#0000800000008000 note=native BCM/body base status from IPC_disconnected capture
# tx t=156.781s 10264040#0000000000000000 note=native BCM/body base zero-status frame
# tx t=156.781s 102CA040#0000000000000F00 note=native BCM/body base 102CA040 context
# tx t=156.781s 10220040#1000000040080000 note=native BCM/body 10220040 key-on variant
# tx t=156.781s 10230040#0000000000000000 note=native BCM/body 10230040 captured counter/state cycle variant 1/4
# tx t=156.781s 1022E040#1000000010000000 note=native BCM/body 1022E040 key-on counter/state cycle variant 1/3
# tx t=156.782s 10240040#83FE880100D70FFD note=native BCM/body 10240040 key-on/second-turn variant
# tx t=156.782s 102C0040#803C96B503 note=native BCM/body 102C0040 key-on captured context
# tx t=156.782s 10754040#040400 note=native key/body context immediate key-on hold variant
# tx t=156.782s 10242040#02 note=native 10242040 immediate second-turn/key-on hold state
# tx t=156.782s 10304058#96B501 note=native source 0x58 DIC/icon traffic captured with IPC connected
(1780160204.578000) can0 13FFE040#
(1780160204.578000) can0 621#0052000000000000
(1780160204.578000) can0 10210040#0000800000008000
(1780160204.579000) can0 10264040#0000000000000000
(1780160204.583000) can0 102CA040#0000000000000F00
(1780160204.587000) can0 10220040#1000000040080000
(1780160204.591000) can0 10230040#0000000000000000
(1780160204.609000) can0 1022E040#1000000010000000
(1780160204.609000) can0 10240040#83FE880100D70FFD
(1780160204.609000) can0 102C0040#803C96B503
(1780160204.609000) can0 10754040#040400
(1780160204.613000) can0 10242040#02
(1780160204.617000) can0 10304058#96B501
# tx t=156.892s 10210040#0000800000008000 note=native BCM/body base status from IPC_disconnected capture
# tx t=156.892s 10304058#96B501 note=native source 0x58 DIC/icon traffic captured with IPC connected
(1780160204.689000) can0 10210040#0000800000008000
(1780160204.689000) can0 10304058#96B501
(1780160204.690000) can0 13FFE060#
# tx t=156.985s 10210040#0000800000008000 note=native BCM/body base status from IPC_disconnected capture
# tx t=156.986s 10438040#07 note=TPMS dismiss HMI DLC-1 button candidate 0x07
(1780160204.782000) can0 10210040#0000800000008000
(1780160204.782000) can0 10438040#07
# tx t=157.002s 10304058#96B501 note=native source 0x58 DIC/icon traffic captured with IPC connected
(1780160204.799000) can0 10304058#96B501
# tx t=157.034s 10230040#1000000010000000 note=native BCM/body 10230040 captured counter/state cycle variant 2/4
# tx t=157.034s 1022E040#2000000020000000 note=native BCM/body 1022E040 key-on counter/state cycle variant 2/3
# tx t=157.034s 13FFE080# note=radio/source 0x80 companion presence during TPMS OK/dismiss probe
# tx t=157.034s 13FFE058# note=SDM/source 0x58 companion presence during TPMS OK/dismiss probe
(1780160204.831000) can0 10230040#1000000010000000
(1780160204.831000) can0 1022E040#2000000020000000
(1780160204.831000) can0 13FFE080#
(1780160204.834000) can0 13FFE058#
# tx t=157.081s 10210040#0000800000008000 note=native BCM/body base status from IPC_disconnected capture
(1780160204.878000) can0 10210040#0000800000008000
# tx t=157.113s 10304058#96B501 note=native source 0x58 DIC/icon traffic captured with IPC connected
(1780160204.909000) can0 10304058#96B501
# tx t=157.129s 10438040#00 note=TPMS dismiss HMI DLC-1 release
(1780160204.926000) can0 10438040#00
# tx t=157.192s 10210040#0000800000008000 note=native BCM/body base status from IPC_disconnected capture
(1780160204.988000) can0 10210040#0000800000008000
# tx t=157.223s 10304058#96B501 note=native source 0x58 DIC/icon traffic captured with IPC connected
(1780160205.019000) can0 10304058#96B501
# tx t=157.287s 10210040#0000800000008000 note=native BCM/body base status from IPC_disconnected capture
# tx t=157.287s 10230040#2000000020000000 note=native BCM/body 10230040 captured counter/state cycle variant 3/4
# tx t=157.287s 1022E040#3000000030000000 note=native BCM/body 1022E040 key-on counter/state cycle variant 3/3
(1780160205.083000) can0 10210040#0000800000008000
(1780160205.084000) can0 10230040#2000000020000000
(1780160205.084000) can0 1022E040#3000000030000000
# tx t=157.335s 10304058#96B501 note=native source 0x58 DIC/icon traffic captured with IPC connected
(1780160205.131000) can0 10304058#96B501
# tx t=157.381s 10210040#0000800000008000 note=native BCM/body base status from IPC_disconnected capture
(1780160205.177000) can0 10210040#0000800000008000
# tx t=157.443s 10304058#96B501 note=native source 0x58 DIC/icon traffic captured with IPC connected
(1780160205.240000) can0 10304058#96B501
# tx t=157.491s 10210040#0000800000008000 note=native BCM/body base status from IPC_disconnected capture
(1780160205.288000) can0 10210040#0000800000008000
# tx t=157.539s 10230040#3000000030000000 note=native BCM/body 10230040 captured counter/state cycle variant 4/4
# tx t=157.540s 1022E040#1000000010000000 note=native BCM/body 1022E040 key-on counter/state cycle variant 1/3
(1780160205.336000) can0 10230040#3000000030000000
(1780160205.337000) can0 1022E040#1000000010000000
# tx t=157.555s 10304058#96B501 note=native source 0x58 DIC/icon traffic captured with IPC connected
(1780160205.351000) can0 10304058#96B501
# tx t=157.587s 10210040#0000800000008000 note=native BCM/body base status from IPC_disconnected capture
(1780160205.383000) can0 10210040#0000800000008000
# tx t=157.667s 10304058#96B501 note=native source 0x58 DIC/icon traffic captured with IPC connected
(1780160205.463000) can0 10304058#96B501
# tx t=157.683s 10210040#0000800000008000 note=native BCM/body base status from IPC_disconnected capture
(1780160205.480000) can0 10210040#0000800000008000
# tx t=157.777s 621#0052000000000000 note=native key-on network-management context
# tx t=157.778s 10210040#0000800000008000 note=native BCM/body base status from IPC_disconnected capture
# tx t=157.778s 10264040#0000000000000000 note=native BCM/body base zero-status frame
# tx t=157.778s 102CA040#0000000000000F00 note=native BCM/body base 102CA040 context
# tx t=157.778s 10220040#1000000040080000 note=native BCM/body 10220040 key-on variant
# tx t=157.778s 10230040#0000000000000000 note=native BCM/body 10230040 captured counter/state cycle variant 1/4
# tx t=157.778s 1022E040#2000000020000000 note=native BCM/body 1022E040 key-on counter/state cycle variant 2/3
# tx t=157.778s 10240040#83FE880100D70FFD note=native BCM/body 10240040 key-on/second-turn variant
# tx t=157.778s 102C0040#803C96B503 note=native BCM/body 102C0040 key-on captured context
# tx t=157.778s 10754040#040400 note=native key/body context immediate key-on hold variant
# tx t=157.778s 10242040#02 note=native 10242040 immediate second-turn/key-on hold state
# tx t=157.779s 10304058#96B501 note=native source 0x58 DIC/icon traffic captured with IPC connected
(1780160205.575000) can0 621#0052000000000000
(1780160205.575000) can0 10210040#0000800000008000
(1780160205.575000) can0 10264040#0000000000000000
(1780160205.577000) can0 102CA040#0000000000000F00
(1780160205.582000) can0 10220040#1000000040080000
(1780160205.586000) can0 10230040#0000000000000000
(1780160205.605000) can0 1022E040#2000000020000000
(1780160205.606000) can0 10240040#83FE880100D70FFD
(1780160205.606000) can0 102C0040#803C96B503
(1780160205.606000) can0 10754040#040400
(1780160205.608000) can0 10242040#02
(1780160205.611000) can0 10304058#96B501
# tx t=157.889s 10210040#0000800000008000 note=native BCM/body base status from IPC_disconnected capture
# tx t=157.889s 10304058#96B501 note=native source 0x58 DIC/icon traffic captured with IPC connected
# tx t=157.889s 10438040#0700000000000000 note=TPMS dismiss HMI full-DLC button candidate 0x07
(1780160205.686000) can0 10210040#0000800000008000
(1780160205.686000) can0 10304058#96B501
(1780160205.686000) can0 10438040#0700000000000000
# tx t=157.983s 13FFE040# note=native fake BCM/source 0x40 presence, captured-like cadence
# tx t=157.984s 10210040#0000800000008000 note=native BCM/body base status from IPC_disconnected capture
(1780160205.780000) can0 13FFE040#
(1780160205.780000) can0 10210040#0000800000008000
# tx t=157.999s 10304058#96B501 note=native source 0x58 DIC/icon traffic captured with IPC connected
(1780160205.795000) can0 10304058#96B501
# tx t=158.030s 10230040#1000000010000000 note=native BCM/body 10230040 captured counter/state cycle variant 2/4
# tx t=158.031s 1022E040#3000000030000000 note=native BCM/body 1022E040 key-on counter/state cycle variant 3/3
# tx t=158.031s 10438040#0000000000000000 note=TPMS dismiss HMI full-DLC release
(1780160205.827000) can0 10230040#1000000010000000
(1780160205.827000) can0 1022E040#3000000030000000
(1780160205.827000) can0 10438040#0000000000000000
# tx t=158.077s 10210040#0000800000008000 note=native BCM/body base status from IPC_disconnected capture
(1780160205.873000) can0 10210040#0000800000008000
# tx t=158.109s 10304058#96B501 note=native source 0x58 DIC/icon traffic captured with IPC connected
(1780160205.905000) can0 13FFE060#
(1780160205.906000) can0 10304058#96B501
# tx t=158.189s 10210040#0000800000008000 note=native BCM/body base status from IPC_disconnected capture
(1780160205.985000) can0 10210040#0000800000008000
# tx t=158.220s 10304058#96B501 note=native source 0x58 DIC/icon traffic captured with IPC connected
(1780160206.017000) can0 10304058#96B501
# tx t=158.284s 10210040#0000800000008000 note=native BCM/body base status from IPC_disconnected capture
# tx t=158.285s 10230040#2000000020000000 note=native BCM/body 10230040 captured counter/state cycle variant 3/4
# tx t=158.286s 1022E040#1000000010000000 note=native BCM/body 1022E040 key-on counter/state cycle variant 1/3
(1780160206.083000) can0 10210040#0000800000008000
(1780160206.083000) can0 10230040#2000000020000000
(1780160206.083000) can0 1022E040#1000000010000000
# tx t=158.332s 10304058#96B501 note=native source 0x58 DIC/icon traffic captured with IPC connected
(1780160206.128000) can0 10304058#96B501
# tx t=158.380s 10210040#0000800000008000 note=native BCM/body base status from IPC_disconnected capture
(1780160206.177000) can0 10210040#0000800000008000
# tx t=158.429s 10304058#96B501 note=native source 0x58 DIC/icon traffic captured with IPC connected
(1780160206.225000) can0 10304058#96B501
# tx t=158.490s 10210040#0000800000008000 note=native BCM/body base status from IPC_disconnected capture
(1780160206.286000) can0 10210040#0000800000008000
# tx t=158.538s 10230040#3000000030000000 note=native BCM/body 10230040 captured counter/state cycle variant 4/4
# tx t=158.538s 1022E040#2000000020000000 note=native BCM/body 1022E040 key-on counter/state cycle variant 2/3
# tx t=158.538s 10304058#96B501 note=native source 0x58 DIC/icon traffic captured with IPC connected
# tx t=158.538s 13FFE080# note=radio/source 0x80 companion presence during TPMS OK/dismiss probe
(1780160206.334000) can0 10230040#3000000030000000
(1780160206.335000) can0 1022E040#2000000020000000
(1780160206.335000) can0 10304058#96B501
(1780160206.338000) can0 13FFE080#
# tx t=158.585s 10210040#0000800000008000 note=native BCM/body base status from IPC_disconnected capture
(1780160206.382000) can0 10210040#0000800000008000
# tx t=158.648s 10304058#96B501 note=native source 0x58 DIC/icon traffic captured with IPC connected
(1780160206.445000) can0 10304058#96B501
# tx t=158.680s 10210040#0000800000008000 note=native BCM/body base status from IPC_disconnected capture
(1780160206.477000) can0 10210040#0000800000008000
# tx t=158.728s 13FFE058# note=SDM/source 0x58 companion presence during TPMS OK/dismiss probe
(1780160206.525000) can0 13FFE058#
# tx t=158.760s 10304058#96B501 note=native source 0x58 DIC/icon traffic captured with IPC connected
(1780160206.556000) can0 10304058#96B501
# tx t=158.792s 621#0052000000000000 note=native key-on network-management context
# tx t=158.792s 10210040#0000800000008000 note=native BCM/body base status from IPC_disconnected capture
# tx t=158.792s 10264040#0000000000000000 note=native BCM/body base zero-status frame
# tx t=158.792s 102CA040#0000000000000F00 note=native BCM/body base 102CA040 context
# tx t=158.792s 10220040#1000000040080000 note=native BCM/body 10220040 key-on variant
# tx t=158.793s 10230040#0000000000000000 note=native BCM/body 10230040 captured counter/state cycle variant 1/4
# tx t=158.793s 1022E040#3000000030000000 note=native BCM/body 1022E040 key-on counter/state cycle variant 3/3
# tx t=158.793s 10240040#83FE880100D70FFD note=native BCM/body 10240040 key-on/second-turn variant
# tx t=158.793s 102C0040#803C96B503 note=native BCM/body 102C0040 key-on captured context
# tx t=158.793s 10754040#040400 note=native key/body context immediate key-on hold variant
# tx t=158.793s 10242040#02 note=native 10242040 immediate second-turn/key-on hold state
# tx t=158.794s 10438040#08 note=TPMS dismiss HMI DLC-1 button candidate 0x08
(1780160206.590000) can0 621#0052000000000000
(1780160206.590000) can0 10210040#0000800000008000
(1780160206.590000) can0 10264040#0000000000000000
(1780160206.592000) can0 102CA040#0000000000000F00
(1780160206.596000) can0 10220040#1000000040080000
(1780160206.600000) can0 10230040#0000000000000000
(1780160206.620000) can0 1022E040#3000000030000000
(1780160206.620000) can0 10240040#83FE880100D70FFD
(1780160206.620000) can0 102C0040#803C96B503
(1780160206.621000) can0 10754040#040400
(1780160206.622000) can0 10242040#02
(1780160206.626000) can0 10438040#08
# tx t=158.871s 10304058#96B501 note=native source 0x58 DIC/icon traffic captured with IPC connected
(1780160206.668000) can0 10304058#96B501
# tx t=158.887s 10210040#0000800000008000 note=native BCM/body base status from IPC_disconnected capture
(1780160206.684000) can0 10210040#0000800000008000
# tx t=158.919s 10438040#00 note=TPMS dismiss HMI DLC-1 release
(1780160206.716000) can0 10438040#00
# tx t=158.982s 10210040#0000800000008000 note=native BCM/body base status from IPC_disconnected capture
# tx t=158.982s 10304058#96B501 note=native source 0x58 DIC/icon traffic captured with IPC connected
(1780160206.778000) can0 10210040#0000800000008000
(1780160206.778000) can0 10304058#96B501
# tx t=159.029s 10230040#1000000010000000 note=native BCM/body 10230040 captured counter/state cycle variant 2/4
# tx t=159.029s 1022E040#1000000010000000 note=native BCM/body 1022E040 key-on counter/state cycle variant 1/3
(1780160206.825000) can0 10230040#1000000010000000
(1780160206.826000) can0 1022E040#1000000010000000
# tx t=159.092s 10210040#0000800000008000 note=native BCM/body base status from IPC_disconnected capture
# tx t=159.092s 10304058#96B501 note=native source 0x58 DIC/icon traffic captured with IPC connected
(1780160206.889000) can0 10210040#0000800000008000
(1780160206.889000) can0 10304058#96B501
# tx t=159.187s 13FFE040# note=native fake BCM/source 0x40 presence, captured-like cadence
# tx t=159.187s 10210040#0000800000008000 note=native BCM/body base status from IPC_disconnected capture
(1780160206.983000) can0 13FFE040#
(1780160206.983000) can0 10210040#0000800000008000
# tx t=159.203s 10304058#96B501 note=native source 0x58 DIC/icon traffic captured with IPC connected
(1780160206.999000) can0 10304058#96B501
# tx t=159.282s 10210040#0000800000008000 note=native BCM/body base status from IPC_disconnected capture
# tx t=159.283s 10230040#2000000020000000 note=native BCM/body 10230040 captured counter/state cycle variant 3/4
# tx t=159.283s 1022E040#2000000020000000 note=native BCM/body 1022E040 key-on counter/state cycle variant 2/3
(1780160207.079000) can0 10210040#0000800000008000
(1780160207.079000) can0 10230040#2000000020000000
(1780160207.079000) can0 1022E040#2000000020000000
(1780160207.094000) can0 13FFE060#
# tx t=159.314s 10304058#96B501 note=native source 0x58 DIC/icon traffic captured with IPC connected
(1780160207.111000) can0 10304058#96B501
# tx t=159.378s 10210040#0000800000008000 note=native BCM/body base status from IPC_disconnected capture
(1780160207.174000) can0 10210040#0000800000008000
# tx t=159.426s 10304058#96B501 note=native source 0x58 DIC/icon traffic captured with IPC connected
(1780160207.222000) can0 10304058#96B501
# tx t=159.489s 10210040#0000800000008000 note=native BCM/body base status from IPC_disconnected capture
(1780160207.285000) can0 10210040#0000800000008000
# tx t=159.537s 10230040#3000000030000000 note=native BCM/body 10230040 captured counter/state cycle variant 4/4
# tx t=159.537s 1022E040#3000000030000000 note=native BCM/body 1022E040 key-on counter/state cycle variant 3/3
# tx t=159.537s 10304058#96B501 note=native source 0x58 DIC/icon traffic captured with IPC connected
(1780160207.334000) can0 10230040#3000000030000000
(1780160207.334000) can0 1022E040#3000000030000000
(1780160207.334000) can0 10304058#96B501
# tx t=159.585s 10210040#0000800000008000 note=native BCM/body base status from IPC_disconnected capture
(1780160207.381000) can0 10210040#0000800000008000
# tx t=159.648s 10304058#96B501 note=native source 0x58 DIC/icon traffic captured with IPC connected
(1780160207.444000) can0 10304058#96B501
# tx t=159.680s 10210040#0000800000008000 note=native BCM/body base status from IPC_disconnected capture
# tx t=159.680s 10438040#0800000000000000 note=TPMS dismiss HMI full-DLC button candidate 0x08
(1780160207.476000) can0 10210040#0000800000008000
(1780160207.477000) can0 10438040#0800000000000000
# tx t=159.760s 10304058#96B501 note=native source 0x58 DIC/icon traffic captured with IPC connected
(1780160207.556000) can0 10304058#96B501
# tx t=159.792s 621#0052000000000000 note=native key-on network-management context
# tx t=159.792s 10210040#0000800000008000 note=native BCM/body base status from IPC_disconnected capture
# tx t=159.793s 10264040#0000000000000000 note=native BCM/body base zero-status frame
# tx t=159.793s 102CA040#0000000000000F00 note=native BCM/body base 102CA040 context
# tx t=159.793s 10220040#1000000040080000 note=native BCM/body 10220040 key-on variant
# tx t=159.793s 10230040#0000000000000000 note=native BCM/body 10230040 captured counter/state cycle variant 1/4
# tx t=159.793s 1022E040#1000000010000000 note=native BCM/body 1022E040 key-on counter/state cycle variant 1/3
# tx t=159.793s 10240040#83FE880100D70FFD note=native BCM/body 10240040 key-on/second-turn variant
# tx t=159.793s 102C0040#803C96B503 note=native BCM/body 102C0040 key-on captured context
# tx t=159.793s 10754040#040400 note=native key/body context immediate key-on hold variant
# tx t=159.793s 10242040#02 note=native 10242040 immediate second-turn/key-on hold state
(1780160207.590000) can0 621#0052000000000000
(1780160207.590000) can0 10210040#0000800000008000
(1780160207.590000) can0 10264040#0000000000000000
(1780160207.592000) can0 102CA040#0000000000000F00
(1780160207.596000) can0 10220040#1000000040080000
(1780160207.601000) can0 10230040#0000000000000000
# tx t=159.824s 10438040#0000000000000000 note=TPMS dismiss HMI full-DLC release
(1780160207.620000) can0 1022E040#1000000010000000
(1780160207.621000) can0 10240040#83FE880100D70FFD
(1780160207.621000) can0 102C0040#803C96B503
(1780160207.621000) can0 10754040#040400
(1780160207.623000) can0 10242040#02
(1780160207.626000) can0 10438040#0000000000000000
# tx t=159.871s 10304058#96B501 note=native source 0x58 DIC/icon traffic captured with IPC connected
(1780160207.668000) can0 10304058#96B501
# tx t=159.888s 10210040#0000800000008000 note=native BCM/body base status from IPC_disconnected capture
(1780160207.684000) can0 10210040#0000800000008000
(1780160207.691000) can0 10244060#02
# tx t=159.982s 10210040#0000800000008000 note=native BCM/body base status from IPC_disconnected capture
# tx t=159.983s 10304058#96B501 note=native source 0x58 DIC/icon traffic captured with IPC connected
(1780160207.779000) can0 10210040#0000800000008000
(1780160207.779000) can0 10304058#96B501
# tx t=160.030s 10230040#1000000010000000 note=native BCM/body 10230040 captured counter/state cycle variant 2/4
# tx t=160.030s 1022E040#2000000020000000 note=native BCM/body 1022E040 key-on counter/state cycle variant 2/3
# tx t=160.030s 13FFE080# note=radio/source 0x80 companion presence during TPMS OK/dismiss probe
(1780160207.826000) can0 10230040#1000000010000000
(1780160207.827000) can0 1022E040#2000000020000000
(1780160207.827000) can0 13FFE080#
# tx t=160.077s 10210040#0000800000008000 note=native BCM/body base status from IPC_disconnected capture
# tx t=160.077s 10304058#96B501 note=native source 0x58 DIC/icon traffic captured with IPC connected
(1780160207.874000) can0 10210040#0000800000008000
(1780160207.874000) can0 10304058#96B501
# tx t=160.188s 10210040#0000800000008000 note=native BCM/body base status from IPC_disconnected capture
# tx t=160.188s 10304058#96B501 note=native source 0x58 DIC/icon traffic captured with IPC connected
(1780160207.984000) can0 10210040#0000800000008000
(1780160207.984000) can0 10304058#96B501
# tx t=160.283s 10210040#0000800000008000 note=native BCM/body base status from IPC_disconnected capture
# tx t=160.283s 10230040#2000000020000000 note=native BCM/body 10230040 captured counter/state cycle variant 3/4
# tx t=160.283s 1022E040#3000000030000000 note=native BCM/body 1022E040 key-on counter/state cycle variant 3/3
(1780160208.080000) can0 10210040#0000800000008000
(1780160208.080000) can0 10230040#2000000020000000
(1780160208.080000) can0 1022E040#3000000030000000
# tx t=160.299s 10304058#96B501 note=native source 0x58 DIC/icon traffic captured with IPC connected
(1780160208.096000) can0 10304058#96B501
# tx t=160.378s 13FFE040# note=native fake BCM/source 0x40 presence, captured-like cadence
# tx t=160.379s 10210040#0000800000008000 note=native BCM/body base status from IPC_disconnected capture
(1780160208.175000) can0 13FFE040#
(1780160208.175000) can0 10210040#0000800000008000
# tx t=160.409s 10304058#96B501 note=native source 0x58 DIC/icon traffic captured with IPC connected
(1780160208.206000) can0 10304058#96B501
# tx t=160.441s 13FFE058# note=SDM/source 0x58 companion presence during TPMS OK/dismiss probe
(1780160208.238000) can0 13FFE058#
# tx t=160.489s 10210040#0000800000008000 note=native BCM/body base status from IPC_disconnected capture
(1780160208.285000) can0 10210040#0000800000008000
(1780160208.292000) can0 13FFE060#
# tx t=160.521s 10304058#96B501 note=native source 0x58 DIC/icon traffic captured with IPC connected
(1780160208.317000) can0 10304058#96B501
# tx t=160.537s 10230040#3000000030000000 note=native BCM/body 10230040 captured counter/state cycle variant 4/4
# tx t=160.537s 1022E040#1000000010000000 note=native BCM/body 1022E040 key-on counter/state cycle variant 1/3
(1780160208.334000) can0 10230040#3000000030000000
(1780160208.334000) can0 1022E040#1000000010000000
# tx t=160.585s 10210040#0000800000008000 note=native BCM/body base status from IPC_disconnected capture
# tx t=160.585s 10438040#09 note=TPMS dismiss HMI DLC-1 button candidate 0x09
(1780160208.381000) can0 10210040#0000800000008000
(1780160208.381000) can0 10438040#09
# tx t=160.631s 10304058#96B501 note=native source 0x58 DIC/icon traffic captured with IPC connected
(1780160208.427000) can0 10304058#96B501
# tx t=160.693s 10210040#0000800000008000 note=native BCM/body base status from IPC_disconnected capture
(1780160208.489000) can0 10210040#0000800000008000
# tx t=160.725s 10438040#00 note=TPMS dismiss HMI DLC-1 release
(1780160208.521000) can0 10438040#00
# tx t=160.741s 10304058#96B501 note=native source 0x58 DIC/icon traffic captured with IPC connected
(1780160208.537000) can0 10304058#96B501
# tx t=160.788s 621#0052000000000000 note=native key-on network-management context
# tx t=160.788s 10210040#0000800000008000 note=native BCM/body base status from IPC_disconnected capture
# tx t=160.788s 10264040#0000000000000000 note=native BCM/body base zero-status frame
# tx t=160.788s 102CA040#0000000000000F00 note=native BCM/body base 102CA040 context
# tx t=160.788s 10220040#1000000040080000 note=native BCM/body 10220040 key-on variant
# tx t=160.789s 10230040#0000000000000000 note=native BCM/body 10230040 captured counter/state cycle variant 1/4
# tx t=160.789s 1022E040#2000000020000000 note=native BCM/body 1022E040 key-on counter/state cycle variant 2/3
# tx t=160.789s 10240040#83FE880100D70FFD note=native BCM/body 10240040 key-on/second-turn variant
# tx t=160.789s 102C0040#803C96B503 note=native BCM/body 102C0040 key-on captured context
# tx t=160.789s 10754040#040400 note=native key/body context immediate key-on hold variant
# tx t=160.789s 10242040#02 note=native 10242040 immediate second-turn/key-on hold state
(1780160208.585000) can0 621#0052000000000000
(1780160208.585000) can0 10210040#0000800000008000
(1780160208.585000) can0 10264040#0000000000000000
(1780160208.588000) can0 102CA040#0000000000000F00
(1780160208.592000) can0 10220040#1000000040080000
(1780160208.596000) can0 10230040#0000000000000000
(1780160208.616000) can0 1022E040#2000000020000000
(1780160208.616000) can0 10240040#83FE880100D70FFD
(1780160208.616000) can0 102C0040#803C96B503
(1780160208.616000) can0 10754040#040400
(1780160208.618000) can0 10242040#02
# tx t=160.851s 10304058#96B501 note=native source 0x58 DIC/icon traffic captured with IPC connected
(1780160208.647000) can0 10304058#96B501
# tx t=160.883s 10210040#0000800000008000 note=native BCM/body base status from IPC_disconnected capture
(1780160208.679000) can0 10210040#0000800000008000
# tx t=160.962s 10304058#96B501 note=native source 0x58 DIC/icon traffic captured with IPC connected
(1780160208.759000) can0 10304058#96B501
# tx t=160.978s 10210040#0000800000008000 note=native BCM/body base status from IPC_disconnected capture
(1780160208.775000) can0 10210040#0000800000008000
# tx t=161.043s 10230040#1000000010000000 note=native BCM/body 10230040 captured counter/state cycle variant 2/4
# tx t=161.044s 1022E040#3000000030000000 note=native BCM/body 1022E040 key-on counter/state cycle variant 3/3
(1780160208.841000) can0 10230040#1000000010000000
(1780160208.841000) can0 1022E040#3000000030000000
# tx t=161.074s 10304058#96B501 note=native source 0x58 DIC/icon traffic captured with IPC connected
(1780160208.870000) can0 10304058#96B501
# tx t=161.090s 10210040#0000800000008000 note=native BCM/body base status from IPC_disconnected capture
(1780160208.886000) can0 10210040#0000800000008000
# tx t=161.184s 10210040#0000800000008000 note=native BCM/body base status from IPC_disconnected capture
# tx t=161.184s 10304058#96B501 note=native source 0x58 DIC/icon traffic captured with IPC connected
(1780160208.981000) can0 10210040#0000800000008000
(1780160208.981000) can0 10304058#96B501
# tx t=161.279s 10210040#0000800000008000 note=native BCM/body base status from IPC_disconnected capture
# tx t=161.280s 10230040#2000000020000000 note=native BCM/body 10230040 captured counter/state cycle variant 3/4
# tx t=161.280s 1022E040#1000000010000000 note=native BCM/body 1022E040 key-on counter/state cycle variant 1/3
(1780160209.076000) can0 10210040#0000800000008000
(1780160209.076000) can0 10230040#2000000020000000
(1780160209.076000) can0 1022E040#1000000010000000
# tx t=161.294s 10304058#96B501 note=native source 0x58 DIC/icon traffic captured with IPC connected
(1780160209.091000) can0 10304058#96B501
# tx t=161.389s 10210040#0000800000008000 note=native BCM/body base status from IPC_disconnected capture
(1780160209.185000) can0 10210040#0000800000008000
# tx t=161.405s 10304058#96B501 note=native source 0x58 DIC/icon traffic captured with IPC connected
(1780160209.201000) can0 10304058#96B501
# tx t=161.483s 10210040#0000800000008000 note=native BCM/body base status from IPC_disconnected capture
# tx t=161.484s 10438040#0900000000000000 note=TPMS dismiss HMI full-DLC button candidate 0x09
(1780160209.280000) can0 10210040#0000800000008000
(1780160209.280000) can0 10438040#0900000000000000
# tx t=161.515s 10304058#96B501 note=native source 0x58 DIC/icon traffic captured with IPC connected
(1780160209.312000) can0 10304058#96B501
# tx t=161.531s 10230040#3000000030000000 note=native BCM/body 10230040 captured counter/state cycle variant 4/4
# tx t=161.532s 1022E040#2000000020000000 note=native BCM/body 1022E040 key-on counter/state cycle variant 2/3
# tx t=161.532s 13FFE080# note=radio/source 0x80 companion presence during TPMS OK/dismiss probe
(1780160209.328000) can0 10230040#3000000030000000
(1780160209.328000) can0 1022E040#2000000020000000
(1780160209.328000) can0 13FFE080#
# tx t=161.580s 13FFE040# note=native fake BCM/source 0x40 presence, captured-like cadence
# tx t=161.580s 10210040#0000800000008000 note=native BCM/body base status from IPC_disconnected capture
(1780160209.376000) can0 13FFE040#
(1780160209.376000) can0 10210040#0000800000008000
# tx t=161.627s 10304058#96B501 note=native source 0x58 DIC/icon traffic captured with IPC connected
# tx t=161.628s 10438040#0000000000000000 note=TPMS dismiss HMI full-DLC release
(1780160209.424000) can0 10304058#96B501
(1780160209.424000) can0 10438040#0000000000000000
# tx t=161.690s 10210040#0000800000008000 note=native BCM/body base status from IPC_disconnected capture
(1780160209.487000) can0 10210040#0000800000008000
(1780160209.488000) can0 13FFE060#
# tx t=161.739s 10304058#96B501 note=native source 0x58 DIC/icon traffic captured with IPC connected
(1780160209.535000) can0 10304058#96B501
# tx t=161.786s 621#0052000000000000 note=native key-on network-management context
# tx t=161.786s 10210040#0000800000008000 note=native BCM/body base status from IPC_disconnected capture
# tx t=161.786s 10264040#0000000000000000 note=native BCM/body base zero-status frame
# tx t=161.787s 102CA040#0000000000000F00 note=native BCM/body base 102CA040 context
# tx t=161.787s 10220040#1000000040080000 note=native BCM/body 10220040 key-on variant
# tx t=161.787s 10230040#0000000000000000 note=native BCM/body 10230040 captured counter/state cycle variant 1/4
# tx t=161.787s 1022E040#3000000030000000 note=native BCM/body 1022E040 key-on counter/state cycle variant 3/3
# tx t=161.787s 10240040#83FE880100D70FFD note=native BCM/body 10240040 key-on/second-turn variant
# tx t=161.787s 102C0040#803C96B503 note=native BCM/body 102C0040 key-on captured context
# tx t=161.787s 10754040#040400 note=native key/body context immediate key-on hold variant
# tx t=161.787s 10242040#02 note=native 10242040 immediate second-turn/key-on hold state
(1780160209.583000) can0 621#0052000000000000
(1780160209.584000) can0 10210040#0000800000008000
(1780160209.584000) can0 10264040#0000000000000000
(1780160209.586000) can0 102CA040#0000000000000F00
(1780160209.590000) can0 10220040#1000000040080000
(1780160209.595000) can0 10230040#0000000000000000
(1780160209.614000) can0 1022E040#3000000030000000
(1780160209.614000) can0 10240040#83FE880100D70FFD
(1780160209.615000) can0 102C0040#803C96B503
(1780160209.615000) can0 10754040#040400
(1780160209.617000) can0 10242040#02
# tx t=161.850s 10304058#96B501 note=native source 0x58 DIC/icon traffic captured with IPC connected
(1780160209.646000) can0 10304058#96B501
# tx t=161.882s 10210040#0000800000008000 note=native BCM/body base status from IPC_disconnected capture
(1780160209.678000) can0 10210040#0000800000008000
# tx t=161.961s 10304058#96B501 note=native source 0x58 DIC/icon traffic captured with IPC connected
(1780160209.757000) can0 10304058#96B501
# tx t=161.993s 10210040#0000800000008000 note=native BCM/body base status from IPC_disconnected capture
(1780160209.789000) can0 10210040#0000800000008000
# tx t=162.039s 10230040#1000000010000000 note=native BCM/body 10230040 captured counter/state cycle variant 2/4
# tx t=162.039s 1022E040#1000000010000000 note=native BCM/body 1022E040 key-on counter/state cycle variant 1/3
(1780160209.835000) can0 10230040#1000000010000000
(1780160209.835000) can0 1022E040#1000000010000000
# tx t=162.070s 10304058#96B501 note=native source 0x58 DIC/icon traffic captured with IPC connected
(1780160209.866000) can0 10304058#96B501
# tx t=162.086s 10210040#0000800000008000 note=native BCM/body base status from IPC_disconnected capture
(1780160209.882000) can0 10210040#0000800000008000
# tx t=162.134s 13FFE058# note=SDM/source 0x58 companion presence during TPMS OK/dismiss probe
(1780160209.930000) can0 13FFE058#
# tx t=162.181s 10210040#0000800000008000 note=native BCM/body base status from IPC_disconnected capture
# tx t=162.182s 10304058#96B501 note=native source 0x58 DIC/icon traffic captured with IPC connected
(1780160209.978000) can0 10210040#0000800000008000
(1780160209.978000) can0 10304058#96B501
# tx t=162.292s 10210040#0000800000008000 note=native BCM/body base status from IPC_disconnected capture
# tx t=162.292s 10230040#2000000020000000 note=native BCM/body 10230040 captured counter/state cycle variant 3/4
# tx t=162.292s 1022E040#2000000020000000 note=native BCM/body 1022E040 key-on counter/state cycle variant 2/3
# tx t=162.292s 10304058#96B501 note=native source 0x58 DIC/icon traffic captured with IPC connected
(1780160210.089000) can0 10210040#0000800000008000
(1780160210.089000) can0 10230040#2000000020000000
(1780160210.089000) can0 1022E040#2000000020000000
(1780160210.092000) can0 10304058#96B501
# tx t=162.387s 10210040#0000800000008000 note=native BCM/body base status from IPC_disconnected capture
# tx t=162.387s 10304058#96B501 note=native source 0x58 DIC/icon traffic captured with IPC connected
# tx t=162.387s 10438040#0A note=TPMS dismiss HMI DLC-1 button candidate 0x0A
(1780160210.184000) can0 10210040#0000800000008000
(1780160210.184000) can0 10304058#96B501
(1780160210.184000) can0 10438040#0A
# tx t=162.482s 10210040#0000800000008000 note=native BCM/body base status from IPC_disconnected capture
(1780160210.278000) can0 10210040#0000800000008000
# tx t=162.498s 10304058#96B501 note=native source 0x58 DIC/icon traffic captured with IPC connected
(1780160210.294000) can0 10304058#96B501
# tx t=162.530s 10230040#3000000030000000 note=native BCM/body 10230040 captured counter/state cycle variant 4/4
# tx t=162.530s 1022E040#3000000030000000 note=native BCM/body 1022E040 key-on counter/state cycle variant 3/3
# tx t=162.530s 10438040#00 note=TPMS dismiss HMI DLC-1 release
(1780160210.326000) can0 10230040#3000000030000000
(1780160210.327000) can0 1022E040#3000000030000000
(1780160210.327000) can0 10438040#00
# tx t=162.577s 10210040#0000800000008000 note=native BCM/body base status from IPC_disconnected capture
(1780160210.373000) can0 10210040#0000800000008000
# tx t=162.609s 10304058#96B501 note=native source 0x58 DIC/icon traffic captured with IPC connected
(1780160210.405000) can0 10304058#96B501
# tx t=162.688s 10210040#0000800000008000 note=native BCM/body base status from IPC_disconnected capture
(1780160210.484000) can0 10210040#0000800000008000
# tx t=162.720s 10304058#96B501 note=native source 0x58 DIC/icon traffic captured with IPC connected
(1780160210.516000) can0 10304058#96B501
# tx t=162.783s 13FFE040# note=native fake BCM/source 0x40 presence, captured-like cadence
# tx t=162.783s 621#0052000000000000 note=native key-on network-management context
# tx t=162.784s 10210040#0000800000008000 note=native BCM/body base status from IPC_disconnected capture
# tx t=162.784s 10264040#0000000000000000 note=native BCM/body base zero-status frame
# tx t=162.784s 102CA040#0000000000000F00 note=native BCM/body base 102CA040 context
# tx t=162.784s 10220040#1000000040080000 note=native BCM/body 10220040 key-on variant
# tx t=162.784s 10230040#0000000000000000 note=native BCM/body 10230040 captured counter/state cycle variant 1/4
# tx t=162.784s 1022E040#1000000010000000 note=native BCM/body 1022E040 key-on counter/state cycle variant 1/3
# tx t=162.784s 10240040#83FE880100D70FFD note=native BCM/body 10240040 key-on/second-turn variant
# tx t=162.785s 102C0040#803C96B503 note=native BCM/body 102C0040 key-on captured context
# tx t=162.785s 10754040#040400 note=native key/body context immediate key-on hold variant
# tx t=162.785s 10242040#02 note=native 10242040 immediate second-turn/key-on hold state
(1780160210.581000) can0 13FFE040#
(1780160210.581000) can0 621#0052000000000000
(1780160210.582000) can0 10210040#0000800000008000
(1780160210.582000) can0 10264040#0000000000000000
(1780160210.585000) can0 102CA040#0000000000000F00
(1780160210.590000) can0 10220040#1000000040080000
(1780160210.594000) can0 10230040#0000000000000000
(1780160210.598000) can0 1022E040#1000000010000000
(1780160210.603000) can0 10240040#83FE880100D70FFD
(1780160210.607000) can0 102C0040#803C96B503
# tx t=162.829s 10304058#96B501 note=native source 0x58 DIC/icon traffic captured with IPC connected
(1780160210.625000) can0 10754040#040400
(1780160210.626000) can0 10242040#02
(1780160210.626000) can0 10304058#96B501
(1780160210.687000) can0 13FFE060#
# tx t=162.893s 10210040#0000800000008000 note=native BCM/body base status from IPC_disconnected capture
(1780160210.689000) can0 10210040#0000800000008000
# tx t=162.941s 10304058#96B501 note=native source 0x58 DIC/icon traffic captured with IPC connected
(1780160210.737000) can0 10304058#96B501
# tx t=162.987s 10210040#0000800000008000 note=native BCM/body base status from IPC_disconnected capture
(1780160210.784000) can0 10210040#0000800000008000
# tx t=163.035s 10230040#1000000010000000 note=native BCM/body 10230040 captured counter/state cycle variant 2/4
# tx t=163.036s 1022E040#2000000020000000 note=native BCM/body 1022E040 key-on counter/state cycle variant 2/3
# tx t=163.036s 13FFE080# note=radio/source 0x80 companion presence during TPMS OK/dismiss probe
(1780160210.832000) can0 10230040#1000000010000000
(1780160210.832000) can0 1022E040#2000000020000000
(1780160210.832000) can0 13FFE080#
# tx t=163.051s 10304058#96B501 note=native source 0x58 DIC/icon traffic captured with IPC connected
(1780160210.847000) can0 10304058#96B501
# tx t=163.082s 10210040#0000800000008000 note=native BCM/body base status from IPC_disconnected capture
(1780160210.879000) can0 10210040#0000800000008000
# tx t=163.162s 10304058#96B501 note=native source 0x58 DIC/icon traffic captured with IPC connected
(1780160210.958000) can0 10304058#96B501
# tx t=163.178s 10210040#0000800000008000 note=native BCM/body base status from IPC_disconnected capture
(1780160210.975000) can0 10210040#0000800000008000
# tx t=163.273s 10304058#96B501 note=native source 0x58 DIC/icon traffic captured with IPC connected
(1780160211.069000) can0 10304058#96B501
# tx t=163.289s 10210040#0000800000008000 note=native BCM/body base status from IPC_disconnected capture
# tx t=163.289s 10230040#2000000020000000 note=native BCM/body 10230040 captured counter/state cycle variant 3/4
# tx t=163.289s 1022E040#3000000030000000 note=native BCM/body 1022E040 key-on counter/state cycle variant 3/3
# tx t=163.289s 10438040#0A00000000000000 note=TPMS dismiss HMI full-DLC button candidate 0x0A
(1780160211.086000) can0 10210040#0000800000008000
(1780160211.086000) can0 10230040#2000000020000000
(1780160211.086000) can0 1022E040#3000000030000000
(1780160211.089000) can0 10438040#0A00000000000000
# tx t=163.384s 10210040#0000800000008000 note=native BCM/body base status from IPC_disconnected capture
# tx t=163.384s 10304058#96B501 note=native source 0x58 DIC/icon traffic captured with IPC connected
(1780160211.181000) can0 10210040#0000800000008000
(1780160211.181000) can0 10304058#96B501
# tx t=163.432s 10438040#0000000000000000 note=TPMS dismiss HMI full-DLC release
(1780160211.228000) can0 10438040#0000000000000000
# tx t=163.478s 10210040#0000800000008000 note=native BCM/body base status from IPC_disconnected capture
(1780160211.274000) can0 10210040#0000800000008000
# tx t=163.494s 10304058#96B501 note=native source 0x58 DIC/icon traffic captured with IPC connected
(1780160211.291000) can0 10304058#96B501
# tx t=163.542s 10230040#3000000030000000 note=native BCM/body 10230040 captured counter/state cycle variant 4/4
# tx t=163.542s 1022E040#1000000010000000 note=native BCM/body 1022E040 key-on counter/state cycle variant 1/3
(1780160211.339000) can0 10230040#3000000030000000
(1780160211.339000) can0 1022E040#1000000010000000
# tx t=163.589s 10210040#0000800000008000 note=native BCM/body base status from IPC_disconnected capture
(1780160211.386000) can0 10210040#0000800000008000
# tx t=163.604s 10304058#96B501 note=native source 0x58 DIC/icon traffic captured with IPC connected
(1780160211.401000) can0 10304058#96B501
# tx t=163.683s 10210040#0000800000008000 note=native BCM/body base status from IPC_disconnected capture
(1780160211.479000) can0 10210040#0000800000008000
# tx t=163.715s 10304058#96B501 note=native source 0x58 DIC/icon traffic captured with IPC connected
(1780160211.511000) can0 10304058#96B501
# tx t=163.778s 621#0052000000000000 note=native key-on network-management context
# tx t=163.778s 10210040#0000800000008000 note=native BCM/body base status from IPC_disconnected capture
# tx t=163.779s 10264040#0000000000000000 note=native BCM/body base zero-status frame
# tx t=163.779s 102CA040#0000000000000F00 note=native BCM/body base 102CA040 context
# tx t=163.779s 10220040#1000000040080000 note=native BCM/body 10220040 key-on variant
# tx t=163.779s 10230040#0000000000000000 note=native BCM/body 10230040 captured counter/state cycle variant 1/4
# tx t=163.779s 1022E040#2000000020000000 note=native BCM/body 1022E040 key-on counter/state cycle variant 2/3
# tx t=163.779s 10240040#83FE880100D70FFD note=native BCM/body 10240040 key-on/second-turn variant
# tx t=163.779s 102C0040#803C96B503 note=native BCM/body 102C0040 key-on captured context
# tx t=163.780s 10754040#040400 note=native key/body context immediate key-on hold variant
# tx t=163.780s 10242040#02 note=native 10242040 immediate second-turn/key-on hold state
(1780160211.576000) can0 621#0052000000000000
(1780160211.576000) can0 10210040#0000800000008000
(1780160211.576000) can0 10264040#0000000000000000
(1780160211.578000) can0 102CA040#0000000000000F00
(1780160211.582000) can0 10220040#1000000040080000
(1780160211.587000) can0 10230040#0000000000000000
(1780160211.606000) can0 1022E040#2000000020000000
(1780160211.606000) can0 10240040#83FE880100D70FFD
(1780160211.607000) can0 102C0040#803C96B503
(1780160211.607000) can0 10754040#040400
(1780160211.609000) can0 10242040#02
# tx t=163.826s 10304058#96B501 note=native source 0x58 DIC/icon traffic captured with IPC connected
(1780160211.623000) can0 10304058#96B501
# tx t=163.842s 13FFE058# note=SDM/source 0x58 companion presence during TPMS OK/dismiss probe
(1780160211.639000) can0 13FFE058#
# tx t=163.890s 10210040#0000800000008000 note=native BCM/body base status from IPC_disconnected capture
(1780160211.686000) can0 10210040#0000800000008000
# tx t=163.938s 10304058#96B501 note=native source 0x58 DIC/icon traffic captured with IPC connected
(1780160211.734000) can0 10304058#96B501
# tx t=163.985s 13FFE040# note=native fake BCM/source 0x40 presence, captured-like cadence
# tx t=163.986s 10210040#0000800000008000 note=native BCM/body base status from IPC_disconnected capture
(1780160211.782000) can0 13FFE040#
(1780160211.782000) can0 10210040#0000800000008000
# tx t=164.033s 10230040#1000000010000000 note=native BCM/body 10230040 captured counter/state cycle variant 2/4
# tx t=164.033s 1022E040#3000000030000000 note=native BCM/body 1022E040 key-on counter/state cycle variant 3/3
(1780160211.830000) can0 10230040#1000000010000000
(1780160211.830000) can0 1022E040#3000000030000000
# tx t=164.049s 10304058#96B501 note=native source 0x58 DIC/icon traffic captured with IPC connected
(1780160211.845000) can0 10304058#96B501
# tx t=164.081s 10210040#0000800000008000 note=native BCM/body base status from IPC_disconnected capture
(1780160211.877000) can0 10210040#0000800000008000
(1780160211.886000) can0 13FFE060#
# tx t=164.160s 10304058#96B501 note=native source 0x58 DIC/icon traffic captured with IPC connected
(1780160211.956000) can0 10304058#96B501
# tx t=164.192s 10210040#0000800000008000 note=native BCM/body base status from IPC_disconnected capture
# tx t=164.192s 10438040#0B note=TPMS dismiss HMI DLC-1 button candidate 0x0B
(1780160211.988000) can0 10210040#0000800000008000
(1780160211.989000) can0 10438040#0B
# tx t=164.271s 10304058#96B501 note=native source 0x58 DIC/icon traffic captured with IPC connected
(1780160212.068000) can0 10304058#96B501
# tx t=164.287s 10210040#0000800000008000 note=native BCM/body base status from IPC_disconnected capture
# tx t=164.288s 10230040#2000000020000000 note=native BCM/body 10230040 captured counter/state cycle variant 3/4
# tx t=164.288s 1022E040#1000000010000000 note=native BCM/body 1022E040 key-on counter/state cycle variant 1/3
(1780160212.084000) can0 10210040#0000800000008000
(1780160212.084000) can0 10230040#2000000020000000
(1780160212.084000) can0 1022E040#1000000010000000
# tx t=164.319s 10438040#00 note=TPMS dismiss HMI DLC-1 release
(1780160212.116000) can0 10438040#00
# tx t=164.367s 10304058#96B501 note=native source 0x58 DIC/icon traffic captured with IPC connected
(1780160212.163000) can0 10304058#96B501
