# cantool live-reload TX/RX capture bitrate=33333.333 fclk=170000000 brp=255 prop=1 phase1=13 phase2=5 sjw=4
# live-reload file=E:\Projects\opel_corsa_e\send_profile.can
# live-reload loaded rows=113 active=0 file=E:\Projects\opel_corsa_e\send_profile.can
(1780167049.072000) can0 13FFE060#
(1780167049.390000) can0 10244060#06
(1780167050.262000) can0 13FFE060#
(1780167051.458000) can0 13FFE060#
(1780167051.536000) can0 62C#0040000000000000
(1780167052.642000) can0 13FFE060#
(1780167053.827000) can0 13FFE060#
(1780167054.385000) can0 10244060#06
(1780167054.546000) can0 62C#0040000000000000
(1780167055.020000) can0 13FFE060#
(1780167056.208000) can0 13FFE060#
(1780167057.407000) can0 13FFE060#
(1780167057.561000) can0 62C#0040000000000000
(1780167058.606000) can0 13FFE060#
(1780167059.398000) can0 10244060#06
(1780167059.806000) can0 13FFE060#
# live-reload loaded rows=113 active=1 file=E:\Projects\opel_corsa_e\send_profile.can
# tx t=016.824s 10210040#1900000000000000 note=live speed_100_kmh_candidate
(1780167060.116000) can0 10210040#1900000000000000
(1780167060.146000) can0 10244060#02
(1780167060.507000) can0 62C#0040000000000000
# tx t=017.328s 10210040#1900000000000000 note=live speed_100_kmh_candidate
(1780167060.619000) can0 10210040#1900000000000000
(1780167061.005000) can0 13FFE060#
# tx t=017.833s 10210040#1900000000000000 note=live speed_100_kmh_candidate
(1780167061.124000) can0 10210040#1900000000000000
# tx t=018.326s 10210040#1900000000000000 note=live speed_100_kmh_candidate
(1780167061.617000) can0 10210040#1900000000000000
# tx t=018.836s 10210040#1900000000000000 note=live speed_100_kmh_candidate
(1780167062.127000) can0 10210040#1900000000000000
(1780167062.205000) can0 13FFE060#
# tx t=019.327s 10210040#1900000000000000 note=live speed_100_kmh_candidate
(1780167062.619000) can0 10210040#1900000000000000
# tx t=019.835s 10210040#1900000000000000 note=live speed_100_kmh_candidate
(1780167063.127000) can0 10210040#1900000000000000
(1780167063.405000) can0 13FFE060#
(1780167063.520000) can0 62C#0040000000000000
# tx t=020.324s 10210040#1900000000000000 note=live speed_100_kmh_candidate
(1780167063.616000) can0 10210040#1900000000000000
# tx t=020.830s 10210040#1900000000000000 note=live speed_100_kmh_candidate
(1780167064.122000) can0 10210040#1900000000000000
(1780167064.354000) can0 10244060#02
(1780167064.605000) can0 13FFE060#
# tx t=021.328s 10210040#1900000000000000 note=live speed_100_kmh_candidate
(1780167064.620000) can0 10210040#1900000000000000
# live-reload loaded rows=113 active=1 file=E:\Projects\opel_corsa_e\send_profile.can
# tx t=021.738s 10210040#2000000000000000 note=live about 133 kmh confirmed
(1780167065.030000) can0 10210040#2000000000000000
# tx t=022.247s 10210040#2000000000000000 note=live about 133 kmh confirmed
(1780167065.539000) can0 10210040#2000000000000000
(1780167065.803000) can0 13FFE060#
# tx t=022.742s 10210040#2000000000000000 note=live about 133 kmh confirmed
(1780167066.033000) can0 10210040#2000000000000000
(1780167066.511000) can0 62C#0040000000000000
# tx t=023.251s 10210040#2000000000000000 note=live about 133 kmh confirmed
(1780167066.543000) can0 10210040#2000000000000000
(1780167067.003000) can0 13FFE060#
# tx t=023.745s 10210040#2000000000000000 note=live about 133 kmh confirmed
(1780167067.036000) can0 10210040#2000000000000000
# tx t=024.251s 10210040#2000000000000000 note=live about 133 kmh confirmed
(1780167067.542000) can0 10210040#2000000000000000
# live-reload loaded rows=113 active=0 file=E:\Projects\opel_corsa_e\send_profile.can
(1780167068.254000) can0 13FFE060#
# live-reload loaded rows=113 active=1 file=E:\Projects\opel_corsa_e\send_profile.can
# tx t=025.834s 10210040#1900000000000000 note=live speed_100_kmh_candidate
(1780167069.125000) can0 10210040#1900000000000000
(1780167069.351000) can0 10244060#02
(1780167069.407000) can0 13FFE060#
(1780167069.503000) can0 62C#0040000000000000
# tx t=026.336s 10210040#1900000000000000 note=live speed_100_kmh_candidate
(1780167069.628000) can0 10210040#1900000000000000
# tx t=026.839s 10210040#1900000000000000 note=live speed_100_kmh_candidate
(1780167070.130000) can0 10210040#1900000000000000
(1780167070.482000) can0 10308060#000002
(1780167070.606000) can0 13FFE060#
# tx t=027.347s 10210040#1900000000000000 note=live speed_100_kmh_candidate
(1780167070.638000) can0 10210040#1900000000000000
# tx t=027.837s 10210040#1900000000000000 note=live speed_100_kmh_candidate
(1780167071.129000) can0 10210040#1900000000000000
# tx t=028.345s 10210040#1900000000000000 note=live speed_100_kmh_candidate
(1780167071.637000) can0 10210040#1900000000000000
(1780167071.800000) can0 13FFE060#
# tx t=028.845s 10210040#1900000000000000 note=live speed_100_kmh_candidate
(1780167072.137000) can0 10210040#1900000000000000
(1780167072.515000) can0 62C#0040000000000000
# tx t=029.335s 10210040#1900000000000000 note=live speed_100_kmh_candidate
(1780167072.627000) can0 10210040#1900000000000000
(1780167073.002000) can0 13FFE060#
# tx t=029.835s 10210040#1900000000000000 note=live speed_100_kmh_candidate
(1780167073.127000) can0 10210040#1900000000000000
# tx t=030.339s 10210040#1900000000000000 note=live speed_100_kmh_candidate
(1780167073.630000) can0 10210040#1900000000000000
# tx t=030.844s 10210040#1900000000000000 note=live speed_100_kmh_candidate
(1780167074.136000) can0 10210040#1900000000000000
(1780167074.199000) can0 13FFE060#
(1780167074.354000) can0 10244060#02
# tx t=031.344s 10210040#1900000000000000 note=live speed_100_kmh_candidate
(1780167074.635000) can0 10210040#1900000000000000
# tx t=031.848s 10210040#1900000000000000 note=live speed_100_kmh_candidate
(1780167075.139000) can0 10210040#1900000000000000
(1780167075.399000) can0 13FFE060#
(1780167075.514000) can0 62C#0040000000000000
# tx t=032.334s 10210040#1900000000000000 note=live speed_100_kmh_candidate
(1780167075.626000) can0 10210040#1900000000000000
# tx t=032.837s 10210040#1900000000000000 note=live speed_100_kmh_candidate
(1780167076.128000) can0 10210040#1900000000000000
(1780167076.598000) can0 13FFE060#
# tx t=033.337s 10210040#1900000000000000 note=live speed_100_kmh_candidate
(1780167076.629000) can0 10210040#1900000000000000
# tx t=033.841s 10210040#1900000000000000 note=live speed_100_kmh_candidate
(1780167077.132000) can0 10210040#1900000000000000
# tx t=034.346s 10210040#1900000000000000 note=live speed_100_kmh_candidate
(1780167077.638000) can0 10210040#1900000000000000
(1780167077.797000) can0 13FFE060#
# tx t=034.849s 10210040#1900000000000000 note=live speed_100_kmh_candidate
(1780167078.140000) can0 10210040#1900000000000000
(1780167078.498000) can0 62C#0040000000000000
# tx t=035.339s 10210040#1900000000000000 note=live speed_100_kmh_candidate
(1780167078.631000) can0 10210040#1900000000000000
(1780167079.009000) can0 13FFE060#
# tx t=035.846s 10210040#1900000000000000 note=live speed_100_kmh_candidate
(1780167079.137000) can0 10210040#1900000000000000
(1780167079.357000) can0 10244060#02
# tx t=036.335s 10210040#1900000000000000 note=live speed_100_kmh_candidate
(1780167079.627000) can0 10210040#1900000000000000
# tx t=036.842s 10210040#1900000000000000 note=live speed_100_kmh_candidate
(1780167080.134000) can0 10210040#1900000000000000
(1780167080.196000) can0 13FFE060#
# tx t=037.346s 10210040#1900000000000000 note=live speed_100_kmh_candidate
(1780167080.638000) can0 10210040#1900000000000000
# tx t=037.834s 10210040#1900000000000000 note=live speed_100_kmh_candidate
(1780167081.125000) can0 10210040#1900000000000000
(1780167081.408000) can0 13FFE060#
(1780167081.503000) can0 62C#0040000000000000
# tx t=038.337s 10210040#1900000000000000 note=live speed_100_kmh_candidate
(1780167081.629000) can0 10210040#1900000000000000
# tx t=038.839s 10210040#1900000000000000 note=live speed_100_kmh_candidate
(1780167082.130000) can0 10210040#1900000000000000
(1780167082.604000) can0 13FFE060#
# tx t=039.345s 10210040#1900000000000000 note=live speed_100_kmh_candidate
(1780167082.637000) can0 10210040#1900000000000000
# tx t=039.834s 10210040#1900000000000000 note=live speed_100_kmh_candidate
(1780167083.125000) can0 10210040#1900000000000000
# live-reload loaded rows=113 active=1 file=E:\Projects\opel_corsa_e\send_profile.can
# tx t=040.054s 10210040#1900000000000000 note=live speed_100_kmh_candidate - shows about 106 kmh
(1780167083.346000) can0 10210040#1900000000000000
(1780167083.794000) can0 13FFE060#
# tx t=040.560s 10210040#1900000000000000 note=live speed_100_kmh_candidate - shows about 106 kmh
(1780167083.852000) can0 10210040#1900000000000000
# tx t=041.066s 10210040#1900000000000000 note=live speed_100_kmh_candidate - shows about 106 kmh
(1780167084.357000) can0 10244060#02
(1780167084.358000) can0 10210040#1900000000000000
(1780167084.495000) can0 62C#0040000000000000
# tx t=041.555s 10210040#1900000000000000 note=live speed_100_kmh_candidate - shows about 106 kmh
(1780167084.847000) can0 10210040#1900000000000000
(1780167085.007000) can0 13FFE060#
# tx t=042.062s 10210040#1900000000000000 note=live speed_100_kmh_candidate - shows about 106 kmh
(1780167085.354000) can0 10210040#1900000000000000
# tx t=042.567s 10210040#1900000000000000 note=live speed_100_kmh_candidate - shows about 106 kmh
(1780167085.859000) can0 10210040#1900000000000000
(1780167086.206000) can0 13FFE060#
# tx t=043.057s 10210040#1900000000000000 note=live speed_100_kmh_candidate - shows about 106 kmh
(1780167086.349000) can0 10210040#1900000000000000
# live-reload loaded rows=113 active=1 file=E:\Projects\opel_corsa_e\send_profile.can
# tx t=043.122s 10210040#0A00000000000000 note=live speed_40_kmh_candidate
(1780167086.413000) can0 10210040#0A00000000000000
# tx t=043.624s 10210040#0A00000000000000 note=live speed_40_kmh_candidate
(1780167086.916000) can0 10210040#0A00000000000000
(1780167087.392000) can0 13FFE060#
# tx t=044.129s 10210040#0A00000000000000 note=live speed_40_kmh_candidate
(1780167087.421000) can0 10210040#0A00000000000000
(1780167087.493000) can0 62C#0040000000000000
# tx t=044.635s 10210040#0A00000000000000 note=live speed_40_kmh_candidate
(1780167087.926000) can0 10210040#0A00000000000000
# tx t=045.123s 10210040#0A00000000000000 note=live speed_40_kmh_candidate
(1780167088.415000) can0 10210040#0A00000000000000
(1780167088.604000) can0 13FFE060#
# tx t=045.629s 10210040#0A00000000000000 note=live speed_40_kmh_candidate
(1780167088.920000) can0 10210040#0A00000000000000
(1780167089.341000) can0 10244060#02
# tx t=046.132s 10210040#0A00000000000000 note=live speed_40_kmh_candidate
(1780167089.424000) can0 10210040#0A00000000000000
(1780167089.803000) can0 13FFE060#
# tx t=046.623s 10210040#0A00000000000000 note=live speed_40_kmh_candidate
(1780167089.914000) can0 10210040#0A00000000000000
# tx t=047.128s 10210040#0A00000000000000 note=live speed_40_kmh_candidate
(1780167090.420000) can0 10210040#0A00000000000000
(1780167090.492000) can0 62C#0040000000000000
# tx t=047.637s 10210040#0A00000000000000 note=live speed_40_kmh_candidate
(1780167090.928000) can0 10210040#0A00000000000000
(1780167090.991000) can0 13FFE060#
# tx t=048.123s 10210040#0A00000000000000 note=live speed_40_kmh_candidate
(1780167091.415000) can0 10210040#0A00000000000000
# tx t=048.626s 10210040#0A00000000000000 note=live speed_40_kmh_candidate
(1780167091.918000) can0 10210040#0A00000000000000
(1780167092.202000) can0 13FFE060#
# live-reload loaded rows=113 active=1 file=E:\Projects\opel_corsa_e\send_profile.can
# tx t=048.975s 10210040#0A00000000000000 note=live speed_40_kmh_candidate - shows 35
(1780167092.267000) can0 10210040#0A00000000000000
# tx t=049.479s 10210040#0A00000000000000 note=live speed_40_kmh_candidate - shows 35
(1780167092.771000) can0 10210040#0A00000000000000
# tx t=049.986s 10210040#0A00000000000000 note=live speed_40_kmh_candidate - shows 35
(1780167093.278000) can0 10210040#0A00000000000000
(1780167093.403000) can0 13FFE060#
(1780167093.497000) can0 62C#0040000000000000
# tx t=050.475s 10210040#0A00000000000000 note=live speed_40_kmh_candidate - shows 35
(1780167093.767000) can0 10210040#0A00000000000000
# tx t=050.982s 10210040#0A00000000000000 note=live speed_40_kmh_candidate - shows 35
(1780167094.273000) can0 10210040#0A00000000000000
(1780167094.339000) can0 10244060#02
(1780167094.589000) can0 13FFE060#
# tx t=051.487s 10210040#0A00000000000000 note=live speed_40_kmh_candidate - shows 35
(1780167094.779000) can0 10210040#0A00000000000000
# live-reload loaded rows=113 active=1 file=E:\Projects\opel_corsa_e\send_profile.can
# tx t=051.770s 10210040#0F00000000000000 note=live speed_60_kmh_candidate
(1780167095.062000) can0 10210040#0F00000000000000
# tx t=052.277s 10210040#0F00000000000000 note=live speed_60_kmh_candidate
(1780167095.569000) can0 10210040#0F00000000000000
(1780167095.791000) can0 13FFE060#
# tx t=052.784s 10210040#0F00000000000000 note=live speed_60_kmh_candidate
(1780167096.075000) can0 10210040#0F00000000000000
(1780167096.489000) can0 62C#0040000000000000
# tx t=053.272s 10210040#0F00000000000000 note=live speed_60_kmh_candidate
(1780167096.564000) can0 10210040#0F00000000000000
(1780167097.003000) can0 13FFE060#
# tx t=053.776s 10210040#0F00000000000000 note=live speed_60_kmh_candidate
(1780167097.067000) can0 10210040#0F00000000000000
# tx t=054.279s 10210040#0F00000000000000 note=live speed_60_kmh_candidate
(1780167097.571000) can0 10210040#0F00000000000000
# tx t=054.786s 10210040#0F00000000000000 note=live speed_60_kmh_candidate
(1780167098.077000) can0 10210040#0F00000000000000
(1780167098.187000) can0 13FFE060#
# tx t=055.274s 10210040#0F00000000000000 note=live speed_60_kmh_candidate
(1780167098.566000) can0 10210040#0F00000000000000
# tx t=055.781s 10210040#0F00000000000000 note=live speed_60_kmh_candidate
(1780167099.072000) can0 10210040#0F00000000000000
(1780167099.337000) can0 10244060#02
(1780167099.386000) can0 13FFE060#
(1780167099.488000) can0 62C#0040000000000000
# tx t=056.284s 10210040#0F00000000000000 note=live speed_60_kmh_candidate
(1780167099.576000) can0 10210040#0F00000000000000
# tx t=056.775s 10210040#0F00000000000000 note=live speed_60_kmh_candidate
(1780167100.066000) can0 10210040#0F00000000000000
# tx t=057.279s 10210040#0F00000000000000 note=live speed_60_kmh_candidate
(1780167100.571000) can0 10210040#0F00000000000000
(1780167100.601000) can0 13FFE060#
# tx t=057.785s 10210040#0F00000000000000 note=live speed_60_kmh_candidate
(1780167101.076000) can0 10210040#0F00000000000000
# tx t=058.274s 10210040#0F00000000000000 note=live speed_60_kmh_candidate
(1780167101.566000) can0 10210040#0F00000000000000
(1780167101.786000) can0 13FFE060#
# tx t=058.779s 10210040#0F00000000000000 note=live speed_60_kmh_candidate
(1780167102.070000) can0 10210040#0F00000000000000
(1780167102.486000) can0 62C#0040000000000000
# tx t=059.282s 10210040#0F00000000000000 note=live speed_60_kmh_candidate
(1780167102.574000) can0 10210040#0F00000000000000
(1780167102.985000) can0 13FFE060#
# tx t=059.771s 10210040#0F00000000000000 note=live speed_60_kmh_candidate
(1780167103.062000) can0 10210040#0F00000000000000
# tx t=060.275s 10210040#0F00000000000000 note=live speed_60_kmh_candidate
(1780167103.567000) can0 10210040#0F00000000000000
# tx t=060.780s 10210040#0F00000000000000 note=live speed_60_kmh_candidate
(1780167104.071000) can0 10210040#0F00000000000000
(1780167104.198000) can0 13FFE060#
(1780167104.334000) can0 10244060#02
# tx t=061.271s 10210040#0F00000000000000 note=live speed_60_kmh_candidate
(1780167104.563000) can0 10210040#0F00000000000000
# tx t=061.777s 10210040#0F00000000000000 note=live speed_60_kmh_candidate
(1780167105.068000) can0 10210040#0F00000000000000
(1780167105.384000) can0 13FFE060#
(1780167105.485000) can0 62C#0040000000000000
# tx t=062.282s 10210040#0F00000000000000 note=live speed_60_kmh_candidate
(1780167105.574000) can0 10210040#0F00000000000000
# tx t=062.773s 10210040#0F00000000000000 note=live speed_60_kmh_candidate
(1780167106.064000) can0 10210040#0F00000000000000
# tx t=063.275s 10210040#0F00000000000000 note=live speed_60_kmh_candidate
(1780167106.567000) can0 10210040#0F00000000000000
(1780167106.599000) can0 13FFE060#
# tx t=063.778s 10210040#0F00000000000000 note=live speed_60_kmh_candidate
(1780167107.069000) can0 10210040#0F00000000000000
# tx t=064.284s 10210040#0F00000000000000 note=live speed_60_kmh_candidate
(1780167107.576000) can0 10210040#0F00000000000000
(1780167107.797000) can0 13FFE060#
# tx t=064.775s 10210040#0F00000000000000 note=live speed_60_kmh_candidate
(1780167108.066000) can0 10210040#0F00000000000000
(1780167108.483000) can0 62C#0040000000000000
# tx t=065.280s 10210040#0F00000000000000 note=live speed_60_kmh_candidate
(1780167108.572000) can0 10210040#0F00000000000000
(1780167108.982000) can0 13FFE060#
# tx t=065.785s 10210040#0F00000000000000 note=live speed_60_kmh_candidate
(1780167109.076000) can0 10210040#0F00000000000000
(1780167109.332000) can0 10244060#02
# tx t=066.276s 10210040#0F00000000000000 note=live speed_60_kmh_candidate
(1780167109.568000) can0 10210040#0F00000000000000
# tx t=066.782s 10210040#0F00000000000000 note=live speed_60_kmh_candidate
(1780167110.073000) can0 10210040#0F00000000000000
(1780167110.181000) can0 13FFE060#
# tx t=067.272s 10210040#0F00000000000000 note=live speed_60_kmh_candidate
(1780167110.564000) can0 10210040#0F00000000000000
# live-reload loaded rows=113 active=1 file=E:\Projects\opel_corsa_e\send_profile.can
# tx t=067.336s 10210040#0F00000000000000 note=live speed_60_kmh_candidate - shows 66 kmh
(1780167110.628000) can0 10210040#0F00000000000000
# tx t=067.841s 10210040#0F00000000000000 note=live speed_60_kmh_candidate - shows 66 kmh
(1780167111.132000) can0 10210040#0F00000000000000
(1780167111.384000) can0 13FFE060#
(1780167111.482000) can0 62C#0040000000000000
# tx t=068.346s 10210040#0F00000000000000 note=live speed_60_kmh_candidate - shows 66 kmh
(1780167111.638000) can0 10210040#0F00000000000000
# tx t=068.851s 10210040#0F00000000000000 note=live speed_60_kmh_candidate - shows 66 kmh
(1780167112.142000) can0 10210040#0F00000000000000
(1780167112.585000) can0 13FFE060#
# tx t=069.342s 10210040#0F00000000000000 note=live speed_60_kmh_candidate - shows 66 kmh
(1780167112.634000) can0 10210040#0F00000000000000
# tx t=069.848s 10210040#0F00000000000000 note=live speed_60_kmh_candidate - shows 66 kmh
(1780167113.139000) can0 10210040#0F00000000000000
# tx t=070.351s 10210040#0F00000000000000 note=live speed_60_kmh_candidate - shows 66 kmh
(1780167113.643000) can0 10210040#0F00000000000000
(1780167113.779000) can0 13FFE060#
# tx t=070.840s 10210040#0F00000000000000 note=live speed_60_kmh_candidate - shows 66 kmh
(1780167114.131000) can0 10210040#0F00000000000000
(1780167114.329000) can0 10244060#02
(1780167114.480000) can0 62C#0040000000000000
# tx t=071.345s 10210040#0F00000000000000 note=live speed_60_kmh_candidate - shows 66 kmh
(1780167114.637000) can0 10210040#0F00000000000000
(1780167114.982000) can0 13FFE060#
# tx t=071.850s 10210040#0F00000000000000 note=live speed_60_kmh_candidate - shows 66 kmh
(1780167115.141000) can0 10210040#0F00000000000000
# tx t=072.338s 10210040#0F00000000000000 note=live speed_60_kmh_candidate - shows 66 kmh
(1780167115.630000) can0 10210040#0F00000000000000
# tx t=072.842s 10210040#0F00000000000000 note=live speed_60_kmh_candidate - shows 66 kmh
(1780167116.134000) can0 10210040#0F00000000000000
(1780167116.178000) can0 13FFE060#
# live-reload loaded rows=113 active=1 file=E:\Projects\opel_corsa_e\send_profile.can
# tx t=072.937s 10210040#0A00000000000000 note=live speed_40_kmh_candidate - shows 35 kmh
(1780167116.229000) can0 10210040#0A00000000000000
# tx t=073.442s 10210040#0A00000000000000 note=live speed_40_kmh_candidate - shows 35 kmh
(1780167116.734000) can0 10210040#0A00000000000000
# tx t=073.947s 10210040#0A00000000000000 note=live speed_40_kmh_candidate - shows 35 kmh
(1780167117.238000) can0 10210040#0A00000000000000
(1780167117.377000) can0 13FFE060#
(1780167117.491000) can0 62C#0040000000000000
# tx t=074.453s 10210040#0A00000000000000 note=live speed_40_kmh_candidate - shows 35 kmh
(1780167117.744000) can0 10210040#0A00000000000000
# tx t=074.941s 10210040#0A00000000000000 note=live speed_40_kmh_candidate - shows 35 kmh
(1780167118.232000) can0 10210040#0A00000000000000
(1780167118.581000) can0 13FFE060#
# tx t=075.448s 10210040#0A00000000000000 note=live speed_40_kmh_candidate - shows 35 kmh
(1780167118.740000) can0 10210040#0A00000000000000
# tx t=075.938s 10210040#0A00000000000000 note=live speed_40_kmh_candidate - shows 35 kmh
(1780167119.229000) can0 10210040#0A00000000000000
(1780167119.327000) can0 10244060#02
# tx t=076.444s 10210040#0A00000000000000 note=live speed_40_kmh_candidate - shows 35 kmh
(1780167119.736000) can0 10210040#0A00000000000000
(1780167119.776000) can0 13FFE060#
# tx t=076.951s 10210040#0A00000000000000 note=live speed_40_kmh_candidate - shows 35 kmh
(1780167120.242000) can0 10210040#0A00000000000000
(1780167120.477000) can0 62C#0040000000000000
# tx t=077.442s 10210040#0A00000000000000 note=live speed_40_kmh_candidate - shows 35 kmh
(1780167120.733000) can0 10210040#0A00000000000000
(1780167120.984000) can0 13FFE060#
# live-reload loaded rows=113 active=1 file=E:\Projects\opel_corsa_e\send_profile.can
# tx t=077.786s 10210040#0800000000000000 note=live speed_32_kmh_candidate
(1780167121.078000) can0 10210040#0800000000000000
# tx t=078.289s 10210040#0800000000000000 note=live speed_32_kmh_candidate
(1780167121.581000) can0 10210040#0800000000000000
# tx t=078.793s 10210040#0800000000000000 note=live speed_32_kmh_candidate
(1780167122.084000) can0 10210040#0800000000000000
(1780167122.180000) can0 13FFE060#
# tx t=079.296s 10210040#0800000000000000 note=live speed_32_kmh_candidate
(1780167122.588000) can0 10210040#0800000000000000
# tx t=079.800s 10210040#0800000000000000 note=live speed_32_kmh_candidate
(1780167123.092000) can0 10210040#0800000000000000
(1780167123.375000) can0 13FFE060#
(1780167123.476000) can0 62C#0040000000000000
# tx t=080.291s 10210040#0800000000000000 note=live speed_32_kmh_candidate
(1780167123.583000) can0 10210040#0800000000000000
# tx t=080.798s 10210040#0800000000000000 note=live speed_32_kmh_candidate
(1780167124.090000) can0 10210040#0800000000000000
(1780167124.324000) can0 10244060#02
(1780167124.574000) can0 13FFE060#
# tx t=081.288s 10210040#0800000000000000 note=live speed_32_kmh_candidate
(1780167124.580000) can0 10210040#0800000000000000
# tx t=081.796s 10210040#0800000000000000 note=live speed_32_kmh_candidate
(1780167125.087000) can0 10210040#0800000000000000
# tx t=082.300s 10210040#0800000000000000 note=live speed_32_kmh_candidate
(1780167125.592000) can0 10210040#0800000000000000
(1780167125.781000) can0 13FFE060#
# tx t=082.801s 10210040#0800000000000000 note=live speed_32_kmh_candidate
(1780167126.092000) can0 10210040#0800000000000000
(1780167126.474000) can0 62C#0040000000000000
# tx t=083.286s 10210040#0800000000000000 note=live speed_32_kmh_candidate
(1780167126.578000) can0 10210040#0800000000000000
(1780167126.986000) can0 13FFE060#
# tx t=083.790s 10210040#0800000000000000 note=live speed_32_kmh_candidate
(1780167127.081000) can0 10210040#0800000000000000
# tx t=084.295s 10210040#0800000000000000 note=live speed_32_kmh_candidate
(1780167127.587000) can0 10210040#0800000000000000
# tx t=084.795s 10210040#0800000000000000 note=live speed_32_kmh_candidate
(1780167128.087000) can0 10210040#0800000000000000
(1780167128.182000) can0 13FFE060#
# tx t=085.299s 10210040#0800000000000000 note=live speed_32_kmh_candidate
(1780167128.590000) can0 10210040#0800000000000000
# tx t=085.789s 10210040#0800000000000000 note=live speed_32_kmh_candidate
(1780167129.080000) can0 10210040#0800000000000000
(1780167129.334000) can0 10244060#02
(1780167129.371000) can0 13FFE060#
(1780167129.473000) can0 62C#0040000000000000
# tx t=086.296s 10210040#0800000000000000 note=live speed_32_kmh_candidate
(1780167129.588000) can0 10210040#0800000000000000
# tx t=086.802s 10210040#0800000000000000 note=live speed_32_kmh_candidate
(1780167130.093000) can0 10210040#0800000000000000
(1780167130.452000) can0 10308060#000002
(1780167130.571000) can0 13FFE060#
# tx t=087.293s 10210040#0800000000000000 note=live speed_32_kmh_candidate
(1780167130.585000) can0 10210040#0800000000000000
# tx t=087.794s 10210040#0800000000000000 note=live speed_32_kmh_candidate
(1780167131.086000) can0 10210040#0800000000000000
# tx t=088.298s 10210040#0800000000000000 note=live speed_32_kmh_candidate
(1780167131.589000) can0 10210040#0800000000000000
(1780167131.779000) can0 13FFE060#
# live-reload loaded rows=113 active=1 file=E:\Projects\opel_corsa_e\send_profile.can
# tx t=088.771s 10210040#0800000000000000 note=live speed_32_kmh_candidate - shows 36 kmh
(1780167132.063000) can0 10210040#0800000000000000
(1780167132.472000) can0 62C#0040000000000000
# tx t=089.275s 10210040#0800000000000000 note=live speed_32_kmh_candidate - shows 36 kmh
(1780167132.567000) can0 10210040#0800000000000000
(1780167132.976000) can0 13FFE060#
# tx t=089.780s 10210040#0800000000000000 note=live speed_32_kmh_candidate - shows 36 kmh
(1780167133.071000) can0 10210040#0800000000000000
# tx t=090.283s 10210040#0800000000000000 note=live speed_32_kmh_candidate - shows 36 kmh
(1780167133.575000) can0 10210040#0800000000000000
# tx t=090.774s 10210040#0800000000000000 note=live speed_32_kmh_candidate - shows 36 kmh
(1780167134.065000) can0 10210040#0800000000000000
(1780167134.169000) can0 13FFE060#
(1780167134.319000) can0 10244060#02
# tx t=091.276s 10210040#0800000000000000 note=live speed_32_kmh_candidate - shows 36 kmh
(1780167134.567000) can0 10210040#0800000000000000
# tx t=091.780s 10210040#0800000000000000 note=live speed_32_kmh_candidate - shows 36 kmh
(1780167135.072000) can0 10210040#0800000000000000
# live-reload loaded rows=113 active=1 file=E:\Projects\opel_corsa_e\send_profile.can
# tx t=092.066s 10210040#0A00000000000000 note=live speed_40_kmh_candidate - shows 35 kmh
(1780167135.358000) can0 10210040#0A00000000000000
(1780167135.369000) can0 13FFE060#
(1780167135.483000) can0 62C#0040000000000000
# tx t=092.571s 10210040#0A00000000000000 note=live speed_40_kmh_candidate - shows 35 kmh
(1780167135.863000) can0 10210040#0A00000000000000
# tx t=093.076s 10210040#0A00000000000000 note=live speed_40_kmh_candidate - shows 35 kmh
(1780167136.367000) can0 10210040#0A00000000000000
(1780167136.568000) can0 13FFE060#
# tx t=093.567s 10210040#0A00000000000000 note=live speed_40_kmh_candidate - shows 35 kmh
(1780167136.859000) can0 10210040#0A00000000000000
# tx t=094.073s 10210040#0A00000000000000 note=live speed_40_kmh_candidate - shows 35 kmh
(1780167137.364000) can0 10210040#0A00000000000000
(1780167137.776000) can0 13FFE060#
# tx t=094.579s 10210040#0A00000000000000 note=live speed_40_kmh_candidate - shows 35 kmh
(1780167137.871000) can0 10210040#0A00000000000000
# tx t=095.069s 10210040#0A00000000000000 note=live speed_40_kmh_candidate - shows 35 kmh
(1780167138.360000) can0 10210040#0A00000000000000
(1780167138.468000) can0 62C#0040000000000000
# tx t=095.573s 10210040#0A00000000000000 note=live speed_40_kmh_candidate - shows 35 kmh
(1780167138.865000) can0 10210040#0A00000000000000
(1780167138.967000) can0 13FFE060#
(1780167139.317000) can0 10244060#02
# tx t=096.081s 10210040#0A00000000000000 note=live speed_40_kmh_candidate - shows 35 kmh
(1780167139.373000) can0 10210040#0A00000000000000
# tx t=096.571s 10210040#0A00000000000000 note=live speed_40_kmh_candidate - shows 35 kmh
(1780167139.862000) can0 10210040#0A00000000000000
(1780167140.174000) can0 13FFE060#
# tx t=097.071s 10210040#0A00000000000000 note=live speed_40_kmh_candidate - shows 35 kmh
(1780167140.362000) can0 10210040#0A00000000000000
# tx t=097.574s 10210040#0A00000000000000 note=live speed_40_kmh_candidate - shows 35 kmh
(1780167140.866000) can0 10210040#0A00000000000000
# tx t=098.079s 10210040#0A00000000000000 note=live speed_40_kmh_candidate - shows 35 kmh
(1780167141.370000) can0 13FFE060#
(1780167141.371000) can0 10210040#0A00000000000000
(1780167141.467000) can0 62C#0040000000000000
# tx t=098.567s 10210040#0A00000000000000 note=live speed_40_kmh_candidate - shows 35 kmh
(1780167141.859000) can0 10210040#0A00000000000000
# tx t=099.073s 10210040#0A00000000000000 note=live speed_40_kmh_candidate - shows 35 kmh
(1780167142.364000) can0 10210040#0A00000000000000
(1780167142.565000) can0 13FFE060#
# tx t=099.573s 10210040#0A00000000000000 note=live speed_40_kmh_candidate - shows 35 kmh
(1780167142.865000) can0 10210040#0A00000000000000
# tx t=100.078s 10210040#0A00000000000000 note=live speed_40_kmh_candidate - shows 35 kmh
(1780167143.369000) can0 10210040#0A00000000000000
# live-reload loaded rows=113 active=1 file=E:\Projects\opel_corsa_e\send_profile.can
# tx t=100.490s 10210040#0A00000000000000 note=live speed_40_kmh_candidate - shows 44 kmh
(1780167143.781000) can0 13FFE060#
(1780167143.781000) can0 10210040#0A00000000000000
# tx t=100.997s 10210040#0A00000000000000 note=live speed_40_kmh_candidate - shows 44 kmh
(1780167144.288000) can0 10210040#0A00000000000000
(1780167144.319000) can0 10244060#02
(1780167144.477000) can0 62C#0040000000000000
# tx t=101.501s 10210040#0A00000000000000 note=live speed_40_kmh_candidate - shows 44 kmh
(1780167144.793000) can0 10210040#0A00000000000000
(1780167144.979000) can0 13FFE060#
# tx t=102.003s 10210040#0A00000000000000 note=live speed_40_kmh_candidate - shows 44 kmh
(1780167145.294000) can0 10210040#0A00000000000000
# tx t=102.490s 10210040#0A00000000000000 note=live speed_40_kmh_candidate - shows 44 kmh
(1780167145.781000) can0 10210040#0A00000000000000
(1780167146.163000) can0 13FFE060#
# tx t=102.995s 10210040#0A00000000000000 note=live speed_40_kmh_candidate - shows 44 kmh
(1780167146.286000) can0 10210040#0A00000000000000
# tx t=103.499s 10210040#0A00000000000000 note=live speed_40_kmh_candidate - shows 44 kmh
(1780167146.791000) can0 10210040#0A00000000000000
# tx t=103.990s 10210040#0A00000000000000 note=live speed_40_kmh_candidate - shows 44 kmh
(1780167147.281000) can0 10210040#0A00000000000000
# live-reload loaded rows=113 active=1 file=E:\Projects\opel_corsa_e\send_profile.can
# tx t=104.085s 10210040#0500000000000000 note=live speed_20_kmh_candidate
(1780167147.377000) can0 13FFE060#
(1780167147.377000) can0 10210040#0500000000000000
(1780167147.470000) can0 62C#0040000000000000
# tx t=104.587s 10210040#0500000000000000 note=live speed_20_kmh_candidate
(1780167147.879000) can0 10210040#0500000000000000
# tx t=105.092s 10210040#0500000000000000 note=live speed_20_kmh_candidate
(1780167148.383000) can0 10210040#0500000000000000
(1780167148.573000) can0 13FFE060#
# tx t=105.596s 10210040#0500000000000000 note=live speed_20_kmh_candidate
(1780167148.888000) can0 10210040#0500000000000000
(1780167149.312000) can0 10244060#02
# tx t=106.098s 10210040#0500000000000000 note=live speed_20_kmh_candidate
(1780167149.389000) can0 10210040#0500000000000000
(1780167149.767000) can0 13FFE060#
# tx t=106.601s 10210040#0500000000000000 note=live speed_20_kmh_candidate
(1780167149.892000) can0 10210040#0500000000000000
# tx t=107.092s 10210040#0500000000000000 note=live speed_20_kmh_candidate
(1780167150.383000) can0 10210040#0500000000000000
(1780167150.477000) can0 62C#0040000000000000
# tx t=107.597s 10210040#0500000000000000 note=live speed_20_kmh_candidate
(1780167150.889000) can0 10210040#0500000000000000
(1780167150.961000) can0 13FFE060#
# tx t=108.086s 10210040#0500000000000000 note=live speed_20_kmh_candidate
(1780167151.377000) can0 10210040#0500000000000000
# tx t=108.587s 10210040#0500000000000000 note=live speed_20_kmh_candidate
(1780167151.879000) can0 10210040#0500000000000000
(1780167152.161000) can0 13FFE060#
# tx t=109.091s 10210040#0500000000000000 note=live speed_20_kmh_candidate
(1780167152.382000) can0 10210040#0500000000000000
# tx t=109.596s 10210040#0500000000000000 note=live speed_20_kmh_candidate
(1780167152.888000) can0 10210040#0500000000000000
(1780167153.360000) can0 13FFE060#
# tx t=110.099s 10210040#0500000000000000 note=live speed_20_kmh_candidate
(1780167153.390000) can0 10210040#0500000000000000
(1780167153.461000) can0 62C#0040000000000000
# tx t=110.585s 10210040#0500000000000000 note=live speed_20_kmh_candidate
(1780167153.877000) can0 10210040#0500000000000000
(1780167154.316000) can0 10244060#02
# tx t=111.088s 10210040#0500000000000000 note=live speed_20_kmh_candidate
(1780167154.379000) can0 10210040#0500000000000000
# live-reload loaded rows=113 active=1 file=E:\Projects\opel_corsa_e\send_profile.can
# tx t=111.246s 10210040#0500000000000000 note=live speed_20_kmh_candidate - shows 22 kmh
(1780167154.537000) can0 10210040#0500000000000000
(1780167154.568000) can0 13FFE060#
# tx t=111.751s 10210040#0500000000000000 note=live speed_20_kmh_candidate - shows 22 kmh
(1780167155.042000) can0 10210040#0500000000000000
# tx t=112.257s 10210040#0500000000000000 note=live speed_20_kmh_candidate - shows 22 kmh
(1780167155.549000) can0 10210040#0500000000000000
(1780167155.771000) can0 13FFE060#
# tx t=112.762s 10210040#0500000000000000 note=live speed_20_kmh_candidate - shows 22 kmh
(1780167156.053000) can0 10210040#0500000000000000
(1780167156.464000) can0 62C#0040000000000000
# tx t=113.250s 10210040#0500000000000000 note=live speed_20_kmh_candidate - shows 22 kmh
(1780167156.542000) can0 10210040#0500000000000000
(1780167156.958000) can0 13FFE060#
# tx t=113.756s 10210040#0500000000000000 note=live speed_20_kmh_candidate - shows 22 kmh
(1780167157.048000) can0 10210040#0500000000000000
# tx t=114.246s 10210040#0500000000000000 note=live speed_20_kmh_candidate - shows 22 kmh
(1780167157.538000) can0 10210040#0500000000000000
# tx t=114.751s 10210040#0500000000000000 note=live speed_20_kmh_candidate - shows 22 kmh
(1780167158.043000) can0 10210040#0500000000000000
(1780167158.170000) can0 13FFE060#
# tx t=115.257s 10210040#0500000000000000 note=live speed_20_kmh_candidate - shows 22 kmh
(1780167158.549000) can0 10210040#0500000000000000
# tx t=115.748s 10210040#0500000000000000 note=live speed_20_kmh_candidate - shows 22 kmh
(1780167159.040000) can0 10210040#0500000000000000
(1780167159.323000) can0 10244060#02
(1780167159.357000) can0 13FFE060#
(1780167159.458000) can0 62C#0040000000000000
# tx t=116.253s 10210040#0500000000000000 note=live speed_20_kmh_candidate - shows 22 kmh
(1780167159.545000) can0 10210040#0500000000000000
# tx t=116.758s 10210040#0500000000000000 note=live speed_20_kmh_candidate - shows 22 kmh
(1780167160.050000) can0 10210040#0500000000000000
# live-reload loaded rows=113 active=1 file=E:\Projects\opel_corsa_e\send_profile.can
# tx t=116.855s 10210040#3000000000000000 note=live about 198 kmh confirmed
(1780167160.146000) can0 10210040#3000000000000000
(1780167160.556000) can0 13FFE060#
# tx t=117.360s 10210040#3000000000000000 note=live about 198 kmh confirmed
(1780167160.652000) can0 10210040#3000000000000000
# tx t=117.866s 10210040#3000000000000000 note=live about 198 kmh confirmed
(1780167161.157000) can0 10210040#3000000000000000
# tx t=118.355s 10210040#3000000000000000 note=live about 198 kmh confirmed
(1780167161.647000) can0 10210040#3000000000000000
(1780167161.755000) can0 13FFE060#
# tx t=118.862s 10210040#3000000000000000 note=live about 198 kmh confirmed
(1780167162.153000) can0 10210040#3000000000000000
(1780167162.468000) can0 62C#0040000000000000
# tx t=119.368s 10210040#3000000000000000 note=live about 198 kmh confirmed
(1780167162.660000) can0 10210040#3000000000000000
(1780167162.956000) can0 13FFE060#
# tx t=119.856s 10210040#3000000000000000 note=live about 198 kmh confirmed
(1780167163.147000) can0 10210040#3000000000000000
# tx t=120.362s 10210040#3000000000000000 note=live about 198 kmh confirmed
(1780167163.654000) can0 10210040#3000000000000000
# tx t=120.867s 10210040#3000000000000000 note=live about 198 kmh confirmed
(1780167164.158000) can0 13FFE060#
(1780167164.158000) can0 10210040#3000000000000000
(1780167164.314000) can0 10244060#02
# tx t=121.369s 10210040#3000000000000000 note=live about 198 kmh confirmed
(1780167164.661000) can0 10210040#3000000000000000
# tx t=121.859s 10210040#3000000000000000 note=live about 198 kmh confirmed
(1780167165.150000) can0 10210040#3000000000000000
(1780167165.354000) can0 13FFE060#
(1780167165.466000) can0 62C#0040000000000000
# tx t=122.365s 10210040#3000000000000000 note=live about 198 kmh confirmed
(1780167165.657000) can0 10210040#3000000000000000
# tx t=122.855s 10210040#3000000000000000 note=live about 198 kmh confirmed
(1780167166.146000) can0 10210040#3000000000000000
(1780167166.557000) can0 13FFE060#
# tx t=123.360s 10210040#3000000000000000 note=live about 198 kmh confirmed
(1780167166.652000) can0 10210040#3000000000000000
# tx t=123.867s 10210040#3000000000000000 note=live about 198 kmh confirmed
(1780167167.158000) can0 10210040#3000000000000000
# tx t=124.356s 10210040#3000000000000000 note=live about 198 kmh confirmed
(1780167167.648000) can0 10210040#3000000000000000
(1780167167.752000) can0 13FFE060#
# tx t=124.861s 10210040#3000000000000000 note=live about 198 kmh confirmed
(1780167168.152000) can0 10210040#3000000000000000
(1780167168.461000) can0 62C#0040000000000000
# tx t=125.358s 10210040#3000000000000000 note=live about 198 kmh confirmed
(1780167168.650000) can0 10210040#3000000000000000
(1780167168.965000) can0 13FFE060#
# tx t=125.863s 10210040#3000000000000000 note=live about 198 kmh confirmed
(1780167169.154000) can0 10210040#3000000000000000
(1780167169.312000) can0 10244060#02
# live-reload loaded rows=113 active=1 file=E:\Projects\opel_corsa_e\send_profile.can
# tx t=126.306s 10210040#3000000000000000 note=live about 198 kmh confirmed - shows 198 kmh
(1780167169.597000) can0 10210040#3000000000000000
# tx t=126.812s 10210040#3000000000000000 note=live about 198 kmh confirmed - shows 198 kmh
(1780167170.103000) can0 10210040#3000000000000000
(1780167170.167000) can0 13FFE060#
# tx t=127.317s 10210040#3000000000000000 note=live about 198 kmh confirmed - shows 198 kmh
(1780167170.609000) can0 10210040#3000000000000000
# tx t=127.809s 10210040#3000000000000000 note=live about 198 kmh confirmed - shows 198 kmh
(1780167171.101000) can0 10210040#3000000000000000
(1780167171.352000) can0 13FFE060#
(1780167171.452000) can0 62C#0040000000000000
# tx t=128.314s 10210040#3000000000000000 note=live about 198 kmh confirmed - shows 198 kmh
(1780167171.606000) can0 10210040#3000000000000000
# tx t=128.819s 10210040#3000000000000000 note=live about 198 kmh confirmed - shows 198 kmh
(1780167172.110000) can0 10210040#3000000000000000
(1780167172.552000) can0 13FFE060#
# tx t=129.308s 10210040#3000000000000000 note=live about 198 kmh confirmed - shows 198 kmh
(1780167172.600000) can0 10210040#3000000000000000
# live-reload loaded rows=113 active=1 file=E:\Projects\opel_corsa_e\send_profile.can
# tx t=129.373s 10210040#2000000000000000 note=live about 133 kmh confirmed
(1780167172.664000) can0 10210040#2000000000000000
# tx t=129.878s 10210040#2000000000000000 note=live about 133 kmh confirmed
(1780167173.169000) can0 10210040#2000000000000000
# tx t=130.380s 10210040#2000000000000000 note=live about 133 kmh confirmed
(1780167173.672000) can0 10210040#2000000000000000
(1780167173.765000) can0 13FFE060#
# tx t=130.883s 10210040#2000000000000000 note=live about 133 kmh confirmed
(1780167174.174000) can0 10210040#2000000000000000
(1780167174.300000) can0 10244060#02
(1780167174.455000) can0 62C#0040000000000000
# tx t=131.385s 10210040#2000000000000000 note=live about 133 kmh confirmed
(1780167174.677000) can0 10210040#2000000000000000
(1780167174.958000) can0 13FFE060#
# tx t=131.873s 10210040#2000000000000000 note=live about 133 kmh confirmed
(1780167175.164000) can0 10210040#2000000000000000
# tx t=132.376s 10210040#2000000000000000 note=live about 133 kmh confirmed
(1780167175.668000) can0 10210040#2000000000000000
(1780167176.148000) can0 13FFE060#
# tx t=132.879s 10210040#2000000000000000 note=live about 133 kmh confirmed
(1780167176.170000) can0 10210040#2000000000000000
# tx t=133.386s 10210040#2000000000000000 note=live about 133 kmh confirmed
(1780167176.678000) can0 10210040#2000000000000000
# tx t=133.874s 10210040#2000000000000000 note=live about 133 kmh confirmed
(1780167177.165000) can0 10210040#2000000000000000
(1780167177.354000) can0 13FFE060#
(1780167177.449000) can0 62C#0040000000000000
# tx t=134.377s 10210040#2000000000000000 note=live about 133 kmh confirmed
(1780167177.669000) can0 10210040#2000000000000000
# tx t=134.880s 10210040#2000000000000000 note=live about 133 kmh confirmed
(1780167178.172000) can0 10210040#2000000000000000
(1780167178.552000) can0 13FFE060#
# tx t=135.387s 10210040#2000000000000000 note=live about 133 kmh confirmed
(1780167178.679000) can0 10210040#2000000000000000
# tx t=135.874s 10210040#2000000000000000 note=live about 133 kmh confirmed
(1780167179.166000) can0 10210040#2000000000000000
(1780167179.297000) can0 10244060#02
# tx t=136.388s 10210040#2000000000000000 note=live about 133 kmh confirmed
(1780167179.680000) can0 10210040#2000000000000000
(1780167179.746000) can0 13FFE060#
# tx t=136.878s 10210040#2000000000000000 note=live about 133 kmh confirmed
(1780167180.169000) can0 10210040#2000000000000000
(1780167180.451000) can0 62C#0040000000000000
# tx t=137.382s 10210040#2000000000000000 note=live about 133 kmh confirmed
(1780167180.674000) can0 10210040#2000000000000000
(1780167180.958000) can0 13FFE060#
# tx t=137.888s 10210040#2000000000000000 note=live about 133 kmh confirmed
(1780167181.179000) can0 10210040#2000000000000000
# tx t=138.375s 10210040#2000000000000000 note=live about 133 kmh confirmed
(1780167181.667000) can0 10210040#2000000000000000
# live-reload loaded rows=113 active=1 file=E:\Projects\opel_corsa_e\send_profile.can
# tx t=138.817s 10210040#2000000000000000 note=live about 133 kmh confirmed - shows 134 kmh
(1780167182.108000) can0 10210040#2000000000000000
(1780167182.145000) can0 13FFE060#
# tx t=139.321s 10210040#2000000000000000 note=live about 133 kmh confirmed - shows 134 kmh
(1780167182.612000) can0 10210040#2000000000000000
# tx t=139.825s 10210040#2000000000000000 note=live about 133 kmh confirmed - shows 134 kmh
(1780167183.116000) can0 10210040#2000000000000000
(1780167183.345000) can0 13FFE060#
# tx t=140.326s 10210040#2000000000000000 note=live about 133 kmh confirmed - shows 134 kmh
(1780167183.617000) can0 10210040#2000000000000000
# tx t=140.826s 10210040#2000000000000000 note=live about 133 kmh confirmed - shows 134 kmh
(1780167184.118000) can0 10210040#2000000000000000
(1780167184.307000) can0 10244060#02
(1780167184.560000) can0 13FFE060#
# tx t=141.332s 10210040#2000000000000000 note=live about 133 kmh confirmed - shows 134 kmh
(1780167184.624000) can0 10210040#2000000000000000
# tx t=141.820s 10210040#2000000000000000 note=live about 133 kmh confirmed - shows 134 kmh
(1780167185.112000) can0 10210040#2000000000000000
# tx t=142.324s 10210040#2000000000000000 note=live about 133 kmh confirmed - shows 134 kmh
(1780167185.616000) can0 10210040#2000000000000000
(1780167185.744000) can0 13FFE060#
# tx t=142.828s 10210040#2000000000000000 note=live about 133 kmh confirmed - shows 134 kmh
(1780167186.120000) can0 10210040#2000000000000000
(1780167186.445000) can0 62C#0040000000000000
# tx t=143.320s 10210040#2000000000000000 note=live about 133 kmh confirmed - shows 134 kmh
(1780167186.612000) can0 10210040#2000000000000000
# live-reload loaded rows=113 active=1 file=E:\Projects\opel_corsa_e\send_profile.can
# tx t=143.417s 10210040#1400000000000000 note=live speed_80_kmh_candidate
(1780167186.708000) can0 10210040#1400000000000000
(1780167186.943000) can0 13FFE060#
# tx t=143.922s 10210040#1400000000000000 note=live speed_80_kmh_candidate
(1780167187.213000) can0 10210040#1400000000000000
# tx t=144.425s 10210040#1400000000000000 note=live speed_80_kmh_candidate
(1780167187.717000) can0 10210040#1400000000000000
(1780167188.142000) can0 13FFE060#
# tx t=144.931s 10210040#1400000000000000 note=live speed_80_kmh_candidate
(1780167188.222000) can0 10210040#1400000000000000
# tx t=145.420s 10210040#1400000000000000 note=live speed_80_kmh_candidate
(1780167188.712000) can0 10210040#1400000000000000
# tx t=145.923s 10210040#1400000000000000 note=live speed_80_kmh_candidate
(1780167189.215000) can0 10210040#1400000000000000
(1780167189.292000) can0 10244060#02
(1780167189.342000) can0 13FFE060#
(1780167189.443000) can0 62C#0040000000000000
# tx t=146.428s 10210040#1400000000000000 note=live speed_80_kmh_candidate
(1780167189.719000) can0 10210040#1400000000000000
# tx t=146.920s 10210040#1400000000000000 note=live speed_80_kmh_candidate
(1780167190.211000) can0 10210040#1400000000000000
(1780167190.430000) can0 10308060#000002
(1780167190.555000) can0 13FFE060#
# tx t=147.424s 10210040#1400000000000000 note=live speed_80_kmh_candidate
(1780167190.716000) can0 10210040#1400000000000000
# tx t=147.929s 10210040#1400000000000000 note=live speed_80_kmh_candidate
(1780167191.220000) can0 10210040#1400000000000000
# tx t=148.418s 10210040#1400000000000000 note=live speed_80_kmh_candidate
(1780167191.710000) can0 10210040#1400000000000000
(1780167191.741000) can0 13FFE060#
# tx t=148.922s 10210040#1400000000000000 note=live speed_80_kmh_candidate
(1780167192.213000) can0 10210040#1400000000000000
(1780167192.442000) can0 62C#0040000000000000
# tx t=149.427s 10210040#1400000000000000 note=live speed_80_kmh_candidate
(1780167192.718000) can0 10210040#1400000000000000
(1780167192.940000) can0 13FFE060#
# tx t=149.930s 10210040#1400000000000000 note=live speed_80_kmh_candidate
(1780167193.222000) can0 10210040#1400000000000000
# tx t=150.419s 10210040#1400000000000000 note=live speed_80_kmh_candidate
(1780167193.711000) can0 10210040#1400000000000000
(1780167194.154000) can0 13FFE060#
# tx t=150.925s 10210040#1400000000000000 note=live speed_80_kmh_candidate
(1780167194.217000) can0 10210040#1400000000000000
(1780167194.290000) can0 10244060#02
# tx t=151.432s 10210040#1400000000000000 note=live speed_80_kmh_candidate
(1780167194.724000) can0 10210040#1400000000000000
# live-reload loaded rows=113 active=1 file=E:\Projects\opel_corsa_e\send_profile.can
# tx t=151.560s 10210040#1400000000000000 note=live speed_80_kmh_candidate - shows 88 kmh
(1780167194.851000) can0 10210040#1400000000000000
# tx t=152.063s 10210040#1400000000000000 note=live speed_80_kmh_candidate - shows 88 kmh
(1780167195.354000) can0 13FFE060#
(1780167195.354000) can0 10210040#1400000000000000
(1780167195.449000) can0 62C#0040000000000000
# tx t=152.566s 10210040#1400000000000000 note=live speed_80_kmh_candidate - shows 88 kmh
(1780167195.858000) can0 10210040#1400000000000000
# tx t=153.070s 10210040#1400000000000000 note=live speed_80_kmh_candidate - shows 88 kmh
(1780167196.361000) can0 10210040#1400000000000000
(1780167196.551000) can0 13FFE060#
# tx t=153.575s 10210040#1400000000000000 note=live speed_80_kmh_candidate - shows 88 kmh
(1780167196.867000) can0 10210040#1400000000000000
# tx t=154.066s 10210040#1400000000000000 note=live speed_80_kmh_candidate - shows 88 kmh
(1780167197.357000) can0 10210040#1400000000000000
(1780167197.738000) can0 13FFE060#
# tx t=154.571s 10210040#1400000000000000 note=live speed_80_kmh_candidate - shows 88 kmh
(1780167197.863000) can0 10210040#1400000000000000
# live-reload loaded rows=113 active=1 file=E:\Projects\opel_corsa_e\send_profile.can
# tx t=154.636s 10210040#1000000000000000 note=live about 75 kmh confirmed
(1780167197.927000) can0 10210040#1000000000000000
# tx t=155.141s 10210040#1000000000000000 note=live about 75 kmh confirmed
(1780167198.433000) can0 10210040#1000000000000000
(1780167198.440000) can0 62C#0040000000000000
# tx t=155.640s 10210040#1000000000000000 note=live about 75 kmh confirmed
(1780167198.932000) can0 10210040#1000000000000000
(1780167198.938000) can0 13FFE060#
(1780167199.288000) can0 10244060#02
# tx t=156.145s 10210040#1000000000000000 note=live about 75 kmh confirmed
(1780167199.436000) can0 10210040#1000000000000000
# tx t=156.647s 10210040#1000000000000000 note=live about 75 kmh confirmed
(1780167199.939000) can0 10210040#1000000000000000
(1780167200.137000) can0 13FFE060#
# tx t=157.150s 10210040#1000000000000000 note=live about 75 kmh confirmed
(1780167200.441000) can0 10210040#1000000000000000
# tx t=157.638s 10210040#1000000000000000 note=live about 75 kmh confirmed
(1780167200.930000) can0 10210040#1000000000000000
(1780167201.340000) can0 13FFE060#
# tx t=158.144s 10210040#1000000000000000 note=live about 75 kmh confirmed
(1780167201.435000) can0 10210040#1000000000000000
(1780167201.437000) can0 62C#0040000000000000
# tx t=158.649s 10210040#1000000000000000 note=live about 75 kmh confirmed
(1780167201.941000) can0 10210040#1000000000000000
# tx t=159.139s 10210040#1000000000000000 note=live about 75 kmh confirmed
(1780167202.430000) can0 10210040#1000000000000000
(1780167202.535000) can0 13FFE060#
# tx t=159.645s 10210040#1000000000000000 note=live about 75 kmh confirmed
(1780167202.937000) can0 10210040#1000000000000000
# tx t=160.151s 10210040#1000000000000000 note=live about 75 kmh confirmed
(1780167203.442000) can0 10210040#1000000000000000
(1780167203.735000) can0 13FFE060#
# tx t=160.641s 10210040#1000000000000000 note=live about 75 kmh confirmed
(1780167203.933000) can0 10210040#1000000000000000
(1780167204.285000) can0 10244060#02
# tx t=161.143s 10210040#1000000000000000 note=live about 75 kmh confirmed
(1780167204.434000) can0 10210040#1000000000000000
(1780167204.436000) can0 62C#0040000000000000
# tx t=161.647s 10210040#1000000000000000 note=live about 75 kmh confirmed
(1780167204.939000) can0 13FFE060#
(1780167204.939000) can0 10210040#1000000000000000
# tx t=162.136s 10210040#1000000000000000 note=live about 75 kmh confirmed
(1780167205.428000) can0 10210040#1000000000000000
# tx t=162.640s 10210040#1000000000000000 note=live about 75 kmh confirmed
(1780167205.931000) can0 10210040#1000000000000000
(1780167206.134000) can0 13FFE060#
# tx t=163.141s 10210040#1000000000000000 note=live about 75 kmh confirmed
(1780167206.432000) can0 10210040#1000000000000000
# tx t=163.649s 10210040#1000000000000000 note=live about 75 kmh confirmed
(1780167206.941000) can0 10210040#1000000000000000
(1780167207.334000) can0 13FFE060#
# tx t=164.139s 10210040#1000000000000000 note=live about 75 kmh confirmed
(1780167207.430000) can0 10210040#1000000000000000
(1780167207.438000) can0 62C#0040000000000000
# tx t=164.645s 10210040#1000000000000000 note=live about 75 kmh confirmed
(1780167207.937000) can0 10210040#1000000000000000
# tx t=165.150s 10210040#1000000000000000 note=live about 75 kmh confirmed
(1780167208.441000) can0 10210040#1000000000000000
(1780167208.535000) can0 13FFE060#
# tx t=165.640s 10210040#1000000000000000 note=live about 75 kmh confirmed
(1780167208.932000) can0 10210040#1000000000000000
(1780167209.282000) can0 10244060#02
# tx t=166.141s 10210040#1000000000000000 note=live about 75 kmh confirmed
(1780167209.432000) can0 10210040#1000000000000000
(1780167209.748000) can0 13FFE060#
# tx t=166.646s 10210040#1000000000000000 note=live about 75 kmh confirmed
(1780167209.938000) can0 10210040#1000000000000000
# tx t=167.137s 10210040#1000000000000000 note=live about 75 kmh confirmed
(1780167210.428000) can0 10210040#1000000000000000
(1780167210.436000) can0 62C#0040000000000000
# live-reload loaded rows=113 active=1 file=E:\Projects\opel_corsa_e\send_profile.can
# tx t=167.422s 10210040#1000000000000000 note=live about 75 kmh confirmed - shows 70 kmh
(1780167210.713000) can0 10210040#1000000000000000
(1780167210.933000) can0 13FFE060#
# tx t=167.925s 10210040#1000000000000000 note=live about 75 kmh confirmed - shows 70 kmh
(1780167211.217000) can0 10210040#1000000000000000
# tx t=168.433s 10210040#1000000000000000 note=live about 75 kmh confirmed - shows 70 kmh
(1780167211.725000) can0 10210040#1000000000000000
(1780167212.134000) can0 13FFE060#
# tx t=168.923s 10210040#1000000000000000 note=live about 75 kmh confirmed - shows 70 kmh
(1780167212.214000) can0 10210040#1000000000000000
# live-reload loaded rows=113 active=0 file=E:\Projects\opel_corsa_e\send_profile.can
(1780167213.368000) can0 13FFE060#
(1780167213.446000) can0 62C#0040000000000000
(1780167214.311000) can0 10244060#02
(1780167214.548000) can0 13FFE060#
(1780167215.254000) can0 10600060#0160C140005B00
(1780167215.729000) can0 13FFE060#
(1780167215.808000) can0 10244060#06
(1780167216.439000) can0 62C#0040000000000000
# live-reload loaded rows=113 active=1 file=E:\Projects\opel_corsa_e\send_profile.can
# tx t=173.622s 10210040#1000000000000000 note=live speed_byte1_00_baseline_confirmed
(1780167216.913000) can0 10210040#1000000000000000
(1780167216.943000) can0 13FFE060#
(1780167216.975000) can0 10244060#02
# tx t=174.138s 10210040#1000000000000000 note=live speed_byte1_00_baseline_confirmed
(1780167217.429000) can0 10210040#1000000000000000
# tx t=174.626s 10210040#1000000000000000 note=live speed_byte1_00_baseline_confirmed
(1780167217.918000) can0 10210040#1000000000000000
(1780167218.139000) can0 13FFE060#
# tx t=175.129s 10210040#1000000000000000 note=live speed_byte1_00_baseline_confirmed
(1780167218.420000) can0 10210040#1000000000000000
# tx t=175.632s 10210040#1000000000000000 note=live speed_byte1_00_baseline_confirmed
(1780167218.924000) can0 10210040#1000000000000000
# live-reload loaded rows=113 active=0 file=E:\Projects\opel_corsa_e\send_profile.can
(1780167219.284000) can0 10244060#02
(1780167219.363000) can0 13FFE060#
(1780167219.442000) can0 62C#0040000000000000
(1780167220.547000) can0 13FFE060#
# live-reload loaded rows=113 active=1 file=E:\Projects\opel_corsa_e\send_profile.can
# tx t=177.495s 10210040#1001000000000000 note=live speed_byte1_01
(1780167220.786000) can0 10210040#1001000000000000
# tx t=177.998s 10210040#1001000000000000 note=live speed_byte1_01
(1780167221.289000) can0 10210040#1001000000000000
(1780167221.729000) can0 13FFE060#
# tx t=178.501s 10210040#1001000000000000 note=live speed_byte1_01
(1780167221.793000) can0 10210040#1001000000000000
# tx t=179.004s 10210040#1001000000000000 note=live speed_byte1_01
(1780167222.295000) can0 10210040#1001000000000000
(1780167222.427000) can0 62C#0040000000000000
# tx t=179.506s 10210040#1001000000000000 note=live speed_byte1_01
(1780167222.798000) can0 10210040#1001000000000000
(1780167222.926000) can0 13FFE060#
# tx t=179.996s 10210040#1001000000000000 note=live speed_byte1_01
(1780167223.287000) can0 10210040#1001000000000000
# tx t=180.503s 10210040#1001000000000000 note=live speed_byte1_01
(1780167223.795000) can0 10210040#1001000000000000
# live-reload loaded rows=113 active=0 file=E:\Projects\opel_corsa_e\send_profile.can
(1780167224.142000) can0 13FFE060#
(1780167224.301000) can0 10244060#02
# live-reload loaded rows=113 active=1 file=E:\Projects\opel_corsa_e\send_profile.can
# tx t=181.799s 10210040#1002000000000000 note=live speed_byte1_02
(1780167225.090000) can0 10210040#1002000000000000
(1780167225.324000) can0 13FFE060#
(1780167225.435000) can0 62C#0040000000000000
# tx t=182.301s 10210040#1002000000000000 note=live speed_byte1_02
(1780167225.593000) can0 10210040#1002000000000000
# tx t=182.804s 10210040#1002000000000000 note=live speed_byte1_02
(1780167226.096000) can0 10210040#1002000000000000
(1780167226.531000) can0 13FFE060#
# tx t=183.302s 10210040#1002000000000000 note=live speed_byte1_02
(1780167226.593000) can0 10210040#1002000000000000
# tx t=183.805s 10210040#1002000000000000 note=live speed_byte1_02
(1780167227.097000) can0 10210040#1002000000000000
# tx t=184.309s 10210040#1002000000000000 note=live speed_byte1_02
(1780167227.601000) can0 10210040#1002000000000000
(1780167227.727000) can0 13FFE060#
# live-reload loaded rows=113 active=1 file=E:\Projects\opel_corsa_e\send_profile.can
# tx t=184.628s 10210040#1080000000000000 note=live speed_byte1_80
(1780167227.919000) can0 10210040#1080000000000000
# tx t=185.129s 10210040#1080000000000000 note=live speed_byte1_80
(1780167228.420000) can0 10210040#1080000000000000
(1780167228.428000) can0 62C#0040000000000000
# tx t=185.634s 10210040#1080000000000000 note=live speed_byte1_80
(1780167228.926000) can0 13FFE060#
(1780167228.926000) can0 10210040#1080000000000000
(1780167229.273000) can0 10244060#02
# tx t=186.140s 10210040#1080000000000000 note=live speed_byte1_80
(1780167229.431000) can0 10210040#1080000000000000
# tx t=186.630s 10210040#1080000000000000 note=live speed_byte1_80
(1780167229.922000) can0 10210040#1080000000000000
(1780167230.122000) can0 13FFE060#
# tx t=187.131s 10210040#1080000000000000 note=live speed_byte1_80
(1780167230.423000) can0 10210040#1080000000000000
# tx t=187.636s 10210040#1080000000000000 note=live speed_byte1_80
(1780167230.928000) can0 10210040#1080000000000000
(1780167231.322000) can0 13FFE060#
# tx t=188.129s 10210040#1080000000000000 note=live speed_byte1_80
(1780167231.420000) can0 10210040#1080000000000000
(1780167231.423000) can0 62C#0040000000000000
# tx t=188.628s 10210040#1080000000000000 note=live speed_byte1_80
(1780167231.920000) can0 10210040#1080000000000000
# tx t=189.128s 10210040#1080000000000000 note=live speed_byte1_80
(1780167232.419000) can0 10210040#1080000000000000
(1780167232.521000) can0 13FFE060#
# tx t=189.630s 10210040#1080000000000000 note=live speed_byte1_80
(1780167232.922000) can0 10210040#1080000000000000
# live-reload loaded rows=113 active=0 file=E:\Projects\opel_corsa_e\send_profile.can
(1780167233.729000) can0 13FFE060#
(1780167234.284000) can0 10244060#02
(1780167234.442000) can0 62C#0040000000000000
(1780167234.919000) can0 13FFE060#
(1780167235.944000) can0 10600060#0160C140005B00
(1780167236.182000) can0 13FFE060#
# live-reload loaded rows=113 active=1 file=E:\Projects\opel_corsa_e\send_profile.can
# tx t=193.202s 10210040#1010000000000000 note=live speed_byte1_10
(1780167236.494000) can0 10244060#06
(1780167236.494000) can0 10210040#1010000000000000
(1780167236.569000) can0 10244060#02
# tx t=193.708s 10210040#1010000000000000 note=live speed_byte1_10
(1780167237.000000) can0 10210040#1010000000000000
(1780167237.318000) can0 13FFE060#
(1780167237.420000) can0 62C#0040000000000000
# tx t=194.213s 10210040#1010000000000000 note=live speed_byte1_10
(1780167237.504000) can0 10210040#1010000000000000
# tx t=194.717s 10210040#1010000000000000 note=live speed_byte1_10
(1780167238.009000) can0 10210040#1010000000000000
# tx t=195.207s 10210040#1010000000000000 note=live speed_byte1_10
(1780167238.498000) can0 10210040#1010000000000000
(1780167238.530000) can0 13FFE060#
# tx t=195.715s 10210040#1010000000000000 note=live speed_byte1_10
(1780167239.007000) can0 10210040#1010000000000000
# live-reload loaded rows=113 active=0 file=E:\Projects\opel_corsa_e\send_profile.can
(1780167239.276000) can0 10244060#02
(1780167239.748000) can0 13FFE060#
# live-reload loaded rows=113 active=1 file=E:\Projects\opel_corsa_e\send_profile.can
# tx t=197.004s 10210040#1008000000000000 note=live speed_byte1_08
(1780167240.296000) can0 10210040#1008000000000000
(1780167240.419000) can0 62C#0040000000000000
# tx t=197.504s 10210040#1008000000000000 note=live speed_byte1_08
(1780167240.796000) can0 10210040#1008000000000000
(1780167240.920000) can0 13FFE060#
# tx t=198.009s 10210040#1008000000000000 note=live speed_byte1_08
(1780167241.301000) can0 10210040#1008000000000000
# tx t=198.512s 10210040#1008000000000000 note=live speed_byte1_08
(1780167241.804000) can0 10210040#1008000000000000
(1780167242.120000) can0 13FFE060#
# tx t=199.018s 10210040#1008000000000000 note=live speed_byte1_08
(1780167242.310000) can0 10210040#1008000000000000
# live-reload loaded rows=113 active=1 file=E:\Projects\opel_corsa_e\send_profile.can
# tx t=199.304s 10210040#1080000000000000 note=live speed_byte1_80
(1780167242.596000) can0 10210040#1080000000000000
# tx t=199.808s 10210040#1080000000000000 note=live speed_byte1_80
(1780167243.099000) can0 10210040#1080000000000000
(1780167243.321000) can0 13FFE060#
(1780167243.417000) can0 62C#0040000000000000
# tx t=200.314s 10210040#1080000000000000 note=live speed_byte1_80
(1780167243.606000) can0 10210040#1080000000000000
# tx t=200.804s 10210040#1080000000000000 note=live speed_byte1_80
(1780167244.096000) can0 10210040#1080000000000000
(1780167244.265000) can0 10244060#02
(1780167244.515000) can0 13FFE060#
# tx t=201.308s 10210040#1080000000000000 note=live speed_byte1_80
(1780167244.600000) can0 10210040#1080000000000000
# tx t=201.813s 10210040#1080000000000000 note=live speed_byte1_80
(1780167245.105000) can0 10210040#1080000000000000
# live-reload loaded rows=113 active=1 file=E:\Projects\opel_corsa_e\send_profile.can
# tx t=202.100s 10210040#1010000000000000 note=live speed_byte1_10
(1780167245.392000) can0 10210040#1010000000000000
(1780167245.714000) can0 13FFE060#
# tx t=202.604s 10210040#1010000000000000 note=live speed_byte1_10
(1780167245.896000) can0 10210040#1010000000000000
# tx t=203.105s 10210040#1010000000000000 note=live speed_byte1_10
(1780167246.397000) can0 10210040#1010000000000000
(1780167246.428000) can0 62C#0040000000000000
# tx t=203.606s 10210040#1010000000000000 note=live speed_byte1_10
(1780167246.898000) can0 10210040#1010000000000000
(1780167246.929000) can0 13FFE060#
# tx t=204.110s 10210040#1010000000000000 note=live speed_byte1_10
(1780167247.402000) can0 10210040#1010000000000000
# tx t=204.613s 10210040#1010000000000000 note=live speed_byte1_10
(1780167247.905000) can0 10210040#1010000000000000
(1780167248.124000) can0 13FFE060#
# tx t=205.115s 10210040#1010000000000000 note=live speed_byte1_10
(1780167248.406000) can0 10210040#1010000000000000
# tx t=205.603s 10210040#1010000000000000 note=live speed_byte1_10
(1780167248.895000) can0 10210040#1010000000000000
(1780167249.274000) can0 10244060#02
(1780167249.312000) can0 13FFE060#
# tx t=206.109s 10210040#1010000000000000 note=live speed_byte1_10
(1780167249.401000) can0 10210040#1010000000000000
(1780167249.414000) can0 62C#0040000000000000
# tx t=206.614s 10210040#1010000000000000 note=live speed_byte1_10
(1780167249.905000) can0 10210040#1010000000000000
(1780167250.393000) can0 10308060#000002
# tx t=207.105s 10210040#1010000000000000 note=live speed_byte1_10
(1780167250.396000) can0 10210040#1010000000000000
(1780167250.522000) can0 13FFE060#
# tx t=207.610s 10210040#1010000000000000 note=live speed_byte1_10
(1780167250.902000) can0 10210040#1010000000000000
# tx t=208.111s 10210040#1010000000000000 note=live speed_byte1_10
(1780167251.403000) can0 10210040#1010000000000000
(1780167251.718000) can0 13FFE060#
# tx t=208.600s 10210040#1010000000000000 note=live speed_byte1_10
(1780167251.892000) can0 10210040#1010000000000000
# tx t=209.106s 10210040#1010000000000000 note=live speed_byte1_10
(1780167252.398000) can0 10210040#1010000000000000
(1780167252.412000) can0 62C#0040000000000000
# tx t=209.611s 10210040#1010000000000000 note=live speed_byte1_10
(1780167252.903000) can0 10210040#1010000000000000
(1780167252.910000) can0 13FFE060#
# tx t=210.102s 10210040#1010000000000000 note=live speed_byte1_10
(1780167253.393000) can0 10210040#1010000000000000
# tx t=210.608s 10210040#1010000000000000 note=live speed_byte1_10
(1780167253.900000) can0 10210040#1010000000000000
(1780167254.121000) can0 13FFE060#
(1780167254.260000) can0 10244060#02
# live-reload loaded rows=113 active=1 file=E:\Projects\opel_corsa_e\send_profile.can
# tx t=211.051s 10210040#1002000000000000 note=live speed_byte1_02
(1780167254.343000) can0 10210040#1002000000000000
# tx t=211.556s 10210040#1002000000000000 note=live speed_byte1_02
(1780167254.848000) can0 10210040#1002000000000000
(1780167255.321000) can0 13FFE060#
# tx t=212.062s 10210040#1002000000000000 note=live speed_byte1_02
(1780167255.353000) can0 10210040#1002000000000000
(1780167255.416000) can0 62C#0040000000000000
# tx t=212.552s 10210040#1002000000000000 note=live speed_byte1_02
(1780167255.844000) can0 10210040#1002000000000000
# tx t=213.057s 10210040#1002000000000000 note=live speed_byte1_02
(1780167256.349000) can0 10210040#1002000000000000
(1780167256.509000) can0 13FFE060#
# live-reload loaded rows=113 active=1 file=E:\Projects\opel_corsa_e\send_profile.can
# tx t=213.342s 10210040#1001000000000000 note=live speed_byte1_01
(1780167256.634000) can0 10210040#1001000000000000
# tx t=213.848s 10210040#1001000000000000 note=live speed_byte1_01
(1780167257.140000) can0 10210040#1001000000000000
# tx t=214.348s 10210040#1001000000000000 note=live speed_byte1_01
(1780167257.640000) can0 10210040#1001000000000000
(1780167257.708000) can0 13FFE060#
# tx t=214.855s 10210040#1001000000000000 note=live speed_byte1_01
(1780167258.147000) can0 10210040#1001000000000000
# live-reload loaded rows=113 active=0 file=E:\Projects\opel_corsa_e\send_profile.can
(1780167258.416000) can0 62C#0040000000000000
(1780167258.967000) can0 13FFE060#
(1780167259.282000) can0 10244060#02
(1780167260.153000) can0 13FFE060#
(1780167261.176000) can0 10600060#0160C140005B00
(1780167261.333000) can0 13FFE060#
(1780167261.412000) can0 62C#0040000000000000
(1780167261.804000) can0 10244060#06
# live-reload loaded rows=113 active=1 file=E:\Projects\opel_corsa_e\send_profile.can
# tx t=218.987s 102CC040#0400C00000000000 note=live TC telltale ON confirmed
(1780167262.278000) can0 102CC040#0400C00000000000
(1780167262.372000) can0 10244060#02
# tx t=219.237s 102CC040#0400C00000000000 note=live TC telltale ON confirmed
(1780167262.528000) can0 13FFE060#
(1780167262.529000) can0 102CC040#0400C00000000000
# tx t=219.501s 102CC040#0400C00000000000 note=live TC telltale ON confirmed
(1780167262.793000) can0 102CC040#0400C00000000000
# tx t=219.737s 102CC040#0400C00000000000 note=live TC telltale ON confirmed
(1780167263.028000) can0 102CC040#0400C00000000000
# tx t=219.989s 102CC040#0400C00000000000 note=live TC telltale ON confirmed
(1780167263.280000) can0 102CC040#0400C00000000000
# tx t=220.241s 102CC040#0400C00000000000 note=live TC telltale ON confirmed
(1780167263.533000) can0 102CC040#0400C00000000000
(1780167263.723000) can0 13FFE060#
# tx t=220.493s 102CC040#0400C00000000000 note=live TC telltale ON confirmed
(1780167263.785000) can0 102CC040#0400C00000000000
# tx t=220.746s 102CC040#0400C00000000000 note=live TC telltale ON confirmed
(1780167264.037000) can0 102CC040#0400C00000000000
(1780167264.266000) can0 10244060#02
# tx t=220.998s 102CC040#0400C00000000000 note=live TC telltale ON confirmed
(1780167264.289000) can0 102CC040#0400C00000000000
(1780167264.416000) can0 62C#0040000000000000
# tx t=221.250s 102CC040#0400C00000000000 note=live TC telltale ON confirmed
(1780167264.542000) can0 102CC040#0400C00000000000
# tx t=221.488s 102CC040#0400C00000000000 note=live TC telltale ON confirmed
(1780167264.779000) can0 102CC040#0400C00000000000
(1780167264.915000) can0 13FFE060#
# tx t=221.742s 102CC040#0400C00000000000 note=live TC telltale ON confirmed
(1780167265.034000) can0 102CC040#0400C00000000000
# tx t=221.992s 102CC040#0400C00000000000 note=live TC telltale ON confirmed
(1780167265.283000) can0 102CC040#0400C00000000000
# tx t=222.245s 102CC040#0400C00000000000 note=live TC telltale ON confirmed
(1780167265.537000) can0 102CC040#0400C00000000000
# tx t=222.499s 102CC040#0400C00000000000 note=live TC telltale ON confirmed
(1780167265.791000) can0 102CC040#0400C00000000000
# tx t=222.752s 102CC040#0400C00000000000 note=live TC telltale ON confirmed
(1780167266.044000) can0 102CC040#0400C00000000000
(1780167266.115000) can0 13FFE060#
# tx t=222.988s 102CC040#0400C00000000000 note=live TC telltale ON confirmed
(1780167266.280000) can0 102CC040#0400C00000000000
# tx t=223.239s 102CC040#0400C00000000000 note=live TC telltale ON confirmed
(1780167266.531000) can0 102CC040#0400C00000000000
# tx t=223.493s 102CC040#0400C00000000000 note=live TC telltale ON confirmed
(1780167266.784000) can0 102CC040#0400C00000000000
# tx t=223.744s 102CC040#0400C00000000000 note=live TC telltale ON confirmed
(1780167267.036000) can0 102CC040#0400C00000000000
# tx t=223.997s 102CC040#0400C00000000000 note=live TC telltale ON confirmed
(1780167267.289000) can0 102CC040#0400C00000000000
(1780167267.320000) can0 13FFE060#
(1780167267.415000) can0 62C#0040000000000000
# tx t=224.248s 102CC040#0400C00000000000 note=live TC telltale ON confirmed
(1780167267.539000) can0 102CC040#0400C00000000000
# tx t=224.502s 102CC040#0400C00000000000 note=live TC telltale ON confirmed
(1780167267.794000) can0 102CC040#0400C00000000000
# tx t=224.738s 102CC040#0400C00000000000 note=live TC telltale ON confirmed
(1780167268.030000) can0 102CC040#0400C00000000000
# tx t=224.991s 102CC040#0400C00000000000 note=live TC telltale ON confirmed
(1780167268.283000) can0 102CC040#0400C00000000000
(1780167268.513000) can0 13FFE060#
# tx t=225.245s 102CC040#0400C00000000000 note=live TC telltale ON confirmed
(1780167268.536000) can0 102CC040#0400C00000000000
# live-reload loaded rows=113 active=1 file=E:\Projects\opel_corsa_e\send_profile.can
# tx t=225.404s 102CC040#0000C00000000000 note=live TC telltale clear candidate
(1780167268.696000) can0 102CC040#0000C00000000000
# tx t=225.656s 102CC040#0000C00000000000 note=live TC telltale clear candidate
(1780167268.948000) can0 102CC040#0000C00000000000
# tx t=225.908s 102CC040#0000C00000000000 note=live TC telltale clear candidate
(1780167269.200000) can0 102CC040#0000C00000000000
(1780167269.263000) can0 10244060#02
# tx t=226.160s 102CC040#0000C00000000000 note=live TC telltale clear candidate
(1780167269.452000) can0 102CC040#0000C00000000000
# tx t=226.414s 102CC040#0000C00000000000 note=live TC telltale clear candidate
(1780167269.705000) can0 102CC040#0000C00000000000
(1780167269.713000) can0 13FFE060#
# tx t=226.668s 102CC040#0000C00000000000 note=live TC telltale clear candidate
(1780167269.960000) can0 102CC040#0000C00000000000
# tx t=226.904s 102CC040#0000C00000000000 note=live TC telltale clear candidate
(1780167270.196000) can0 102CC040#0000C00000000000
(1780167270.417000) can0 62C#0040000000000000
# tx t=227.157s 102CC040#0000C00000000000 note=live TC telltale clear candidate
(1780167270.449000) can0 102CC040#0000C00000000000
# tx t=227.410s 102CC040#0000C00000000000 note=live TC telltale clear candidate
(1780167270.701000) can0 102CC040#0000C00000000000
(1780167270.921000) can0 13FFE060#
# tx t=227.661s 102CC040#0000C00000000000 note=live TC telltale clear candidate
(1780167270.952000) can0 102CC040#0000C00000000000
# tx t=227.913s 102CC040#0000C00000000000 note=live TC telltale clear candidate
(1780167271.205000) can0 102CC040#0000C00000000000
# tx t=228.165s 102CC040#0000C00000000000 note=live TC telltale clear candidate
(1780167271.457000) can0 102CC040#0000C00000000000
# tx t=228.418s 102CC040#0000C00000000000 note=live TC telltale clear candidate
(1780167271.709000) can0 102CC040#0000C00000000000
# tx t=228.668s 102CC040#0000C00000000000 note=live TC telltale clear candidate
(1780167271.959000) can0 102CC040#0000C00000000000
(1780167272.117000) can0 13FFE060#
# tx t=228.906s 102CC040#0000C00000000000 note=live TC telltale clear candidate
(1780167272.198000) can0 102CC040#0000C00000000000
# tx t=229.170s 102CC040#0000C00000000000 note=live TC telltale clear candidate
(1780167272.461000) can0 102CC040#0000C00000000000
# tx t=229.407s 102CC040#0000C00000000000 note=live TC telltale clear candidate
(1780167272.698000) can0 102CC040#0000C00000000000
# tx t=229.657s 102CC040#0000C00000000000 note=live TC telltale clear candidate
(1780167272.949000) can0 102CC040#0000C00000000000
# live-reload loaded rows=113 active=1 file=E:\Projects\opel_corsa_e\send_profile.can
# tx t=229.750s 102CC040#0000C00000000000 note=live TC telltale clear candidate
(1780167273.042000) can0 102CC040#0000C00000000000
# tx t=230.004s 102CC040#0000C00000000000 note=live TC telltale clear candidate
(1780167273.295000) can0 102CC040#0000C00000000000
(1780167273.327000) can0 13FFE060#
(1780167273.421000) can0 62C#0040000000000000
# tx t=230.255s 102CC040#0000C00000000000 note=live TC telltale clear candidate
(1780167273.546000) can0 102CC040#0000C00000000000
# tx t=230.508s 102CC040#0000C00000000000 note=live TC telltale clear candidate
(1780167273.799000) can0 102CC040#0000C00000000000
# tx t=230.761s 102CC040#0000C00000000000 note=live TC telltale clear candidate
(1780167274.053000) can0 102CC040#0000C00000000000
(1780167274.274000) can0 10244060#02
# tx t=231.013s 102CC040#0000C00000000000 note=live TC telltale clear candidate
(1780167274.305000) can0 102CC040#0000C00000000000
(1780167274.525000) can0 13FFE060#
# tx t=231.265s 102CC040#0000C00000000000 note=live TC telltale clear candidate
(1780167274.556000) can0 102CC040#0000C00000000000
# tx t=231.504s 102CC040#0000C00000000000 note=live TC telltale clear candidate
(1780167274.796000) can0 102CC040#0000C00000000000
# tx t=231.755s 102CC040#0000C00000000000 note=live TC telltale clear candidate
(1780167275.047000) can0 102CC040#0000C00000000000
# tx t=232.006s 102CC040#0000C00000000000 note=live TC telltale clear candidate
(1780167275.298000) can0 102CC040#0000C00000000000
# tx t=232.260s 102CC040#0000C00000000000 note=live TC telltale clear candidate
(1780167275.551000) can0 102CC040#0000C00000000000
(1780167275.710000) can0 13FFE060#
# tx t=232.511s 102CC040#0000C00000000000 note=live TC telltale clear candidate
(1780167275.802000) can0 102CC040#0000C00000000000
# tx t=232.759s 102CC040#0000C00000000000 note=live TC telltale clear candidate
(1780167276.050000) can0 102CC040#0000C00000000000
# tx t=233.010s 102CC040#0000C00000000000 note=live TC telltale clear candidate
(1780167276.302000) can0 102CC040#0000C00000000000
(1780167276.410000) can0 62C#0040000000000000
# tx t=233.264s 102CC040#0000C00000000000 note=live TC telltale clear candidate
(1780167276.555000) can0 102CC040#0000C00000000000
# tx t=233.515s 102CC040#0000C00000000000 note=live TC telltale clear candidate
(1780167276.806000) can0 102CC040#0000C00000000000
(1780167276.909000) can0 13FFE060#
# tx t=233.753s 102CC040#0000C00000000000 note=live TC telltale clear candidate
(1780167277.045000) can0 102CC040#0000C00000000000
# tx t=234.006s 102CC040#0000C00000000000 note=live TC telltale clear candidate
(1780167277.298000) can0 102CC040#0000C00000000000
# tx t=234.258s 102CC040#0000C00000000000 note=live TC telltale clear candidate
(1780167277.550000) can0 102CC040#0000C00000000000
# tx t=234.512s 102CC040#0000C00000000000 note=live TC telltale clear candidate
(1780167277.803000) can0 102CC040#0000C00000000000
# tx t=234.764s 102CC040#0000C00000000000 note=live TC telltale clear candidate
(1780167278.056000) can0 102CC040#0000C00000000000
(1780167278.117000) can0 13FFE060#
# tx t=235.000s 102CC040#0000C00000000000 note=live TC telltale clear candidate
(1780167278.292000) can0 102CC040#0000C00000000000
# tx t=235.255s 102CC040#0000C00000000000 note=live TC telltale clear candidate
(1780167278.546000) can0 102CC040#0000C00000000000
# tx t=235.506s 102CC040#0000C00000000000 note=live TC telltale clear candidate
(1780167278.797000) can0 102CC040#0000C00000000000
# tx t=235.759s 102CC040#0000C00000000000 note=live TC telltale clear candidate
(1780167279.051000) can0 102CC040#0000C00000000000
(1780167279.273000) can0 10244060#02
# tx t=236.013s 102CC040#0000C00000000000 note=live TC telltale clear candidate
(1780167279.305000) can0 102CC040#0000C00000000000
(1780167279.311000) can0 13FFE060#
(1780167279.409000) can0 62C#0040000000000000
# tx t=236.251s 102CC040#0000C00000000000 note=live TC telltale clear candidate
(1780167279.542000) can0 102CC040#0000C00000000000
# live-reload loaded rows=113 active=1 file=E:\Projects\opel_corsa_e\send_profile.can
# tx t=236.410s 102CC040#0000000000000000 note=live TC matrix 000000
(1780167279.702000) can0 102CC040#0000000000000000
# tx t=236.662s 102CC040#0000000000000000 note=live TC matrix 000000
(1780167279.954000) can0 102CC040#0000000000000000
# tx t=236.914s 102CC040#0000000000000000 note=live TC matrix 000000
(1780167280.206000) can0 102CC040#0000000000000000
# tx t=237.167s 102CC040#0000000000000000 note=live TC matrix 000000
(1780167280.459000) can0 102CC040#0000000000000000
(1780167280.522000) can0 13FFE060#
# tx t=237.419s 102CC040#0000000000000000 note=live TC matrix 000000
(1780167280.710000) can0 102CC040#0000000000000000
# tx t=237.671s 102CC040#0000000000000000 note=live TC matrix 000000
(1780167280.963000) can0 102CC040#0000000000000000
# tx t=237.910s 102CC040#0000000000000000 note=live TC matrix 000000
(1780167281.202000) can0 102CC040#0000000000000000
# tx t=238.164s 102CC040#0000000000000000 note=live TC matrix 000000
(1780167281.455000) can0 102CC040#0000000000000000
# tx t=238.416s 102CC040#0000000000000000 note=live TC matrix 000000
(1780167281.707000) can0 13FFE060#
(1780167281.707000) can0 102CC040#0000000000000000
# tx t=238.666s 102CC040#0000000000000000 note=live TC matrix 000000
(1780167281.957000) can0 102CC040#0000000000000000
# tx t=238.918s 102CC040#0000000000000000 note=live TC matrix 000000
(1780167282.210000) can0 102CC040#0000000000000000
(1780167282.407000) can0 62C#0040000000000000
# tx t=239.171s 102CC040#0000000000000000 note=live TC matrix 000000
(1780167282.463000) can0 102CC040#0000000000000000
# tx t=239.423s 102CC040#0000000000000000 note=live TC matrix 000000
(1780167282.714000) can0 102CC040#0000000000000000
(1780167282.906000) can0 13FFE060#
# tx t=239.661s 102CC040#0000000000000000 note=live TC matrix 000000
(1780167282.952000) can0 102CC040#0000000000000000
# tx t=239.914s 102CC040#0000000000000000 note=live TC matrix 000000
(1780167283.206000) can0 102CC040#0000000000000000
# tx t=240.166s 102CC040#0000000000000000 note=live TC matrix 000000
(1780167283.457000) can0 102CC040#0000000000000000
# live-reload loaded rows=113 active=1 file=E:\Projects\opel_corsa_e\send_profile.can
# tx t=240.230s 102CC040#0800C00000000000 note=live TC matrix 0800C0
(1780167283.522000) can0 102CC040#0800C00000000000
# tx t=240.482s 102CC040#0800C00000000000 note=live TC matrix 0800C0
(1780167283.773000) can0 102CC040#0800C00000000000
# tx t=240.735s 102CC040#0800C00000000000 note=live TC matrix 0800C0
(1780167284.027000) can0 102CC040#0800C00000000000
(1780167284.121000) can0 13FFE060#
(1780167284.255000) can0 10244060#02
# tx t=240.986s 102CC040#0800C00000000000 note=live TC matrix 0800C0
(1780167284.278000) can0 102CC040#0800C00000000000
# tx t=241.239s 102CC040#0800C00000000000 note=live TC matrix 0800C0
(1780167284.531000) can0 102CC040#0800C00000000000
# tx t=241.494s 102CC040#0800C00000000000 note=live TC matrix 0800C0
(1780167284.785000) can0 102CC040#0800C00000000000
# tx t=241.741s 102CC040#0800C00000000000 note=live TC matrix 0800C0
(1780167285.033000) can0 102CC040#0800C00000000000
# tx t=241.995s 102CC040#0800C00000000000 note=live TC matrix 0800C0
(1780167285.287000) can0 102CC040#0800C00000000000
(1780167285.318000) can0 13FFE060#
(1780167285.414000) can0 62C#0040000000000000
# tx t=242.231s 102CC040#0800C00000000000 note=live TC matrix 0800C0
(1780167285.523000) can0 102CC040#0800C00000000000
# tx t=242.496s 102CC040#0800C00000000000 note=live TC matrix 0800C0
(1780167285.787000) can0 102CC040#0800C00000000000
# tx t=242.745s 102CC040#0800C00000000000 note=live TC matrix 0800C0
(1780167286.037000) can0 102CC040#0800C00000000000
# tx t=242.981s 102CC040#0800C00000000000 note=live TC matrix 0800C0
(1780167286.272000) can0 102CC040#0800C00000000000
# live-reload loaded rows=113 active=0 file=E:\Projects\opel_corsa_e\send_profile.can
(1780167286.526000) can0 13FFE060#
(1780167287.708000) can0 13FFE060#
(1780167288.418000) can0 62C#0040000000000000
(1780167288.903000) can0 13FFE060#
(1780167289.286000) can0 10244060#02
(1780167289.366000) can0 10600060#0160C140005B00
(1780167289.843000) can0 10244060#06
(1780167290.155000) can0 13FFE060#
(1780167291.328000) can0 13FFE060#
(1780167291.408000) can0 62C#0040000000000000
(1780167292.505000) can0 13FFE060#
(1780167293.701000) can0 13FFE060#
(1780167294.250000) can0 10244060#06
(1780167294.402000) can0 62C#0040000000000000
# live-reload loaded rows=113 active=1 file=E:\Projects\opel_corsa_e\send_profile.can
# tx t=251.262s 102CC040#0800800000000000 note=live TC matrix 080080
(1780167294.553000) can0 102CC040#0800800000000000
(1780167294.648000) can0 10244060#02
# tx t=251.514s 102CC040#0800800000000000 note=live TC matrix 080080
(1780167294.805000) can0 102CC040#0800800000000000
(1780167294.900000) can0 13FFE060#
# tx t=251.767s 102CC040#0800800000000000 note=live TC matrix 080080
(1780167295.059000) can0 102CC040#0800800000000000
# tx t=252.020s 102CC040#0800800000000000 note=live TC matrix 080080
(1780167295.312000) can0 102CC040#0800800000000000
# tx t=252.272s 102CC040#0800800000000000 note=live TC matrix 080080
(1780167295.564000) can0 102CC040#0800800000000000
# tx t=252.525s 102CC040#0800800000000000 note=live TC matrix 080080
(1780167295.816000) can0 102CC040#0800800000000000
# tx t=252.776s 102CC040#0800800000000000 note=live TC matrix 080080
(1780167296.068000) can0 102CC040#0800800000000000
(1780167296.099000) can0 13FFE060#
# tx t=253.027s 102CC040#0800800000000000 note=live TC matrix 080080
(1780167296.319000) can0 102CC040#0800800000000000
# tx t=253.263s 102CC040#0800800000000000 note=live TC matrix 080080
(1780167296.555000) can0 102CC040#0800800000000000
# tx t=253.514s 102CC040#0800800000000000 note=live TC matrix 080080
(1780167296.805000) can0 102CC040#0800800000000000
# tx t=253.766s 102CC040#0800800000000000 note=live TC matrix 080080
(1780167297.057000) can0 102CC040#0800800000000000
# tx t=254.018s 102CC040#0800800000000000 note=live TC matrix 080080
(1780167297.310000) can0 13FFE060#
(1780167297.310000) can0 102CC040#0800800000000000
(1780167297.403000) can0 62C#0040000000000000
# tx t=254.270s 102CC040#0800800000000000 note=live TC matrix 080080
(1780167297.562000) can0 102CC040#0800800000000000
# tx t=254.524s 102CC040#0800800000000000 note=live TC matrix 080080
(1780167297.815000) can0 102CC040#0800800000000000
# tx t=254.762s 102CC040#0800800000000000 note=live TC matrix 080080
(1780167298.054000) can0 102CC040#0800800000000000
# tx t=255.012s 102CC040#0800800000000000 note=live TC matrix 080080
(1780167298.304000) can0 102CC040#0800800000000000
# live-reload loaded rows=113 active=1 file=E:\Projects\opel_corsa_e\send_profile.can
# tx t=255.076s 102CC040#0800C00000000000 note=live TC matrix 0800C0
(1780167298.367000) can0 102CC040#0800C00000000000
(1780167298.498000) can0 13FFE060#
# tx t=255.328s 102CC040#0800C00000000000 note=live TC matrix 0800C0
(1780167298.620000) can0 102CC040#0800C00000000000
# tx t=255.582s 102CC040#0800C00000000000 note=live TC matrix 0800C0
(1780167298.873000) can0 102CC040#0800C00000000000
# tx t=255.832s 102CC040#0800C00000000000 note=live TC matrix 0800C0
(1780167299.123000) can0 102CC040#0800C00000000000
(1780167299.249000) can0 10244060#02
# tx t=256.084s 102CC040#0800C00000000000 note=live TC matrix 0800C0
(1780167299.376000) can0 102CC040#0800C00000000000
# tx t=256.337s 102CC040#0800C00000000000 note=live TC matrix 0800C0
(1780167299.629000) can0 102CC040#0800C00000000000
(1780167299.698000) can0 13FFE060#
# tx t=256.590s 102CC040#0800C00000000000 note=live TC matrix 0800C0
(1780167299.881000) can0 102CC040#0800C00000000000
# tx t=256.827s 102CC040#0800C00000000000 note=live TC matrix 0800C0
(1780167300.119000) can0 102CC040#0800C00000000000
# tx t=257.080s 102CC040#0800C00000000000 note=live TC matrix 0800C0
(1780167300.372000) can0 102CC040#0800C00000000000
# live-reload loaded rows=113 active=0 file=E:\Projects\opel_corsa_e\send_profile.can
(1780167300.403000) can0 62C#0040000000000000
(1780167300.956000) can0 13FFE060#
(1780167302.140000) can0 13FFE060#
(1780167303.321000) can0 13FFE060#
(1780167303.400000) can0 10600060#0160C140005B00
(1780167303.401000) can0 62C#0040000000000000
(1780167303.951000) can0 10244060#06
(1780167304.261000) can0 10244060#06
(1780167304.498000) can0 13FFE060#
# live-reload loaded rows=113 active=1 file=E:\Projects\opel_corsa_e\send_profile.can
# tx t=262.157s 102CC040#0400800000000000 note=live TC matrix 040080
(1780167305.448000) can0 102CC040#0400800000000000
(1780167305.543000) can0 10244060#02
# tx t=262.408s 102CC040#0400800000000000 note=live TC matrix 040080
(1780167305.699000) can0 13FFE060#
(1780167305.699000) can0 102CC040#0400800000000000
# tx t=262.661s 102CC040#0400800000000000 note=live TC matrix 040080
(1780167305.952000) can0 102CC040#0400800000000000
# tx t=262.915s 102CC040#0400800000000000 note=live TC matrix 040080
(1780167306.207000) can0 102CC040#0400800000000000
(1780167306.396000) can0 62C#0040000000000000
# tx t=263.167s 102CC040#0400800000000000 note=live TC matrix 040080
(1780167306.459000) can0 102CC040#0400800000000000
# tx t=263.422s 102CC040#0400800000000000 note=live TC matrix 040080
(1780167306.713000) can0 102CC040#0400800000000000
(1780167306.904000) can0 13FFE060#
# tx t=263.660s 102CC040#0400800000000000 note=live TC matrix 040080
(1780167306.951000) can0 102CC040#0400800000000000
# tx t=263.912s 102CC040#0400800000000000 note=live TC matrix 040080
(1780167307.204000) can0 102CC040#0400800000000000
# tx t=264.163s 102CC040#0400800000000000 note=live TC matrix 040080
(1780167307.455000) can0 102CC040#0400800000000000
# tx t=264.416s 102CC040#0400800000000000 note=live TC matrix 040080
(1780167307.708000) can0 102CC040#0400800000000000
# tx t=264.670s 102CC040#0400800000000000 note=live TC matrix 040080
(1780167307.961000) can0 102CC040#0400800000000000
(1780167308.094000) can0 13FFE060#
# tx t=264.922s 102CC040#0400800000000000 note=live TC matrix 040080
(1780167308.214000) can0 102CC040#0400800000000000
# tx t=265.159s 102CC040#0400800000000000 note=live TC matrix 040080
(1780167308.451000) can0 102CC040#0400800000000000
# tx t=265.413s 102CC040#0400800000000000 note=live TC matrix 040080
(1780167308.705000) can0 102CC040#0400800000000000
# tx t=265.665s 102CC040#0400800000000000 note=live TC matrix 040080
(1780167308.956000) can0 102CC040#0400800000000000
# tx t=265.918s 102CC040#0400800000000000 note=live TC matrix 040080
(1780167309.210000) can0 102CC040#0400800000000000
(1780167309.243000) can0 10244060#02
(1780167309.302000) can0 13FFE060#
(1780167309.399000) can0 62C#0040000000000000
# tx t=266.171s 102CC040#0400800000000000 note=live TC matrix 040080
(1780167309.463000) can0 102CC040#0400800000000000
# tx t=266.408s 102CC040#0400800000000000 note=live TC matrix 040080
(1780167309.699000) can0 102CC040#0400800000000000
# tx t=266.661s 102CC040#0400800000000000 note=live TC matrix 040080
(1780167309.952000) can0 102CC040#0400800000000000
# tx t=266.912s 102CC040#0400800000000000 note=live TC matrix 040080
(1780167310.204000) can0 102CC040#0400800000000000
(1780167310.373000) can0 10308060#000002
# tx t=267.165s 102CC040#0400800000000000 note=live TC matrix 040080
(1780167310.457000) can0 102CC040#0400800000000000
(1780167310.492000) can0 13FFE060#
# tx t=267.419s 102CC040#0400800000000000 note=live TC matrix 040080
(1780167310.711000) can0 102CC040#0400800000000000
# tx t=267.657s 102CC040#0400800000000000 note=live TC matrix 040080
(1780167310.948000) can0 102CC040#0400800000000000
# tx t=267.909s 102CC040#0400800000000000 note=live TC matrix 040080
(1780167311.201000) can0 102CC040#0400800000000000
# tx t=268.161s 102CC040#0400800000000000 note=live TC matrix 040080
(1780167311.453000) can0 102CC040#0400800000000000
# tx t=268.415s 102CC040#0400800000000000 note=live TC matrix 040080
(1780167311.707000) can0 13FFE060#
(1780167311.707000) can0 102CC040#0400800000000000
# tx t=268.668s 102CC040#0400800000000000 note=live TC matrix 040080
(1780167311.959000) can0 102CC040#0400800000000000
# tx t=268.919s 102CC040#0400800000000000 note=live TC matrix 040080
(1780167312.211000) can0 102CC040#0400800000000000
(1780167312.400000) can0 62C#0040000000000000
# tx t=269.171s 102CC040#0400800000000000 note=live TC matrix 040080
(1780167312.463000) can0 102CC040#0400800000000000
# tx t=269.409s 102CC040#0400800000000000 note=live TC matrix 040080
(1780167312.700000) can0 102CC040#0400800000000000
(1780167312.891000) can0 13FFE060#
# tx t=269.661s 102CC040#0400800000000000 note=live TC matrix 040080
(1780167312.952000) can0 102CC040#0400800000000000
# tx t=269.914s 102CC040#0400800000000000 note=live TC matrix 040080
(1780167313.206000) can0 102CC040#0400800000000000
# tx t=270.167s 102CC040#0400800000000000 note=live TC matrix 040080
(1780167313.459000) can0 102CC040#0400800000000000
# tx t=270.420s 102CC040#0400800000000000 note=live TC matrix 040080
(1780167313.711000) can0 102CC040#0400800000000000
# tx t=270.672s 102CC040#0400800000000000 note=live TC matrix 040080
(1780167313.963000) can0 102CC040#0400800000000000
(1780167314.091000) can0 13FFE060#
# tx t=270.907s 102CC040#0400800000000000 note=live TC matrix 040080
(1780167314.199000) can0 102CC040#0400800000000000
(1780167314.240000) can0 10244060#02
# tx t=271.158s 102CC040#0400800000000000 note=live TC matrix 040080
(1780167314.450000) can0 102CC040#0400800000000000
# tx t=271.412s 102CC040#0400800000000000 note=live TC matrix 040080
(1780167314.704000) can0 102CC040#0400800000000000
# tx t=271.663s 102CC040#0400800000000000 note=live TC matrix 040080
(1780167314.954000) can0 102CC040#0400800000000000
# tx t=271.916s 102CC040#0400800000000000 note=live TC matrix 040080
(1780167315.208000) can0 102CC040#0400800000000000
(1780167315.302000) can0 13FFE060#
(1780167315.396000) can0 62C#0040000000000000
# tx t=272.167s 102CC040#0400800000000000 note=live TC matrix 040080
(1780167315.459000) can0 102CC040#0400800000000000
# tx t=272.420s 102CC040#0400800000000000 note=live TC matrix 040080
(1780167315.712000) can0 102CC040#0400800000000000
# tx t=272.672s 102CC040#0400800000000000 note=live TC matrix 040080
(1780167315.963000) can0 102CC040#0400800000000000
# tx t=272.909s 102CC040#0400800000000000 note=live TC matrix 040080
(1780167316.201000) can0 102CC040#0400800000000000
# tx t=273.162s 102CC040#0400800000000000 note=live TC matrix 040080
(1780167316.454000) can0 102CC040#0400800000000000
(1780167316.489000) can0 13FFE060#
# tx t=273.414s 102CC040#0400800000000000 note=live TC matrix 040080
(1780167316.706000) can0 102CC040#0400800000000000
# live-reload loaded rows=113 active=1 file=E:\Projects\opel_corsa_e\send_profile.can
# tx t=273.636s 102CC040#0400000000000000 note=live TC matrix 040000
(1780167316.928000) can0 102CC040#0400000000000000
# tx t=273.888s 102CC040#0400000000000000 note=live TC matrix 040000
(1780167317.180000) can0 102CC040#0400000000000000
# tx t=274.140s 102CC040#0400000000000000 note=live TC matrix 040000
(1780167317.432000) can0 102CC040#0400000000000000
# tx t=274.395s 102CC040#0400000000000000 note=live TC matrix 040000
(1780167317.686000) can0 102CC040#0400000000000000
(1780167317.692000) can0 13FFE060#
# tx t=274.648s 102CC040#0400000000000000 note=live TC matrix 040000
(1780167317.939000) can0 102CC040#0400000000000000
# tx t=274.900s 102CC040#0400000000000000 note=live TC matrix 040000
(1780167318.192000) can0 102CC040#0400000000000000
(1780167318.390000) can0 62C#0040000000000000
# tx t=275.137s 102CC040#0400000000000000 note=live TC matrix 040000
(1780167318.429000) can0 102CC040#0400000000000000
# tx t=275.391s 102CC040#0400000000000000 note=live TC matrix 040000
(1780167318.682000) can0 102CC040#0400000000000000
(1780167318.903000) can0 13FFE060#
# tx t=275.644s 102CC040#0400000000000000 note=live TC matrix 040000
(1780167318.935000) can0 102CC040#0400000000000000
# live-reload loaded rows=113 active=0 file=E:\Projects\opel_corsa_e\send_profile.can
(1780167319.284000) can0 10244060#02
(1780167320.088000) can0 13FFE060#
(1780167321.333000) can0 13FFE060#
(1780167321.413000) can0 62C#0040000000000000
(1780167321.978000) can0 10600060#0160C140005B00
(1780167322.519000) can0 13FFE060#
(1780167322.526000) can0 10244060#06
(1780167323.703000) can0 13FFE060#
(1780167324.255000) can0 10244060#06
(1780167324.414000) can0 62C#0040000000000000
(1780167324.886000) can0 13FFE060#
# live-reload loaded rows=113 active=1 file=E:\Projects\opel_corsa_e\send_profile.can
# tx t=281.675s 102CC040#0000800000000000 note=live TC matrix 000080
(1780167324.967000) can0 102CC040#0000800000000000
(1780167325.029000) can0 10244060#02
# tx t=281.927s 102CC040#0000800000000000 note=live TC matrix 000080
(1780167325.219000) can0 102CC040#0000800000000000
# tx t=282.181s 102CC040#0000800000000000 note=live TC matrix 000080
(1780167325.473000) can0 102CC040#0000800000000000
# tx t=282.436s 102CC040#0000800000000000 note=live TC matrix 000080
(1780167325.727000) can0 102CC040#0000800000000000
# tx t=282.689s 102CC040#0000800000000000 note=live TC matrix 000080
(1780167325.981000) can0 102CC040#0000800000000000
(1780167326.085000) can0 13FFE060#
# tx t=282.925s 102CC040#0000800000000000 note=live TC matrix 000080
(1780167326.217000) can0 102CC040#0000800000000000
# tx t=283.177s 102CC040#0000800000000000 note=live TC matrix 000080
(1780167326.469000) can0 102CC040#0000800000000000
# tx t=283.428s 102CC040#0000800000000000 note=live TC matrix 000080
(1780167326.720000) can0 102CC040#0000800000000000
# tx t=283.679s 102CC040#0000800000000000 note=live TC matrix 000080
(1780167326.970000) can0 102CC040#0000800000000000
# tx t=283.932s 102CC040#0000800000000000 note=live TC matrix 000080
(1780167327.224000) can0 102CC040#0000800000000000
(1780167327.287000) can0 13FFE060#
(1780167327.385000) can0 62C#0040000000000000
# tx t=284.186s 102CC040#0000800000000000 note=live TC matrix 000080
(1780167327.478000) can0 102CC040#0000800000000000
# tx t=284.438s 102CC040#0000800000000000 note=live TC matrix 000080
(1780167327.730000) can0 102CC040#0000800000000000
# tx t=284.689s 102CC040#0000800000000000 note=live TC matrix 000080
(1780167327.980000) can0 102CC040#0000800000000000
# tx t=284.926s 102CC040#0000800000000000 note=live TC matrix 000080
(1780167328.218000) can0 102CC040#0000800000000000
# tx t=285.179s 102CC040#0000800000000000 note=live TC matrix 000080
(1780167328.471000) can0 102CC040#0000800000000000
(1780167328.483000) can0 13FFE060#
# live-reload loaded rows=113 active=0 file=E:\Projects\opel_corsa_e\send_profile.can
(1780167329.247000) can0 10244060#02
(1780167329.719000) can0 13FFE060#
(1780167330.431000) can0 62C#0040000000000000
(1780167330.905000) can0 13FFE060#
(1780167331.537000) can0 10600060#0160C140005B00
(1780167332.022000) can0 10244060#06
(1780167332.089000) can0 13FFE060#
(1780167333.281000) can0 13FFE060#
(1780167333.429000) can0 62C#0040000000000000
(1780167334.230000) can0 10244060#06
(1780167334.535000) can0 13FFE060#
(1780167335.721000) can0 13FFE060#
(1780167336.430000) can0 62C#0040000000000000
(1780167336.905000) can0 13FFE060#
(1780167338.090000) can0 13FFE060#
(1780167339.273000) can0 10244060#06
(1780167339.278000) can0 13FFE060#
(1780167339.429000) can0 62C#0040000000000000
# live-reload loaded rows=113 active=1 file=E:\Projects\opel_corsa_e\send_profile.can
# tx t=296.607s 102CC040#0400000000000000 note=live TC matrix 040000
(1780167339.899000) can0 102CC040#0400000000000000
(1780167339.929000) can0 10244060#02
# tx t=296.857s 102CC040#0400000000000000 note=live TC matrix 040000
(1780167340.149000) can0 102CC040#0400000000000000
# tx t=297.109s 102CC040#0400000000000000 note=live TC matrix 040000
(1780167340.401000) can0 102CC040#0400000000000000
(1780167340.477000) can0 13FFE060#
# tx t=297.358s 102CC040#0400000000000000 note=live TC matrix 040000
(1780167340.649000) can0 102CC040#0400000000000000
# tx t=297.610s 102CC040#0400000000000000 note=live TC matrix 040000
(1780167340.901000) can0 102CC040#0400000000000000
# tx t=297.862s 102CC040#0400000000000000 note=live TC matrix 040000
(1780167341.154000) can0 102CC040#0400000000000000
# tx t=298.113s 102CC040#0400000000000000 note=live TC matrix 040000
(1780167341.405000) can0 102CC040#0400000000000000
# tx t=298.364s 102CC040#0400000000000000 note=live TC matrix 040000
(1780167341.656000) can0 102CC040#0400000000000000
(1780167341.688000) can0 13FFE060#
# tx t=298.618s 102CC040#0400000000000000 note=live TC matrix 040000
(1780167341.909000) can0 102CC040#0400000000000000
# tx t=298.869s 102CC040#0400000000000000 note=live TC matrix 040000
(1780167342.161000) can0 102CC040#0400000000000000
(1780167342.383000) can0 62C#0040000000000000
# tx t=299.107s 102CC040#0400000000000000 note=live TC matrix 040000
(1780167342.399000) can0 102CC040#0400000000000000
# tx t=299.360s 102CC040#0400000000000000 note=live TC matrix 040000
(1780167342.652000) can0 102CC040#0400000000000000
(1780167342.876000) can0 13FFE060#
# tx t=299.611s 102CC040#0400000000000000 note=live TC matrix 040000
(1780167342.902000) can0 102CC040#0400000000000000
# tx t=299.865s 102CC040#0400000000000000 note=live TC matrix 040000
(1780167343.156000) can0 102CC040#0400000000000000
# tx t=300.115s 102CC040#0400000000000000 note=live TC matrix 040000
(1780167343.407000) can0 102CC040#0400000000000000
# tx t=300.366s 102CC040#0400000000000000 note=live TC matrix 040000
(1780167343.658000) can0 102CC040#0400000000000000
# tx t=300.620s 102CC040#0400000000000000 note=live TC matrix 040000
(1780167343.911000) can0 102CC040#0400000000000000
# live-reload loaded rows=113 active=0 file=E:\Projects\opel_corsa_e\send_profile.can
(1780167344.130000) can0 13FFE060#
(1780167344.289000) can0 10244060#02
(1780167345.313000) can0 13FFE060#
(1780167345.392000) can0 62C#0040000000000000
# live-reload loaded rows=113 active=1 file=E:\Projects\opel_corsa_e\send_profile.can
# tx t=302.881s 102CC040#0000000000000000 note=live TC matrix 000000
(1780167346.172000) can0 102CC040#0000000000000000
# tx t=303.134s 102CC040#0000000000000000 note=live TC matrix 000000
(1780167346.426000) can0 102CC040#0000000000000000
(1780167346.489000) can0 13FFE060#
# tx t=303.387s 102CC040#0000000000000000 note=live TC matrix 000000
(1780167346.679000) can0 102CC040#0000000000000000
# tx t=303.639s 102CC040#0000000000000000 note=live TC matrix 000000
(1780167346.931000) can0 102CC040#0000000000000000
# tx t=303.893s 102CC040#0000000000000000 note=live TC matrix 000000
(1780167347.184000) can0 102CC040#0000000000000000
# tx t=304.145s 102CC040#0000000000000000 note=live TC matrix 000000
(1780167347.436000) can0 102CC040#0000000000000000
# tx t=304.381s 102CC040#0000000000000000 note=live TC matrix 000000
(1780167347.673000) can0 102CC040#0000000000000000
(1780167347.674000) can0 13FFE060#
# tx t=304.631s 102CC040#0000000000000000 note=live TC matrix 000000
(1780167347.923000) can0 102CC040#0000000000000000
# tx t=304.884s 102CC040#0000000000000000 note=live TC matrix 000000
(1780167348.175000) can0 102CC040#0000000000000000
(1780167348.375000) can0 62C#0040000000000000
# tx t=305.136s 102CC040#0000000000000000 note=live TC matrix 000000
(1780167348.428000) can0 102CC040#0000000000000000
# tx t=305.390s 102CC040#0000000000000000 note=live TC matrix 000000
(1780167348.681000) can0 102CC040#0000000000000000
(1780167348.873000) can0 13FFE060#
# tx t=305.643s 102CC040#0000000000000000 note=live TC matrix 000000
(1780167348.934000) can0 102CC040#0000000000000000
# tx t=305.895s 102CC040#0000000000000000 note=live TC matrix 000000
(1780167349.186000) can0 102CC040#0000000000000000
(1780167349.223000) can0 10244060#02
# tx t=306.146s 102CC040#0000000000000000 note=live TC matrix 000000
(1780167349.438000) can0 102CC040#0000000000000000
# tx t=306.383s 102CC040#0000000000000000 note=live TC matrix 000000
(1780167349.675000) can0 102CC040#0000000000000000
# tx t=306.635s 102CC040#0000000000000000 note=live TC matrix 000000
(1780167349.927000) can0 102CC040#0000000000000000
(1780167350.085000) can0 13FFE060#
# tx t=306.889s 102CC040#0000000000000000 note=live TC matrix 000000
(1780167350.181000) can0 102CC040#0000000000000000
