# cantool TX/RX capture bitrate=33333.333 fclk=170000000 brp=255 prop=1 phase1=13 phase2=5 sjw=4
# listen-only profile: adapter opened listen-only and no TX schedule is active
(1780156057.548000) can0 1022E040#2000000020000000
(1780156057.557000) can0 10230040#2000000020000000
(1780156057.557000) can0 1022A040#00B00000000000
(1780156057.558000) can0 1022C040#00000000
(1780156057.558000) can0 10240040#83FF880100D80FFD
(1780156057.561000) can0 102C0040#803C96B503
(1780156057.580000) can0 102CA040#0000000000000F00
(1780156057.580000) can0 102CC040#0800000000000000
(1780156057.607000) can0 10264040#0000000000000000
(1780156057.608000) can0 102CE040#0700070000000000
(1780156057.611000) can0 10210040#0000800000008000
(1780156057.613000) can0 10220040#1000000040080000
(1780156057.617000) can0 1022E040#0000000000000000
(1780156057.622000) can0 10780040#0000000000000000
(1780156057.643000) can0 10800040#000000000000
(1780156057.647000) can0 10240040#83FF880100D80000
(1780156057.652000) can0 106B8040#0000000000000000
(1780156057.656000) can0 102C0040#803C96B503
(1780156057.674000) can0 102CA040#0000000000000F00
(1780156057.676000) can0 621#0052000000000000
(1780156057.687000) can0 10264040#0000000000000000
(1780156057.705000) can0 10210040#0000800000008000
(1780156057.706000) can0 1080E040#0000000000000000
(1780156057.707000) can0 10220040#1000000040080000
(1780156057.711000) can0 13FFE040#
(1780156057.717000) can0 1022E040#2000000020000000
(1780156057.737000) can0 10230040#2000000020000000
(1780156057.747000) can0 10240040#83FE880100D80FFD
(1780156057.768000) can0 102C0040#803C96B503
(1780156057.769000) can0 102CA040#0000000000000F00
(1780156057.801000) can0 10264040#0000000000000000
(1780156057.801000) can0 10210040#0000800000008000
(1780156057.802000) can0 1022A040#00B00000000000
(1780156057.807000) can0 10220040#1000000040080000
(1780156057.811000) can0 1022C040#00000000
(1780156057.832000) can0 1022E040#0000000000000000
(1780156057.833000) can0 10248040#00005DA6A300
(1780156057.833000) can0 10230040#0000000000000000
(1780156057.833000) can0 10250040#0000
(1780156057.837000) can0 102CC040#0800000000000000
(1780156057.842000) can0 102CE040#0700070000000000
(1780156057.847000) can0 10240040#83FF880100D80FFD
(1780156057.864000) can0 102D0040#0000000000000000
(1780156057.864000) can0 102C0040#803C96B503
(1780156057.865000) can0 102E0040#840000000000005A
(1780156057.867000) can0 102CA040#0000000000000F00
(1780156057.872000) can0 106B8040#0000000000000000
(1780156057.876000) can0 106C0040#00B5D1DE00
(1780156057.894000) can0 1077C040#303003B9
(1780156057.895000) can0 10264040#0000000000000000
(1780156057.895000) can0 10780040#0000000000000000
(1780156057.897000) can0 10210040#0000800000008000
(1780156057.901000) can0 10788040#100A00000000
(1780156057.907000) can0 10220040#1000000040080000
(1780156057.926000) can0 10800040#000000000000
(1780156057.926000) can0 1022E040#1000000010000000
(1780156057.927000) can0 10806040#0000000000
(1780156057.927000) can0 10230040#2000000020000000
(1780156057.957000) can0 10240040#83FF880100D80000
(1780156057.958000) can0 102C0040#803C96B503
(1780156057.967000) can0 102CA040#0000000000000F00
(1780156057.989000) can0 10264040#0000000000000000
(1780156057.997000) can0 10210040#0000800000008000
(1780156058.021000) can0 10220040#1000000040080000
(1780156058.022000) can0 1022E040#0000000000000000
(1780156058.027000) can0 10230040#0000000000000000
(1780156058.052000) can0 1022A040#00B00000000000
(1780156058.052000) can0 1022C040#00000000
(1780156058.057000) can0 10240040#83FF880100D80000
(1780156058.061000) can0 102C0040#803C96B503
(1780156058.084000) can0 106B8040#0000000000000000
(1780156058.084000) can0 102CC040#0800000000000000
(1780156058.087000) can0 10264040#0000000000000000
(1780156058.092000) can0 102CE040#0700070000000000
(1780156058.097000) can0 10210040#0000800000008000
(1780156058.115000) can0 10220040#1000000040080000
(1780156058.117000) can0 1022E040#2000000020000000
(1780156058.122000) can0 10780040#0000000000000000
(1780156058.127000) can0 10230040#2000000020000000
(1780156058.147000) can0 10800040#000000000000
(1780156058.148000) can0 10240040#83FF880100D80FFD
(1780156058.156000) can0 102C0040#803C96B503
(1780156058.177000) can0 102CA040#0000000000000F00
(1780156058.187000) can0 10264040#0000000000000000
(1780156058.209000) can0 10210040#0000800000008000
(1780156058.211000) can0 10220040#1000000040080000
(1780156058.217000) can0 1022E040#2000000020000000
(1780156058.240000) can0 10230040#0000000000000000
(1780156058.247000) can0 10240040#83FE880100D80FFD
(1780156058.252000) can0 106B8040#0000000000000000
(1780156058.271000) can0 102C0040#803C96B503
(1780156058.272000) can0 102CA040#0000000000000F00
(1780156058.302000) can0 10264040#0000000000000000
(1780156058.303000) can0 10210040#0000800000008000
(1780156058.303000) can0 1022A040#00B00000000000
(1780156058.307000) can0 10220040#1000000040080000
(1780156058.311000) can0 1022C040#00000000
(1780156058.318000) can0 1022E040#2000000020000000
(1780156058.322000) can0 10248040#00005DA6A300
(1780156058.327000) can0 10230040#2000000020000000
(1780156058.333000) can0 102CC040#0800000000000000
(1780156058.350000) can0 102CE040#0700070000000000
(1780156058.350000) can0 102D0040#0000000000000000
(1780156058.351000) can0 10240040#83FF880100D80FFD
(1780156058.356000) can0 102C0040#803C96B503
(1780156058.361000) can0 10806040#0000000000
(1780156058.381000) can0 102CA040#0000000000000F00
(1780156058.382000) can0 10780040#0000000000000000
(1780156058.383000) can0 10788040#100A00000000
(1780156058.383000) can0 10800040#000000000000
(1780156058.387000) can0 10264040#0000000000000000
(1780156058.413000) can0 10210040#0000800000008000
(1780156058.414000) can0 10220040#1000000040080000
(1780156058.417000) can0 1022E040#2000000020000000
(1780156058.427000) can0 10230040#0000000000000000
(1780156058.460000) can0 10240040#83FE880100D80FFD
(1780156058.461000) can0 106B8040#0000000000000000
(1780156058.461000) can0 102C0040#803C96B503
(1780156058.468000) can0 102CA040#0000000000000F00
(1780156058.492000) can0 10264040#0000000000000000
(1780156058.497000) can0 10210040#0000800000008000
(1780156058.523000) can0 1022E040#0000000000000000
(1780156058.527000) can0 10230040#2000000020000000
(1780156058.555000) can0 1022A040#00B00000000000
(1780156058.555000) can0 1022C040#00000000
(1780156058.557000) can0 10240040#83FF880100D80000
(1780156058.561000) can0 102C0040#803C96B503
(1780156058.567000) can0 102CA040#0000000000000F00
(1780156058.586000) can0 102CC040#0800000000000000
(1780156058.587000) can0 10264040#0000000000000000
(1780156058.593000) can0 102CE040#0700070000000000
(1780156058.597000) can0 10210040#0000800000008000
(1780156058.616000) can0 10220040#10000000400A0000
(1780156058.617000) can0 1022E040#3000000030000000
(1780156058.622000) can0 10780040#0000000000000000
(1780156058.627000) can0 10230040#0000000000000000
(1780156058.647000) can0 10240040#83FE880100D80000
(1780156058.653000) can0 106B8040#0000000000000000
(1780156058.657000) can0 102C0040#803C96B503
(1780156058.678000) can0 102CA040#0000000000000F00
(1780156058.679000) can0 621#0052000000000000
(1780156058.687000) can0 10264040#0000000000000000
(1780156058.699000) can0 1080A040#00000000
(1780156058.700000) can0 10210040#0000800000008000
(1780156058.702000) can0 1080E040#0000000000000000
(1780156058.720000) can0 10220040#1000000040080000
(1780156058.729000) can0 10814040#00000000
(1780156058.730000) can0 1022E040#1000000010000000
(1780156058.731000) can0 10230040#2000000020000000
(1780156058.757000) can0 10240040#83FE880100D80FFD
(1780156058.758000) can0 102C0040#803C96B503
(1780156058.767000) can0 102CA040#0000000000000F00
(1780156058.788000) can0 10264040#0000000000000000
(1780156058.797000) can0 10210040#0000800000008000
(1780156058.801000) can0 1022A040#00B00000000000
(1780156058.821000) can0 10220040#1000000040080000
(1780156058.822000) can0 1022C040#00000000
(1780156058.826000) can0 1022E040#2000000020000000
(1780156058.827000) can0 10242040#01
(1780156058.827000) can0 10230040#0000000000000000
(1780156058.831000) can0 10248040#00005DA6A300
(1780156058.835000) can0 10250040#0000
(1780156058.842000) can0 102CC040#0800000000000000
(1780156058.847000) can0 10240040#83FF880100D80000
(1780156058.867000) can0 102CE040#0700070000000000
(1780156058.867000) can0 102C0040#803C96B503
(1780156058.868000) can0 102D0040#0000000000000000
(1780156058.868000) can0 102CA040#0000000000000F00
(1780156058.872000) can0 102E0040#840000000000005A
(1780156058.877000) can0 106B8040#0000000000000000
(1780156058.881000) can0 106C0040#00B5D1DE00
(1780156058.898000) can0 10264040#0000000000000000
(1780156058.899000) can0 1077C040#303003B9
(1780156058.899000) can0 10210040#0000800000008000
(1780156058.902000) can0 10780040#0000000000000000
(1780156058.907000) can0 10220040#1000000040080000
(1780156058.911000) can0 10788040#100A00000000
(1780156058.929000) can0 1022E040#0000000000000000
(1780156058.929000) can0 10800040#000000000000
(1780156058.930000) can0 10230040#2000000020000000
(1780156058.931000) can0 10806040#0000000000
(1780156058.937000) can0 10EC4040#3056305845503638
(1780156058.942000) can0 10EC8040#4B34303238383139
(1780156058.960000) can0 10240040#8000880100D80000
(1780156058.961000) can0 13FFE040#
(1780156058.961000) can0 102C0040#803C96B503
(1780156058.967000) can0 102CA040#0000000000000F00
(1780156058.992000) can0 10264040#0000000000000000
(1780156058.997000) can0 10210040#0000800000008000
(1780156059.023000) can0 1022E040#2000000020000000
(1780156059.027000) can0 10230040#0000000000000000
(1780156059.055000) can0 1022A040#00B00000000000
(1780156059.055000) can0 1022C040#00000000
(1780156059.057000) can0 10240040#83FF880100D80FFD
(1780156059.061000) can0 102C0040#803C96B503
(1780156059.067000) can0 102CA040#0000000000000F00
(1780156059.085000) can0 106B8040#0000000000000000
(1780156059.086000) can0 102CC040#0800000000000000
(1780156059.087000) can0 10264040#0000000000000000
(1780156059.092000) can0 102CE040#0700070000000000
(1780156059.097000) can0 10210040#0000800000008000
(1780156059.116000) can0 10220040#1000000040080000
(1780156059.117000) can0 1022E040#0000000000000000
(1780156059.122000) can0 10780040#0000000000000000
(1780156059.127000) can0 10230040#2000000020000000
(1780156059.131000) can0 10800040#000000000000
(1780156059.148000) can0 10240040#83FF880100D80FFD
(1780156059.156000) can0 102C0040#803C96B503
(1780156059.167000) can0 102CA040#0000000000000F00
(1780156059.195000) can0 10264040#0000000000000000
(1780156059.197000) can0 10210040#0000800000008000
(1780156059.207000) can0 10220040#10000000400A0000
(1780156059.227000) can0 1022E040#2000000020000000
(1780156059.227000) can0 10230040#0000000000000000
(1780156059.258000) can0 10240040#83FF880100D80000
(1780156059.260000) can0 106B8040#0000000000000000
(1780156059.261000) can0 102C0040#803C96B503
(1780156059.267000) can0 102CA040#0000000000000F00
(1780156059.289000) can0 10264040#0000000000000000
(1780156059.297000) can0 10210040#0000800000008000
(1780156059.302000) can0 1022A040#00B00000000000
(1780156059.322000) can0 10220040#1000000040080000
(1780156059.332000) can0 1022C040#00000000
(1780156059.333000) can0 1022E040#1000000010000000
(1780156059.333000) can0 10248040#00005DA6A300
(1780156059.335000) can0 10230040#2000000020000000
(1780156059.335000) can0 102CC040#0800000000000000
(1780156059.337000) can0 102CE040#0700070000000000
(1780156059.342000) can0 102D0040#0000000000000000
(1780156059.347000) can0 10240040#83FF880100D80000
(1780156059.369000) can0 102C0040#803C96B503
(1780156059.370000) can0 10806040#0000000000
(1780156059.370000) can0 102CA040#0000000000000F00
(1780156059.372000) can0 10780040#0000000000000000
(1780156059.376000) can0 10788040#100A00000000
(1780156059.382000) can0 10800040#000000000000
(1780156059.400000) can0 10264040#0000000000000000
(1780156059.401000) can0 10210040#0000800000008000
(1780156059.409000) can0 10220040#1000000040080000
(1780156059.431000) can0 1022E040#2000000020000000
(1780156059.432000) can0 10230040#0000000000000000
(1780156059.463000) can0 106B8040#0000000000000000
(1780156059.467000) can0 102C0040#803C96B503
(1780156059.468000) can0 102CA040#0000000000000F00
(1780156059.495000) can0 10264040#0000000000000000
(1780156059.497000) can0 10210040#0000800000008000
(1780156059.507000) can0 10220040#1000000040080000
(1780156059.527000) can0 1022E040#0000000000000000
(1780156059.528000) can0 10230040#2000000020000000
(1780156059.557000) can0 1022A040#00B00000000000
(1780156059.558000) can0 1022C040#00000000
(1780156059.558000) can0 10240040#83FF880100D80FFD
(1780156059.561000) can0 102C0040#803C96B503
(1780156059.567000) can0 102CA040#0000000000000F00
(1780156059.588000) can0 102CC040#0800000000000000
(1780156059.589000) can0 10264040#0000000000000000
(1780156059.594000) can0 102CE040#0700070000000000
(1780156059.597000) can0 10210040#0000800000008000
(1780156059.621000) can0 10220040#1000000040080000
(1780156059.621000) can0 1022E040#2000000020000000
(1780156059.622000) can0 10780040#0000000000000000
(1780156059.627000) can0 10230040#0000000000000000
(1780156059.631000) can0 10800040#000000000000
(1780156059.651000) can0 10240040#83FF880100D80000
(1780156059.653000) can0 106B8040#0000000000000000
(1780156059.659000) can0 102C0040#803C96B503
(1780156059.684000) can0 621#0052000000000000
(1780156059.687000) can0 10264040#0000000000000000
(1780156059.691000) can0 1080A040#00000000
(1780156059.697000) can0 10210040#0000800000008000
(1780156059.714000) can0 1080E040#0000000000000000
(1780156059.715000) can0 10220040#10000000400A0000
(1780156059.717000) can0 1022E040#1000000010000000
(1780156059.727000) can0 10230040#2000000020000000
(1780156059.747000) can0 10240040#8000880100D80000
(1780156059.759000) can0 102C0040#803C96B503
(1780156059.779000) can0 102CA040#0000000000000F00
(1780156059.787000) can0 10264040#0000000000000000
(1780156059.811000) can0 10210040#0000800000008000
(1780156059.812000) can0 1022A040#00B00000000000
(1780156059.813000) can0 10220040#1000000040080000
(1780156059.814000) can0 1022C040#00000000
(1780156059.817000) can0 1022E040#2000000020000000
(1780156059.821000) can0 10248040#00005DA6A300
(1780156059.840000) can0 10230040#0000000000000000
(1780156059.841000) can0 10250040#0000
(1780156059.841000) can0 102CC040#0800000000000000
(1780156059.842000) can0 102CE040#0700070000000000
(1780156059.847000) can0 10240040#83FE880100D80000
(1780156059.852000) can0 102D0040#0000000000000000
(1780156059.872000) can0 102C0040#803C96B503
(1780156059.873000) can0 102E0040#840000000000005A
(1780156059.878000) can0 102CA040#0000000000000F00
(1780156059.878000) can0 106B8040#0000000000000000
(1780156059.879000) can0 106C0040#00B5D1DE00
(1780156059.881000) can0 1077C040#303003B9
(1780156059.912000) can0 10780040#0000000000000000
(1780156059.929000) can0 10210040#0000800000008000
(1780156059.930000) can0 10788040#100A00000000
(1780156059.931000) can0 10220040#1000000040080000
(1780156059.932000) can0 10800040#000000000000
(1780156059.935000) can0 1022E040#1000000010000000
(1780156059.936000) can0 10806040#0000000000
(1780156059.937000) can0 10230040#2000000020000000
(1780156059.946000) can0 10240040#83FF880100D80FFD
(1780156059.965000) can0 102C0040#803C96B503
(1780156059.967000) can0 102CA040#0000000000000F00
(1780156059.996000) can0 10264040#0000000000000000
(1780156059.996000) can0 10210040#0000800000008000
(1780156060.000000) can0 10242040#02
(1780156060.006000) can0 10220040#1000000040080000
(1780156060.010000) can0 10758040#020000
(1780156060.028000) can0 1022E040#3000000030000000
(1780156060.029000) can0 10230040#0000000000000000
(1780156060.064000) can0 1022A040#00B00000000000
(1780156060.065000) can0 1022C040#00000000
(1780156060.066000) can0 10240040#83FE880100D80000
(1780156060.066000) can0 102C0040#803C96B503
(1780156060.067000) can0 102CA040#0000000000000F00
(1780156060.072000) can0 106B8040#0000000000000000
(1780156060.091000) can0 10264040#0000000000000000
(1780156060.094000) can0 102CE040#0700070000000000
(1780156060.096000) can0 10210040#0000800000008000
(1780156060.101000) can0 10400040#863C00FF58
(1780156060.130000) can0 13FFE040#
(1780156060.133000) can0 1022E040#1000000010000000
(1780156060.133000) can0 10780040#0000000000000000
(1780156060.134000) can0 10230040#2000000020000000
(1780156060.134000) can0 10800040#000000000000
(1780156060.153000) can0 10240040#83FE880100D80000
(1780156060.156000) can0 102C0040#803C96B503
(1780156060.167000) can0 102CA040#0000000000000F00
(1780156060.187000) can0 10264040#0000000000000000
(1780156060.197000) can0 10210040#0000800000008000
(1780156060.218000) can0 10220040#1000000040080000
(1780156060.218000) can0 1022E040#3000000030000000
(1780156060.221000) can0 10400040#863C00FF58
(1780156060.234000) can0 10230040#0000000000000000
(1780156060.246000) can0 10240040#83FF880100D80FFD
(1780156060.266000) can0 106B8040#0000000000000000
(1780156060.269000) can0 102C0040#803C96B503
(1780156060.270000) can0 102CA040#0000000000000F00
(1780156060.297000) can0 10264040#0000000000000000
(1780156060.298000) can0 10210040#0000800000008000
(1780156060.302000) can0 1022A040#00B00000000000
(1780156060.306000) can0 10220040#1000000040080000
(1780156060.310000) can0 1022C040#00000000
(1780156060.329000) can0 1022E040#1000000010000000
(1780156060.330000) can0 10248040#00005DA6A300
(1780156060.330000) can0 10230040#2000000020000000
(1780156060.331000) can0 102CC040#0800000000000000
(1780156060.337000) can0 102CE040#0700070000000000
(1780156060.345000) can0 102D0040#0000000000000000
(1780156060.347000) can0 10240040#83FF880100D80FFD
(1780156060.356000) can0 102C0040#803C96B503
(1780156060.363000) can0 10806040#0000000000
(1780156060.366000) can0 102CA040#0000000000000F00
(1780156060.372000) can0 10780040#0000000000000000
(1780156060.390000) can0 10788040#100A00000000
(1780156060.390000) can0 10800040#000000000000
(1780156060.391000) can0 10264040#0000000000000000
(1780156060.397000) can0 10210040#0000800000008000
(1780156060.421000) can0 10220040#1000000040080000
(1780156060.421000) can0 1022E040#3000000030000000
(1780156060.427000) can0 10230040#0000000000000000
(1780156060.454000) can0 10240040#83FF880100D80000
(1780156060.455000) can0 106B8040#0000000000000000
(1780156060.456000) can0 102C0040#803C96B503
(1780156060.487000) can0 10264040#0000000000000000
(1780156060.497000) can0 10210040#0000800000008000
(1780156060.515000) can0 1020C040#0040040401
(1780156060.515000) can0 10220040#1000000040080000
(1780156060.516000) can0 1022E040#1000000010000000
(1780156060.527000) can0 10230040#2000000020000000
(1780156060.550000) can0 1022A040#00B00000000000
(1780156060.551000) can0 1022C040#00000000
(1780156060.557000) can0 10240040#83FF880100D80000
(1780156060.577000) can0 102CA040#0000000000000F00
(1780156060.578000) can0 102CC040#0800C00000000000
(1780156060.586000) can0 10264040#0000000000000000
(1780156060.592000) can0 102CE040#0700070000000000
(1780156060.596000) can0 10210040#0000800000008000
(1780156060.606000) can0 10220040#1000000040080000
(1780156060.624000) can0 1022E040#3000000030000000
(1780156060.625000) can0 10780040#0000000000000000
(1780156060.626000) can0 10230040#0000000000000000
(1780156060.632000) can0 10800040#000000000000
(1780156060.656000) can0 10240040#83FF880100D80FFD
(1780156060.658000) can0 106B8040#0000000000000000
(1780156060.659000) can0 102C0040#803C96B503
(1780156060.667000) can0 102CA040#0000000000000F00
(1780156060.687000) can0 621#0052000000000000
(1780156060.688000) can0 10264040#0000000000000000
(1780156060.692000) can0 1080A040#00000000
(1780156060.697000) can0 10210040#0000800000008000
(1780156060.718000) can0 10220040#1000000040080000
(1780156060.719000) can0 1022E040#1000000010000000
(1780156060.727000) can0 10230040#2000000020000000
(1780156060.750000) can0 10240040#83FE880100D80FFD
(1780156060.755000) can0 102C0040#803C96B503
(1780156060.783000) can0 102CA040#0000000000000F00
(1780156060.788000) can0 10264040#0000000000000000
(1780156060.814000) can0 1022A040#00B00000000000
(1780156060.817000) can0 10220040#1000000040080000
(1780156060.820000) can0 1022C040#00000000
(1780156060.821000) can0 1022E040#3000000030000000
(1780156060.822000) can0 10248040#00005CA6A300
(1780156060.826000) can0 10230040#0000000000000000
(1780156060.844000) can0 10250040#0000
(1780156060.845000) can0 102CC040#0800C00000000000
(1780156060.845000) can0 102CE040#0700070000000000
(1780156060.846000) can0 10240040#83FE880100D80FFD
(1780156060.851000) can0 102D0040#0000000000000000
(1780156060.855000) can0 102C0040#803C96B503
(1780156060.875000) can0 102E0040#840000000000004E
(1780156060.877000) can0 102CA040#0000000000000F00
(1780156060.878000) can0 106B8040#0000000000000000
(1780156060.879000) can0 106C0040#00B5D1DE00
(1780156060.880000) can0 1077C040#303003B9
(1780156060.886000) can0 10264040#0000000000000000
(1780156060.906000) can0 10210040#0000800000008000
(1780156060.907000) can0 10788040#100A00000000
(1780156060.907000) can0 10220040#1000000040080000
(1780156060.911000) can0 10800040#000000000000
(1780156060.916000) can0 1022E040#1000000010000000
(1780156060.921000) can0 10806040#0000000000
(1780156060.937000) can0 10230040#2000000020000000
(1780156060.946000) can0 10240040#83FE880100D80000
(1780156060.968000) can0 102C0040#803C96B503
(1780156060.969000) can0 102CA040#0000000000000F00
(1780156061.000000) can0 10264040#0000000000000000
(1780156061.001000) can0 10210040#0000800000008000
(1780156061.006000) can0 10220040#1000000040080000
(1780156061.032000) can0 1022E040#3000000030000000
(1780156061.033000) can0 10230040#0000000000000000
(1780156061.046000) can0 1022A040#00B00000000000
(1780156061.050000) can0 1022C040#00000000
(1780156061.056000) can0 10240040#83FF880100D80FFD
(1780156061.060000) can0 102C0040#803C96B503
(1780156061.079000) can0 102CA040#0000000000000F00
(1780156061.080000) can0 106B8040#0000000000000000
(1780156061.080000) can0 102CC040#0800C00000000000
(1780156061.086000) can0 10264040#0000000000000000
(1780156061.091000) can0 102CE040#0700070000000000
(1780156061.109000) can0 10210040#0000800000008000
(1780156061.110000) can0 10220040#10000000400A0000
(1780156061.116000) can0 1022E040#1000000010000000
(1780156061.121000) can0 10780040#0000000000000000
(1780156061.141000) can0 10230040#2000000020000000
(1780156061.142000) can0 10800040#000000000000
(1780156061.146000) can0 10240040#83FF880100D80FFD
(1780156061.155000) can0 102C0040#803C96B503
(1780156061.174000) can0 102CA040#0000000000000F00
(1780156061.186000) can0 10264040#0000000000000000
(1780156061.205000) can0 10814040#00000000
(1780156061.205000) can0 10210040#0000800000008000
(1780156061.206000) can0 10220040#1000000040080000
(1780156061.216000) can0 1022E040#3000000030000000
(1780156061.236000) can0 10230040#0000000000000000
(1780156061.246000) can0 10240040#83FE880100D80000
(1780156061.251000) can0 106B8040#0000000000000000
(1780156061.255000) can0 102C0040#803C96B503
(1780156061.266000) can0 102CA040#0000000000000F00
(1780156061.298000) can0 10264040#0000000000000000
(1780156061.299000) can0 13FFE040#
(1780156061.299000) can0 10210040#0000800000008000
(1780156061.301000) can0 1022A040#00B00000000000
(1780156061.306000) can0 10220040#10000000400A0000
(1780156061.310000) can0 1022C040#00000000
(1780156061.331000) can0 1022E040#1000000010000000
(1780156061.338000) can0 10248040#00005CA6A300
(1780156061.339000) can0 10230040#2000000020000000
(1780156061.339000) can0 102CC040#0800C00000000000
(1780156061.339000) can0 102CE040#0700070000000000
(1780156061.341000) can0 102D0040#0000000000000000
(1780156061.346000) can0 10240040#83FE880100D80FFD
(1780156061.355000) can0 102C0040#803C96B503
(1780156061.360000) can0 10806040#0000000000
(1780156061.378000) can0 102CA040#0000000000000F00
(1780156061.378000) can0 10780040#0000000000000000
(1780156061.378000) can0 10788040#100A00000000
(1780156061.381000) can0 10800040#000000000000
(1780156061.386000) can0 10264040#0000000000000000
(1780156061.410000) can0 10210040#0000800000008000
(1780156061.410000) can0 10220040#1000000040080000
(1780156061.416000) can0 1022E040#3000000030000000
(1780156061.441000) can0 10230040#0000000000000000
(1780156061.446000) can0 10240040#83FF880100D80FFD
(1780156061.451000) can0 106B8040#0000000000000000
(1780156061.455000) can0 102C0040#803C96B503
(1780156061.466000) can0 102CA040#0000000000000F00
(1780156061.487000) can0 10264040#0000000000000000
(1780156061.496000) can0 10210040#0000800000008000
(1780156061.519000) can0 10220040#1000000040080000
(1780156061.519000) can0 1022E040#1000000010000000
(1780156061.526000) can0 10230040#2000000020000000
(1780156061.551000) can0 1022A040#00B00000000000
(1780156061.551000) can0 1022C040#00000000
(1780156061.556000) can0 10240040#83FE880100D80FFD
(1780156061.560000) can0 102C0040#803C96B503
(1780156061.581000) can0 102CA040#0000000000000F00
(1780156061.582000) can0 102CC040#0800C00000000000
(1780156061.586000) can0 10264040#0000000000000000
(1780156061.591000) can0 102CE040#0700070000000000
(1780156061.596000) can0 10210040#0000800000008000
(1780156061.606000) can0 10220040#1000000040080000
(1780156061.628000) can0 1022E040#3000000030000000
(1780156061.628000) can0 10780040#0000000000000000
(1780156061.629000) can0 10230040#0000000000000000
(1780156061.631000) can0 10800040#000000000000
(1780156061.660000) can0 10240040#83FE880100D80000
(1780156061.660000) can0 106B8040#0000000000000000
(1780156061.660000) can0 102C0040#803C96B503
(1780156061.666000) can0 102CA040#0000000000000F00
(1780156061.691000) can0 621#0052000000000000
(1780156061.691000) can0 10264040#0000000000000000
(1780156061.692000) can0 1080A040#00000000
(1780156061.696000) can0 10210040#0000800000008000
(1780156061.699000) can0 10632040#4000
(1780156061.706000) can0 10220040#1000000040080000
(1780156061.711000) can0 1080E040#0000000000000000
(1780156061.716000) can0 1022E040#1000000010000000
(1780156061.737000) can0 10230040#2000000020000000
(1780156061.746000) can0 10240040#83FE880100D80000
(1780156061.767000) can0 102C0040#803C96B503
(1780156061.768000) can0 102CA040#0000000000000F00
(1780156061.799000) can0 10264040#0000000000000000
(1780156061.799000) can0 10210040#0000800000008000
(1780156061.801000) can0 1022A040#00B00000000000
(1780156061.806000) can0 10220040#1000000040080000
(1780156061.810000) can0 1022C040#00000000
(1780156061.830000) can0 1022E040#3000000030000000
(1780156061.831000) can0 10248040#00005CA6A300
(1780156061.831000) can0 10230040#0000000000000000
(1780156061.831000) can0 10250040#0000
(1780156061.836000) can0 102CC040#0800C00000000000
(1780156061.841000) can0 102CE040#0700070000000000
(1780156061.861000) can0 10240040#83FF880100D80000
(1780156061.862000) can0 102D0040#0000000000000000
(1780156061.862000) can0 102C0040#803C96B503
(1780156061.863000) can0 102E0040#840000000000004E
(1780156061.866000) can0 102CA040#0000000000000F00
(1780156061.871000) can0 106B8040#0000000000000000
(1780156061.875000) can0 106C0040#00B5D1DE00
(1780156061.893000) can0 1077C040#303003B9
(1780156061.894000) can0 10264040#0000000000000000
(1780156061.894000) can0 10780040#0000000000000000
(1780156061.896000) can0 10210040#0000800000008000
(1780156061.901000) can0 10788040#100A00000000
(1780156061.906000) can0 10220040#1000000040080000
(1780156061.925000) can0 10800040#000000000000
(1780156061.925000) can0 1022E040#1000000010000000
(1780156061.925000) can0 10806040#0000000000
(1780156061.926000) can0 10230040#2000000020000000
(1780156061.956000) can0 10240040#83FE880100D80FFD
(1780156061.957000) can0 102C0040#803C96B503
(1780156061.967000) can0 102CA040#0000000000000F00
(1780156061.987000) can0 10264040#0000000000000000
(1780156061.997000) can0 10210040#0000800000008000
(1780156062.018000) can0 10220040#1000000040080000
(1780156062.019000) can0 1022E040#3000000030000000
(1780156062.026000) can0 10230040#0000000000000000
(1780156062.050000) can0 1022A040#00B00000000000
(1780156062.050000) can0 1022C040#00000000
(1780156062.057000) can0 10240040#83FF880100D80FFD
(1780156062.060000) can0 102C0040#803C96B503
(1780156062.082000) can0 102CA040#0000000000000F00
(1780156062.083000) can0 106B8040#0000000000000000
(1780156062.083000) can0 102CC040#0800C00000000000
(1780156062.086000) can0 10264040#0000000000000000
(1780156062.092000) can0 102CE040#0700070000000000
(1780156062.113000) can0 10220040#10000000400A0000
(1780156062.116000) can0 1022E040#1000000010000000
(1780156062.121000) can0 10780040#0000000000000000
(1780156062.126000) can0 10230040#2000000020000000
(1780156062.143000) can0 10800040#000000000000
(1780156062.146000) can0 10240040#83FF880100D80FFD
(1780156062.156000) can0 102C0040#803C96B503
(1780156062.167000) can0 102CA040#0000000000000F00
(1780156062.195000) can0 10264040#0000000000000000
(1780156062.200000) can0 10210040#0000800000008000
(1780156062.222000) can0 10220040#10000000400A0000
(1780156062.222000) can0 1022E040#3000000030000000
(1780156062.226000) can0 10230040#0000000000000000
(1780156062.262000) can0 10240040#83FE880100D80000
(1780156062.268000) can0 106B8040#0000000000000000
(1780156062.269000) can0 102C0040#803C96B503
(1780156062.269000) can0 102CA040#0000000000000F00
(1780156062.298000) can0 10264040#0000000000000000
(1780156062.299000) can0 10210040#0000800000008000
(1780156062.301000) can0 1022A040#00B00000000000
(1780156062.307000) can0 10220040#1000000040080000
(1780156062.310000) can0 1022C040#00000000
(1780156062.330000) can0 1022E040#1000000010000000
(1780156062.330000) can0 10248040#00005CA6A300
(1780156062.331000) can0 10230040#2000000020000000
(1780156062.331000) can0 102CC040#0800C00000000000
(1780156062.336000) can0 102CE040#0700070000000000
(1780156062.341000) can0 102D0040#0000000000000000
(1780156062.362000) can0 10240040#83FF880100D80000
(1780156062.363000) can0 102C0040#803C96B503
(1780156062.364000) can0 10806040#0000000000
(1780156062.367000) can0 102CA040#0000000000000F00
(1780156062.372000) can0 10780040#0000000000000000
(1780156062.392000) can0 10800040#000000000000
(1780156062.393000) can0 10264040#0000000000000000
(1780156062.396000) can0 10210040#0000800000008000
(1780156062.424000) can0 1022E040#3000000030000000
(1780156062.426000) can0 10230040#0000000000000000
(1780156062.458000) can0 10240040#83FF880100D80FFD
(1780156062.460000) can0 106B8040#0000000000000000
(1780156062.460000) can0 102C0040#803C96B503
(1780156062.467000) can0 102CA040#0000000000000F00
(1780156062.487000) can0 10264040#0000000000000000
(1780156062.489000) can0 13FFE040#
(1780156062.496000) can0 10210040#0000800000008000
(1780156062.518000) can0 10220040#1000000040080000
(1780156062.519000) can0 1022E040#1000000010000000
(1780156062.527000) can0 10230040#2000000020000000
(1780156062.554000) can0 1022A040#00B00000000000
(1780156062.555000) can0 1022C040#00000000
(1780156062.556000) can0 10240040#83FE880100D80000
(1780156062.560000) can0 102C0040#803C96B503
(1780156062.579000) can0 102CA040#0000000000000F00
(1780156062.580000) can0 102CC040#0800C00000000000
(1780156062.587000) can0 10264040#0000000000000000
(1780156062.591000) can0 102CE040#0700070000000000
(1780156062.612000) can0 10210040#0000800000008000
(1780156062.612000) can0 10220040#1000000040080000
(1780156062.613000) can0 1062C040#000BF7B714
(1780156062.616000) can0 1022E040#3000000030000000
(1780156062.622000) can0 10780040#0000000000000000
(1780156062.626000) can0 10230040#0000000000000000
(1780156062.630000) can0 10800040#000000000000
(1780156062.659000) can0 10240040#83FF880100D80FFD
(1780156062.659000) can0 106B8040#0000000000000000
(1780156062.660000) can0 102C0040#803C96B503
(1780156062.667000) can0 102CA040#0000000000000F00
(1780156062.693000) can0 10264040#0000000000000000
(1780156062.694000) can0 1080A040#00000000
(1780156062.697000) can0 10210040#0000800000008000
(1780156062.702000) can0 1080E040#0000000000000000
(1780156062.722000) can0 1022E040#1000000010000000
(1780156062.726000) can0 10230040#2000000020000000
(1780156062.754000) can0 10240040#83FE880100D80000
(1780156062.755000) can0 102C0040#803C96B503
(1780156062.767000) can0 102CA040#0000000000000F00
(1780156062.786000) can0 10264040#0000000000000000
(1780156062.801000) can0 10210040#0000800000008000
(1780156062.803000) can0 1022A040#00B00000000000
(1780156062.806000) can0 10220040#1000000040080000
(1780156062.810000) can0 1022C040#00000000
(1780156062.831000) can0 1022E040#3000000030000000
(1780156062.832000) can0 10248040#00005CA6A300
(1780156062.832000) can0 10230040#0000000000000000
(1780156062.833000) can0 10250040#0000
(1780156062.837000) can0 102CC040#0800C00000000000
(1780156062.842000) can0 102CE040#0700070000000000
(1780156062.864000) can0 102D0040#0000000000000000
(1780156062.865000) can0 102C0040#803C96B503
(1780156062.865000) can0 102E0040#840000000000004E
(1780156062.866000) can0 102CA040#0000000000000F00
(1780156062.872000) can0 106B8040#0000000000000000
(1780156062.876000) can0 106C0040#00B5D1DE00
(1780156062.895000) can0 1077C040#303003B9
(1780156062.896000) can0 10264040#0000000000000000
(1780156062.896000) can0 10780040#0000000000000000
(1780156062.896000) can0 10210040#0000800000008000
(1780156062.900000) can0 10788040#100A00000000
(1780156062.909000) can0 10220040#1000000040080000
(1780156062.910000) can0 10800040#000000000000
(1780156062.916000) can0 1022E040#1000000010000000
(1780156062.921000) can0 10806040#0000000000
(1780156062.946000) can0 10240040#83FF880100D80000
(1780156062.955000) can0 102C0040#803C96B503
(1780156062.973000) can0 102CA040#0000000000000F00
(1780156062.987000) can0 10264040#0000000000000000
(1780156063.005000) can0 10210040#0000800000008000
(1780156063.006000) can0 10220040#10000000400A0000
(1780156063.016000) can0 1022E040#3000000030000000
(1780156063.036000) can0 10230040#0000000000000000
(1780156063.046000) can0 1022A040#00B00000000000
(1780156063.067000) can0 10240040#83FF880100D80FFD
(1780156063.068000) can0 102C0040#803C96B503
(1780156063.068000) can0 102CA040#0000000000000F00
(1780156063.072000) can0 106B8040#0000000000000000
(1780156063.076000) can0 102CC040#0800C00000000000
(1780156063.098000) can0 10264040#0000000000000000
(1780156063.099000) can0 102CE040#0700070000000000
(1780156063.099000) can0 10210040#0000800000008000
(1780156063.109000) can0 10220040#1000000040080000
(1780156063.130000) can0 1022E040#1000000010000000
(1780156063.131000) can0 10780040#0000000000000000
(1780156063.131000) can0 10230040#2000000020000000
(1780156063.132000) can0 10800040#000000000000
(1780156063.162000) can0 10240040#83FE880100D80000
(1780156063.164000) can0 102C0040#803C96B503
(1780156063.166000) can0 102CA040#0000000000000F00
(1780156063.192000) can0 10264040#0000000000000000
(1780156063.196000) can0 10210040#0000800000008000
(1780156063.209000) can0 10220040#1000000040080000
(1780156063.216000) can0 1022E040#3000000030000000
(1780156063.238000) can0 10230040#0000000000000000
(1780156063.246000) can0 10240040#83FF880100D80000
(1780156063.251000) can0 106B8040#0000000000000000
(1780156063.269000) can0 102C0040#803C96B503
(1780156063.270000) can0 102CA040#0000000000000F00
(1780156063.300000) can0 10264040#0000000000000000
(1780156063.301000) can0 10210040#0000800000008000
(1780156063.301000) can0 1022A040#00B00000000000
(1780156063.306000) can0 10220040#1000000040080000
(1780156063.310000) can0 1022C040#00000000
(1780156063.334000) can0 10248040#00005CA6A300
(1780156063.334000) can0 10230040#2000000020000000
(1780156063.335000) can0 102CC040#0800C00000000000
(1780156063.336000) can0 102CE040#0700070000000000
(1780156063.345000) can0 102D0040#0000000000000000
(1780156063.347000) can0 10240040#83FF880100D80000
(1780156063.355000) can0 102C0040#803C96B503
(1780156063.360000) can0 10806040#0000000000
(1780156063.378000) can0 102CA040#0000000000000F00
(1780156063.379000) can0 10780040#0000000000000000
(1780156063.379000) can0 10788040#100A00000000
(1780156063.381000) can0 10800040#000000000000
(1780156063.386000) can0 10264040#0000000000000000
(1780156063.411000) can0 10210040#0000800000008000
(1780156063.411000) can0 10220040#1000000040080000
(1780156063.416000) can0 1022E040#3000000030000000
(1780156063.454000) can0 10240040#83FF880100D80000
(1780156063.454000) can0 106B8040#0000000000000000
(1780156063.456000) can0 102C0040#803C96B503
(1780156063.466000) can0 102CA040#0000000000000F00
(1780156063.488000) can0 10264040#0000000000000000
(1780156063.496000) can0 10210040#0000800000008000
(1780156063.521000) can0 10220040#1000000040080000
(1780156063.521000) can0 1022E040#1000000010000000
(1780156063.526000) can0 10230040#2000000020000000
(1780156063.552000) can0 1022A040#00B00000000000
(1780156063.553000) can0 1022C040#00000000
(1780156063.558000) can0 10240040#83FE880100D80FFD
(1780156063.560000) can0 102C0040#803C96B503
(1780156063.584000) can0 102CC040#0000C00000000000
(1780156063.586000) can0 10264040#0000000000000000
(1780156063.592000) can0 102CE040#0700070000000000
(1780156063.596000) can0 10210040#0000800000008000
(1780156063.615000) can0 10220040#1000000040080000
(1780156063.616000) can0 1022E040#3000000030000000
(1780156063.621000) can0 10780040#0000000000000000
(1780156063.627000) can0 10230040#0000000000000000
(1780156063.648000) can0 10240040#83FE880100D80FFD
(1780156063.651000) can0 106B8040#0000000000000000
(1780156063.655000) can0 102C0040#803C96B503
(1780156063.678000) can0 102CA040#0000000000000F00
(1780156063.678000) can0 621#0052000000000000
(1780156063.686000) can0 10264040#0000000000000000
(1780156063.690000) can0 1080A040#00000000
(1780156063.709000) can0 10210040#0000800000008000
(1780156063.710000) can0 1080E040#0000000000000000
(1780156063.710000) can0 10220040#1000000040080000
(1780156063.710000) can0 10814040#00000000
(1780156063.716000) can0 1022E040#1000000010000000
(1780156063.719000) can0 13FFE040#
(1780156063.743000) can0 10230040#2000000020000000
(1780156063.747000) can0 10240040#83FF880100D80000
(1780156063.774000) can0 102CA040#0000000000000F00
(1780156063.804000) can0 10210040#0000800000008000
(1780156063.808000) can0 1022A040#00B00000000000
(1780156063.810000) can0 10220040#1000000040080000
(1780156063.810000) can0 1022C040#00000000
(1780156063.816000) can0 1022E040#3000000030000000
(1780156063.835000) can0 10230040#0000000000000000
(1780156063.835000) can0 10248040#00005CA6A300
(1780156063.836000) can0 10250040#0000
(1780156063.841000) can0 102CC040#0000C00000000000
(1780156063.846000) can0 10240040#83FF880100D80000
(1780156063.872000) can0 102C0040#803C96B503
(1780156063.876000) can0 102D0040#0000000000000000
(1780156063.877000) can0 102CA040#0000000000000F00
(1780156063.877000) can0 102E0040#840000000000004E
(1780156063.877000) can0 106B8040#0000000000000000
(1780156063.881000) can0 106C0040#00B5D1DE00
(1780156063.886000) can0 10264040#0000000000000000
(1780156063.890000) can0 1077C040#303003B9
(1780156063.896000) can0 10210040#0000800000008000
(1780156063.914000) can0 10780040#0000000000000000
(1780156063.915000) can0 10220040#10000000400A0000
(1780156063.915000) can0 10788040#100A00000000
(1780156063.916000) can0 1022E040#1000000010000000
(1780156063.920000) can0 10800040#020000000000
(1780156063.926000) can0 10230040#2000000020000000
(1780156063.947000) can0 10EC4040#3056305845503638
(1780156063.947000) can0 10EC8040#4B34303238383139
(1780156063.948000) can0 10240040#83FF880100D80FFD
(1780156063.955000) can0 102C0040#803C96B503
(1780156063.978000) can0 102CA040#0000000000000F00
(1780156063.986000) can0 10264040#0000000000000000
(1780156064.009000) can0 10220040#1000000040080000
(1780156064.016000) can0 1022E040#3000000030000000
(1780156064.041000) can0 10230040#0000000000000000
(1780156064.046000) can0 1022A040#00B00000000000
(1780156064.050000) can0 1022C040#00000000
(1780156064.073000) can0 102C0040#803C96B503
(1780156064.075000) can0 102CA040#0000000000000F00
(1780156064.075000) can0 106B8040#0000000000000000
(1780156064.076000) can0 102CC040#0000C00000000000
(1780156064.086000) can0 10264040#0000000000000000
(1780156064.107000) can0 102CE040#0700070000000000
(1780156064.110000) can0 10210040#0000800000008000
(1780156064.111000) can0 10220040#1000000040080000
(1780156064.122000) can0 1022E040#1000000010000000
(1780156064.123000) can0 10780040#0000000000000000
(1780156064.126000) can0 10230040#2000000020000000
(1780156064.130000) can0 10800040#020000000000
(1780156064.152000) can0 10240040#83FF880100D80FFD
(1780156064.155000) can0 102C0040#803C96B503
(1780156064.166000) can0 102CA040#0000000000000F00
(1780156064.186000) can0 10264040#0000000000000000
(1780156064.196000) can0 10210040#0000800000008000
(1780156064.217000) can0 10220040#1000000040080000
(1780156064.217000) can0 1022E040#3000000030000000
(1780156064.226000) can0 10230040#0000000000000000
(1780156064.248000) can0 10240040#83FF880100D80000
(1780156064.251000) can0 106B8040#0000000000000000
(1780156064.255000) can0 102C0040#803C96B503
(1780156064.279000) can0 102CA040#0000000000000F00
(1780156064.286000) can0 10264040#0000000000000000
(1780156064.314000) can0 10210040#0000800000008000
(1780156064.317000) can0 1022A040#00B00000000000
(1780156064.317000) can0 10220040#1000000040080000
(1780156064.319000) can0 1022C040#00000000
(1780156064.319000) can0 1022E040#1000000010000000
(1780156064.320000) can0 10248040#00005CA6A300
(1780156064.342000) can0 10230040#2000000020000000
(1780156064.342000) can0 102CC040#0000C00000000000
(1780156064.343000) can0 102CE040#0700070000000000
(1780156064.343000) can0 102D0040#0000000000000000
(1780156064.345000) can0 10240040#83FE880100D80FFD
(1780156064.355000) can0 102C0040#803C96B503
(1780156064.371000) can0 10806040#0000000000
(1780156064.371000) can0 102CA040#0000000000000F00
(1780156064.372000) can0 10780040#0000000000000000
(1780156064.375000) can0 10788040#100A00000000
(1780156064.380000) can0 10800040#020000000000
(1780156064.405000) can0 10210040#0000800000008000
(1780156064.412000) can0 10220040#1000000040080000
(1780156064.419000) can0 1022E040#3000000030000000
(1780156064.426000) can0 10230040#0000000000000000
(1780156064.450000) can0 10240040#83FF880100D80000
(1780156064.452000) can0 106B8040#0000000000000000
(1780156064.455000) can0 102C0040#803C96B503
(1780156064.486000) can0 10264040#0000000000000000
(1780156064.513000) can0 10220040#1000000040080000
(1780156064.515000) can0 1022E040#1000000010000000
(1780156064.526000) can0 10230040#2000000020000000
(1780156064.546000) can0 1022A040#00B00000000000
(1780156064.549000) can0 1022C040#00000000
(1780156064.555000) can0 10240040#83FF880100D80000
(1780156064.575000) can0 102CA040#0000000000000F00
(1780156064.576000) can0 102CC040#0000C00000000000
(1780156064.586000) can0 10264040#0000000000000000
(1780156064.591000) can0 102CE040#0700070000000000
(1780156064.596000) can0 10210040#0000800000008000
(1780156064.609000) can0 10220040#1000000040080000
(1780156064.616000) can0 1022E040#3000000030000000
(1780156064.621000) can0 10780040#0000000000000000
(1780156064.639000) can0 10230040#0000000000000000
(1780156064.639000) can0 10800040#020000000000
(1780156064.645000) can0 10240040#83FF880100D80FFD
(1780156064.651000) can0 106B8040#0000000000000000
(1780156064.670000) can0 102CA040#0000000000000F00
(1780156064.675000) can0 621#0052000000000000
(1780156064.702000) can0 10264040#0000000000000000
(1780156064.703000) can0 1080A040#00000000
(1780156064.703000) can0 10210040#0000800000008000
(1780156064.704000) can0 1080E040#0000000000000000
(1780156064.705000) can0 10220040#1000000040080000
(1780156064.715000) can0 1022E040#1000000010000000
(1780156064.734000) can0 10230040#2000000020000000
(1780156064.746000) can0 10240040#83FE880100D80FFD
(1780156064.774000) can0 102C0040#803C96B503
(1780156064.781000) can0 102CA040#0000000000000F00
(1780156064.786000) can0 10264040#0000000000000000
(1780156064.796000) can0 10210040#0000800000008000
(1780156064.800000) can0 1022A040#00B00000000000
(1780156064.806000) can0 10220040#1000000040080000
(1780156064.810000) can0 1022C040#00000000
(1780156064.815000) can0 1022E040#3000000030000000
(1780156064.820000) can0 10248040#00005CA6A300
(1780156064.825000) can0 10230040#0000000000000000
(1780156064.843000) can0 10250040#0000
(1780156064.844000) can0 102CC040#0000C00000000000
(1780156064.844000) can0 102CE040#0700070000000000
(1780156064.845000) can0 10240040#83FE880100D80FFD
(1780156064.851000) can0 102D0040#0000000000000000
(1780156064.855000) can0 102C0040#803C96B503
(1780156064.876000) can0 102E0040#840000000000004E
(1780156064.879000) can0 102CA040#0000000000000F00
(1780156064.879000) can0 106B8040#0000000000000000
(1780156064.880000) can0 106C0040#00B5D1DE00
(1780156064.881000) can0 1077C040#303003B9
(1780156064.886000) can0 10264040#0000000000000000
(1780156064.907000) can0 10210040#0000800000008000
(1780156064.909000) can0 10788040#100A00000000
(1780156064.910000) can0 10220040#1000000040080000
(1780156064.910000) can0 10800040#020000000000
(1780156064.916000) can0 1022E040#1000000010000000
(1780156064.920000) can0 10806040#0000000000
(1780156064.938000) can0 10230040#2000000020000000
(1780156064.939000) can0 13FFE040#
(1780156064.945000) can0 10240040#83FF880100D80FFD
(1780156064.971000) can0 102CA040#0000000000000F00
(1780156064.986000) can0 10264040#0000000000000000
(1780156064.997000) can0 10210040#0000800000008000
(1780156065.017000) can0 10220040#1000000040080000
(1780156065.018000) can0 1022E040#3000000030000000
(1780156065.026000) can0 10230040#0000000000000000
(1780156065.048000) can0 1022A040#00B00000000000
(1780156065.049000) can0 1022C040#00000000
(1780156065.055000) can0 10240040#83FF880100D80000
(1780156065.059000) can0 102C0040#803C96B503
(1780156065.081000) can0 102CA040#0000000000000F00
(1780156065.081000) can0 106B8040#0000000000000000
(1780156065.081000) can0 102CC040#0000C00000000000
(1780156065.086000) can0 10264040#0000000000000000
(1780156065.090000) can0 102CE040#0700070000000000
(1780156065.111000) can0 10220040#10000000400A0000
(1780156065.115000) can0 1022E040#1000000010000000
(1780156065.121000) can0 10780040#0000000000000000
(1780156065.125000) can0 10230040#2000000020000000
(1780156065.144000) can0 10800040#020000000000
(1780156065.145000) can0 10240040#83FF880100D80FFD
(1780156065.154000) can0 102C0040#803C96B503
(1780156065.175000) can0 102CA040#0000000000000F00
(1780156065.185000) can0 10264040#0000000000000000
(1780156065.206000) can0 10210040#0000800000008000
(1780156065.207000) can0 10220040#1000000040080000
(1780156065.215000) can0 1022E040#3000000030000000
(1780156065.238000) can0 10230040#0000000000000000
(1780156065.245000) can0 10240040#83FF8A1100D80FFD
(1780156065.250000) can0 106B8040#0000000000000000
(1780156065.269000) can0 102C0040#803C96B503
(1780156065.270000) can0 102CA040#0000000000000F00
(1780156065.301000) can0 10264040#0000000000000000
(1780156065.302000) can0 10210040#0000800000008000
(1780156065.302000) can0 1022A040#00B00000000000
(1780156065.305000) can0 10220040#1000000040080000
(1780156065.309000) can0 1022C040#00000000
(1780156065.315000) can0 1022E040#1000000010000000
(1780156065.320000) can0 10248040#00005CA6A300
(1780156065.340000) can0 10230040#2000000020000000
(1780156065.341000) can0 102CC040#0000C00000000000
(1780156065.341000) can0 102CE040#0700070000000000
(1780156065.341000) can0 102D0040#0000000000000000
(1780156065.345000) can0 10240040#83FE8A1100D80000
(1780156065.364000) can0 102C0040#803C96B503
(1780156065.364000) can0 10806040#0000000000
(1780156065.365000) can0 102CA040#0000000000000F00
(1780156065.370000) can0 10780040#0000000000000000
(1780156065.375000) can0 10788040#100A00000000
(1780156065.395000) can0 10800040#020000000000
(1780156065.396000) can0 10264040#0000000000000000
(1780156065.396000) can0 10210040#0000800000008000
(1780156065.405000) can0 10220040#1000000040080000
(1780156065.426000) can0 1022E040#3000000030000000
(1780156065.427000) can0 10230040#0000000000000000
(1780156065.457000) can0 10240040#83FF8A1100D80000
(1780156065.458000) can0 106B8040#0000000000000000
(1780156065.458000) can0 102C0040#803C96B503
(1780156065.465000) can0 102CA040#0000000000000F00
(1780156065.489000) can0 10264040#0000000000000000
(1780156065.495000) can0 10210040#0000800000008000
(1780156065.520000) can0 10220040#1000000040080000
(1780156065.520000) can0 1022E040#1000000010000000
(1780156065.525000) can0 10230040#2000000020000000
(1780156065.551000) can0 1022A040#00B00000000000
(1780156065.551000) can0 1022C040#00000000
(1780156065.555000) can0 10240040#83FE8A1100D80000
(1780156065.559000) can0 102C0040#803C96B503
(1780156065.581000) can0 102CC040#0000C00000000000
(1780156065.585000) can0 10264040#0000000000000000
(1780156065.590000) can0 102CE040#0700070000000000
(1780156065.595000) can0 10210040#0000800000008000
(1780156065.613000) can0 10220040#10000000400A0000
(1780156065.615000) can0 1022E040#3000000030000000
(1780156065.620000) can0 10780040#0000000000000000
(1780156065.625000) can0 10230040#0000000000000000
(1780156065.645000) can0 10800040#020000000000
(1780156065.645000) can0 10240040#83FF8A1100D80000
(1780156065.650000) can0 106B8040#0000000000000000
(1780156065.654000) can0 102C0040#803C96B503
(1780156065.675000) can0 102CA040#0000000000000F00
(1780156065.675000) can0 621#0052000000000000
(1780156065.685000) can0 10264040#0000000000000000
(1780156065.689000) can0 1080A040#00000000
(1780156065.707000) can0 10210040#0000800000008000
(1780156065.707000) can0 1080E040#0000000000000000
(1780156065.707000) can0 10220040#1000000040080000
(1780156065.715000) can0 1022E040#1000000010000000
(1780156065.737000) can0 10230040#2000000020000000
(1780156065.745000) can0 10240040#83FF8A1100D80000
(1780156065.768000) can0 102C0040#803C96B503
(1780156065.769000) can0 102CA040#0000000000000F00
(1780156065.799000) can0 10264040#0000000000000000
(1780156065.800000) can0 10210040#0000800000008000
(1780156065.800000) can0 1022A040#00B00000000000
(1780156065.806000) can0 10220040#1000000040080000
(1780156065.809000) can0 1022C040#00000000
(1780156065.816000) can0 1022E040#3000000030000000
(1780156065.820000) can0 10248040#00005CA6A300
(1780156065.825000) can0 10230040#0000000000000000
(1780156065.829000) can0 10250040#0000
(1780156065.847000) can0 102CC040#0000C00000000000
(1780156065.847000) can0 102CE040#0700070000000000
(1780156065.848000) can0 10240040#83FF8A1100D80FFD
(1780156065.850000) can0 102D0040#0000000000000000
(1780156065.854000) can0 102C0040#803C96B503
(1780156065.860000) can0 102E0040#840000000000004E
(1780156065.877000) can0 102CA040#0000000000000F00
(1780156065.878000) can0 106B8040#0000000000000000
(1780156065.878000) can0 106C0040#00B5D1DE00
(1780156065.879000) can0 1077C040#303003B9
(1780156065.885000) can0 10264040#0000000000000000
(1780156065.890000) can0 10780040#0000000000000000
(1780156065.909000) can0 10210040#0000800000008000
(1780156065.909000) can0 10788040#100A00000000
(1780156065.909000) can0 10220040#10000000400A0000
(1780156065.910000) can0 10800040#020000000000
(1780156065.915000) can0 1022E040#1000000010000000
(1780156065.920000) can0 10806040#0000000000
(1780156065.945000) can0 10240040#83FE8A1100D80000
(1780156065.954000) can0 102C0040#803C96B503
(1780156065.973000) can0 102CA040#0000000000000F00
(1780156065.985000) can0 10264040#0000000000000000
(1780156066.003000) can0 10210040#0000800000008000
(1780156066.006000) can0 10220040#1000000040080000
(1780156066.016000) can0 1022E040#3000000030000000
(1780156066.034000) can0 10230040#0000000000000000
(1780156066.045000) can0 1022A040#00B00000000000
(1780156066.050000) can0 1022C040#00000000
(1780156066.055000) can0 10240040#83FF8A1100D80FFD
(1780156066.059000) can0 102C0040#803C96B503
(1780156066.066000) can0 102CA040#0000000000000F00
(1780156066.070000) can0 106B8040#0000000000000000
(1780156066.075000) can0 102CC040#0400C00000000000
(1780156066.097000) can0 10264040#0000000000000000
(1780156066.098000) can0 102CE040#0700070000000000
(1780156066.098000) can0 10210040#0000800000008000
(1780156066.099000) can0 13FFE040#
(1780156066.106000) can0 10220040#1000000040080000
(1780156066.129000) can0 1022E040#1000000010000000
(1780156066.130000) can0 10780040#0000000000000000
(1780156066.130000) can0 10230040#2000000020000000
(1780156066.130000) can0 10800040#020000000000
(1780156066.160000) can0 10240040#83FF8A1100D80000
(1780156066.161000) can0 102C0040#803C96B503
(1780156066.165000) can0 102CA040#0000000000000F00
(1780156066.191000) can0 10264040#0000000000000000
(1780156066.192000) can0 10814040#00000000
(1780156066.195000) can0 10210040#0000800000008000
(1780156066.206000) can0 10220040#1000000040080000
(1780156066.215000) can0 1022E040#3000000030000000
(1780156066.238000) can0 10230040#0000000000000000
(1780156066.246000) can0 10240040#83FE8A1100D80000
(1780156066.250000) can0 106B8040#0000000000000000
(1780156066.270000) can0 102C0040#803C96B503
(1780156066.270000) can0 102CA040#0000000000000F00
(1780156066.301000) can0 10210040#0000800000008000
(1780156066.303000) can0 1022A040#00B00000000000
(1780156066.305000) can0 10220040#1000000040080000
(1780156066.309000) can0 1022C040#00000000
(1780156066.315000) can0 1022E040#1000000010000000
(1780156066.319000) can0 10248040#00005CA6A300
(1780156066.325000) can0 10230040#2000000020000000
(1780156066.330000) can0 102CC040#0400C00000000000
(1780156066.335000) can0 102CE040#0700070000000000
(1780156066.340000) can0 102D0040#0000000000000000
(1780156066.345000) can0 10240040#83FF8A1100D80FFD
(1780156066.364000) can0 102C0040#803C96B503
(1780156066.365000) can0 10806040#0000000000
(1780156066.365000) can0 102CA040#0000000000000F00
(1780156066.371000) can0 10780040#0000000000000000
(1780156066.375000) can0 10788040#100A00000000
(1780156066.394000) can0 10800040#020000000000
(1780156066.395000) can0 10264040#0000000000000000
(1780156066.395000) can0 10210040#0000800000008000
(1780156066.406000) can0 10220040#1000000040080000
(1780156066.427000) can0 1022E040#3000000030000000
(1780156066.427000) can0 10230040#0000000000000000
(1780156066.457000) can0 10240040#83FF8A1100D80000
(1780156066.458000) can0 106B8040#0000000000000000
(1780156066.459000) can0 102C0040#803C96B503
(1780156066.466000) can0 102CA040#0000000000000F00
(1780156066.489000) can0 10264040#0000000000000000
(1780156066.496000) can0 10210040#0000800000008000
(1780156066.521000) can0 1022E040#1000000010000000
(1780156066.525000) can0 10230040#2000000020000000
(1780156066.552000) can0 1022A040#00B00000000000
(1780156066.553000) can0 1022C040#00000000
(1780156066.556000) can0 10240040#83FF8A1100D80FFD
(1780156066.559000) can0 102C0040#803C96B503
(1780156066.566000) can0 102CA040#0000000000000F00
(1780156066.583000) can0 102CC040#0400C00000000000
(1780156066.585000) can0 10264040#0000000000000000
(1780156066.590000) can0 102CE040#0700070000000000
(1780156066.596000) can0 10210040#0000800000008000
(1780156066.615000) can0 10220040#1000000040080000
(1780156066.615000) can0 1022E040#3000000030000000
(1780156066.621000) can0 10780040#0000000000000000
(1780156066.625000) can0 10230040#0000000000000000
(1780156066.647000) can0 10240040#83FF8A1100D80000
(1780156066.650000) can0 106B8040#0000000000000000
(1780156066.654000) can0 102C0040#803C96B503
(1780156066.677000) can0 102CA040#0000000000000F00
(1780156066.678000) can0 621#0052000000000000
(1780156066.686000) can0 10264040#0000000000000000
(1780156066.690000) can0 1080A040#00000000
(1780156066.709000) can0 10210040#0000800000008000
(1780156066.710000) can0 1080E040#0000000000000000
(1780156066.710000) can0 10220040#10000000400A0000
(1780156066.715000) can0 1022E040#1000000010000000
(1780156066.741000) can0 10230040#2000000020000000
(1780156066.745000) can0 10240040#83FF8A1100D80FFD
(1780156066.754000) can0 102C0040#803C96B503
(1780156066.766000) can0 102CA040#0000000000000F00
(1780156066.787000) can0 10264040#0000000000000000
(1780156066.795000) can0 10210040#0000800000008000
(1780156066.801000) can0 1022A040#00B00000000000
(1780156066.820000) can0 10220040#1000000040080000
(1780156066.820000) can0 1022C040#00000000
(1780156066.821000) can0 1022E040#3000000030000000
(1780156066.821000) can0 10248040#00005CA6A300
(1780156066.825000) can0 10230040#0000000000000000
(1780156066.829000) can0 10250040#0000
(1780156066.836000) can0 102CC040#0400C00000000000
(1780156066.840000) can0 102CE040#0700070000000000
(1780156066.846000) can0 10240040#83FE8A1100D80000
(1780156066.851000) can0 102D0040#0000000000000000
(1780156066.854000) can0 102C0040#803C96B503
(1780156066.860000) can0 102E0040#840000000000004E
(1780156066.866000) can0 102CA040#0000000000000F00
(1780156066.883000) can0 106B8040#0000000000000000
(1780156066.884000) can0 106C0040#00B5D1DE00
(1780156066.884000) can0 1077C040#303003B9
(1780156066.885000) can0 10264040#0000000000000000
(1780156066.890000) can0 10780040#0000000000000000
(1780156066.896000) can0 10210040#0000800000008000
(1780156066.914000) can0 10788040#100A00000000
(1780156066.914000) can0 10220040#1000000040080000
(1780156066.914000) can0 10800040#020000000000
(1780156066.915000) can0 1022E040#1000000010000000
(1780156066.920000) can0 10806040#0000000000
(1780156066.925000) can0 10230040#2000000020000000
(1780156066.946000) can0 10240040#83FF8A1100D80000
(1780156066.954000) can0 102C0040#803C96B503
(1780156066.977000) can0 102CA040#0000000000000F00
(1780156066.985000) can0 10264040#0000000000000000
(1780156067.009000) can0 10210040#0000800000008000
(1780156067.010000) can0 10220040#1000000040080000
(1780156067.016000) can0 1022E040#3000000030000000
(1780156067.040000) can0 10230040#0000000000000000
(1780156067.045000) can0 1022A040#00B00000000000
(1780156067.050000) can0 1022C040#00000000
(1780156067.072000) can0 102C0040#803C96B503
(1780156067.073000) can0 102CA040#0000000000000F00
(1780156067.073000) can0 106B8040#0000000000000000
(1780156067.075000) can0 102CC040#0400C00000000000
(1780156067.085000) can0 10264040#0000000000000000
(1780156067.103000) can0 102CE040#0700070000000000
(1780156067.103000) can0 10210040#0000800000008000
(1780156067.106000) can0 10220040#1000000040080000
(1780156067.115000) can0 1022E040#1000000010000000
(1780156067.135000) can0 10780040#0000000000000000
(1780156067.135000) can0 10230040#2000000020000000
(1780156067.135000) can0 10800040#020000000000
(1780156067.145000) can0 10240040#83FE8A1100D80000
(1780156067.167000) can0 102C0040#803C96B503
(1780156067.167000) can0 102CA040#0000000000000F00
(1780156067.195000) can0 10264040#0000000000000000
(1780156067.196000) can0 10210040#0000800000008000
(1780156067.206000) can0 10220040#1000000040080000
(1780156067.228000) can0 1022E040#3000000030000000
(1780156067.228000) can0 10230040#0000000000000000
(1780156067.259000) can0 10240040#83FF8A1100D80FFD
(1780156067.260000) can0 106B8040#0000000000000000
(1780156067.261000) can0 102C0040#803C96B503
(1780156067.266000) can0 102CA040#0000000000000F00
(1780156067.292000) can0 10264040#0000000000000000
(1780156067.294000) can0 13FFE040#
(1780156067.296000) can0 10210040#0000800000008000
(1780156067.300000) can0 1022A040#00B00000000000
(1780156067.323000) can0 1022C040#00000000
(1780156067.348000) can0 1022E040#1000000010000000
(1780156067.349000) can0 10248040#00005CA6A300
(1780156067.350000) can0 10230040#2000000020000000
(1780156067.350000) can0 102CC040#0400C00000000000
(1780156067.350000) can0 102CE040#0700070000000000
(1780156067.351000) can0 102D0040#0000000000000000
(1780156067.351000) can0 10240040#83FE8A1100D80000
(1780156067.369000) can0 102C0040#803C96B503
(1780156067.370000) can0 10806040#0000000000
(1780156067.371000) can0 102CA040#0000000000000F00
(1780156067.371000) can0 10780040#0000000000000000
(1780156067.375000) can0 10788040#100A00000000
(1780156067.381000) can0 10800040#020000000000
(1780156067.400000) can0 10264040#0000000000000000
(1780156067.400000) can0 10210040#0000800000008000
(1780156067.405000) can0 10220040#1000000040080000
(1780156067.431000) can0 1022E040#3000000030000000
(1780156067.431000) can0 10230040#0000000000000000
(1780156067.445000) can0 10240040#83FF8A1100D80000
(1780156067.465000) can0 106B8040#0000000000000000
(1780156067.466000) can0 102C0040#803C96B503
(1780156067.466000) can0 102CA040#0000000000000F00
(1780156067.497000) can0 10264040#0000000000000000
(1780156067.498000) can0 10210040#0000800000008000
(1780156067.505000) can0 10220040#1000000040080000
(1780156067.526000) can0 1022E040#1000000010000000
(1780156067.527000) can0 10230040#2000000020000000
(1780156067.559000) can0 1022A040#00B00000000000
(1780156067.560000) can0 1022C040#00000000
(1780156067.561000) can0 10240040#83FE8A1100D80000
(1780156067.563000) can0 102C0040#803C96B503
(1780156067.566000) can0 102CA040#0000000000000F00
(1780156067.591000) can0 10264040#0000000000000000
(1780156067.595000) can0 102CE040#0700070000000000
(1780156067.596000) can0 10210040#0000800000008000
(1780156067.620000) can0 10220040#1000000040080000
(1780156067.620000) can0 1022E040#3000000030000000
(1780156067.621000) can0 10780040#0000000000000000
(1780156067.625000) can0 10230040#0000000000000000
(1780156067.630000) can0 10800040#020000000000
(1780156067.652000) can0 10240040#83FE8A1100D80000
(1780156067.653000) can0 106B8040#0000000000000000
(1780156067.654000) can0 102C0040#803C96B503
(1780156067.666000) can0 102CA040#0000000000000F00
(1780156067.684000) can0 621#0052000000000000
(1780156067.685000) can0 10264040#0000000000000000
(1780156067.689000) can0 1080A040#00000000
(1780156067.695000) can0 10210040#0000800000008000
(1780156067.717000) can0 10220040#1000000040080000
(1780156067.718000) can0 1022E040#1000000010000000
(1780156067.726000) can0 10230040#2000000020000000
(1780156067.749000) can0 10240040#83FE8A1100D80FFD
(1780156067.755000) can0 102C0040#803C96B503
(1780156067.780000) can0 102CA040#0000000000000F00
(1780156067.785000) can0 10264040#0000000000000000
(1780156067.811000) can0 1022A040#00B00000000000
(1780156067.812000) can0 10220040#1000000040080000
(1780156067.814000) can0 1022C040#00000000
(1780156067.815000) can0 1022E040#3000000030000000
(1780156067.819000) can0 10248040#00005CA6A300
(1780156067.825000) can0 10230040#0000000000000000
(1780156067.843000) can0 10250040#0000
(1780156067.844000) can0 102CC040#0400C00000000000
(1780156067.844000) can0 102CE040#0700070000000000
(1780156067.845000) can0 10240040#83FF8A1100D80000
(1780156067.850000) can0 102D0040#0000000000000000
(1780156067.855000) can0 102C0040#803C96B503
(1780156067.877000) can0 102E0040#840000000000004E
(1780156067.878000) can0 102CA040#0000000000000F00
(1780156067.879000) can0 106B8040#0000000000000000
(1780156067.879000) can0 106C0040#00B5D1DE00
(1780156067.880000) can0 1077C040#303003B9
(1780156067.885000) can0 10264040#0000000000000000
(1780156067.908000) can0 10210040#0000800000008000
(1780156067.908000) can0 10788040#100A00000000
(1780156067.909000) can0 10220040#10000000400A0000
(1780156067.910000) can0 10800040#020000000000
(1780156067.915000) can0 1022E040#1000000010000000
(1780156067.919000) can0 10806040#0000000000
(1780156067.945000) can0 10240040#83FF8A1100D80000
(1780156067.970000) can0 102C0040#803C96B503
(1780156067.970000) can0 102CA040#0000000000000F00
(1780156068.002000) can0 10210040#0000800000008000
(1780156068.005000) can0 10220040#1000000040080000
(1780156068.015000) can0 1022E040#3000000030000000
(1780156068.025000) can0 10230040#0000000000000000
(1780156068.049000) can0 1022A040#00B00000000000
(1780156068.050000) can0 1022C040#00000000
(1780156068.055000) can0 10240040#83FF8A1100D80000
(1780156068.059000) can0 102C0040#803C96B503
(1780156068.079000) can0 102CA040#0000000000000F00
(1780156068.080000) can0 106B8040#0000000000000000
(1780156068.080000) can0 102CC040#0400C00000000000
(1780156068.085000) can0 10264040#0000000000000000
(1780156068.092000) can0 102CE040#0700070000000000
(1780156068.111000) can0 10220040#1000000040080000
(1780156068.115000) can0 1022E040#1000000010000000
(1780156068.120000) can0 10780040#0000000000000000
(1780156068.126000) can0 10230040#2000000020000000
(1780156068.130000) can0 10800040#020000000000
(1780156068.158000) can0 10240040#83FE8A1100D80000
(1780156068.160000) can0 102C0040#803C96B503
(1780156068.165000) can0 102CA040#0000000000000F00
(1780156068.192000) can0 10264040#0000000000000000
(1780156068.195000) can0 10210040#0000800000008000
(1780156068.221000) can0 1022E040#3000000030000000
(1780156068.225000) can0 10230040#0000000000000000
(1780156068.252000) can0 10240040#83FF8A1100D80FFD
(1780156068.254000) can0 106B8040#0000000000000000
(1780156068.254000) can0 102C0040#803C96B503
(1780156068.265000) can0 102CA040#0000000000000F00
(1780156068.298000) can0 10264040#0000000000000000
(1780156068.298000) can0 10210040#0000800000008000
(1780156068.300000) can0 1022A040#00B00000000000
(1780156068.305000) can0 10220040#1000000040080000
(1780156068.309000) can0 1022C040#00000000
(1780156068.330000) can0 1022E040#1000000010000000
(1780156068.331000) can0 10248040#00005CA6A300
(1780156068.331000) can0 10230040#2000000020000000
(1780156068.332000) can0 102CC040#0400C00000000000
(1780156068.335000) can0 102CE040#0700070000000000
(1780156068.340000) can0 102D0040#0000000000000000
(1780156068.362000) can0 102C0040#803C96B503
(1780156068.363000) can0 10806040#0000000000
(1780156068.366000) can0 102CA040#0000000000000F00
(1780156068.370000) can0 10780040#0000000000000000
(1780156068.376000) can0 10788040#100A00000000
(1780156068.394000) can0 10800040#020000000000
(1780156068.395000) can0 10264040#0000000000000000
(1780156068.395000) can0 10210040#0000800000008000
(1780156068.405000) can0 10220040#1000000040080000
(1780156068.425000) can0 1022E040#3000000030000000
(1780156068.426000) can0 10230040#0000000000000000
(1780156068.456000) can0 10240040#83FF8A1100D80000
(1780156068.459000) can0 106B8040#0000000000000000
(1780156068.461000) can0 102C0040#803C96B503
(1780156068.466000) can0 102CA040#0000000000000F00
(1780156068.488000) can0 10264040#0000000000000000
(1780156068.491000) can0 13FFE040#
(1780156068.495000) can0 10210040#0000800000008000
(1780156068.518000) can0 10220040#1000000040080000
(1780156068.518000) can0 1022E040#1000000010000000
(1780156068.525000) can0 10230040#2000000020000000
(1780156068.548000) can0 1022A040#00B00000000000
(1780156068.549000) can0 1022C040#00000000
(1780156068.555000) can0 10240040#83FF8A1100D80000
(1780156068.559000) can0 102C0040#803C96B503
(1780156068.581000) can0 102CA040#0000000000000F00
(1780156068.581000) can0 102CC040#0400C00000000000
(1780156068.585000) can0 10264040#0000000000000000
(1780156068.590000) can0 102CE040#0700070000000000
(1780156068.612000) can0 10220040#1000000040080000
(1780156068.615000) can0 1022E040#3000000030000000
(1780156068.620000) can0 10780040#0000000000000000
(1780156068.627000) can0 10230040#0000000000000000
(1780156068.630000) can0 10800040#020000000000
(1780156068.658000) can0 10240040#83FF8A1100D80000
(1780156068.660000) can0 106B8040#0000000000000000
(1780156068.660000) can0 102C0040#803C96B503
(1780156068.665000) can0 102CA040#0000000000000F00
(1780156068.688000) can0 10264040#0000000000000000
(1780156068.689000) can0 1080A040#00000000
(1780156068.695000) can0 10210040#0000800000008000
(1780156068.700000) can0 1080E040#0000000000000000
(1780156068.719000) can0 10220040#1000000040080000
(1780156068.720000) can0 10814040#00000000
(1780156068.720000) can0 1022E040#1000000010000000
(1780156068.725000) can0 10230040#2000000020000000
(1780156068.754000) can0 10240040#83FF8A1100D80FFD
(1780156068.755000) can0 102C0040#803C96B503
(1780156068.765000) can0 102CA040#0000000000000F00
(1780156068.801000) can0 10264040#0000000000000000
(1780156068.802000) can0 10210040#0000800000008000
(1780156068.803000) can0 1022A040#00B00000000000
(1780156068.805000) can0 10220040#1000000040080000
(1780156068.810000) can0 1022C040#00000000
(1780156068.830000) can0 10242040#02
(1780156068.831000) can0 10230040#0000000000000000
(1780156068.831000) can0 10248040#00005CA6A300
(1780156068.833000) can0 10250040#0000
(1780156068.840000) can0 102CC040#0400C00000000000
(1780156068.845000) can0 10240040#83FF8A1100D80000
(1780156068.862000) can0 102CE040#0700070000000000
(1780156068.862000) can0 102C0040#803C96B503
(1780156068.863000) can0 102D0040#0000000000000000
(1780156068.865000) can0 102CA040#0000000000000F00
(1780156068.870000) can0 102E0040#840000000000004E
(1780156068.875000) can0 106B8040#0000000000000000
(1780156068.892000) can0 106C0040#00B5D1DE00
(1780156068.893000) can0 10264040#0000000000000000
(1780156068.893000) can0 1077C040#303003B9
(1780156068.895000) can0 10210040#0000800000008000
(1780156068.900000) can0 10780040#0000000000000000
(1780156068.905000) can0 10220040#1000000040080000
(1780156068.910000) can0 10788040#100A00000000
(1780156068.919000) can0 1022E040#1000000010000000
(1780156068.920000) can0 10800040#020000000000
(1780156068.940000) can0 10230040#2000000020000000
(1780156068.941000) can0 10806040#0000000000
(1780156068.942000) can0 10EC4040#3056305845503638
(1780156068.942000) can0 10EC8040#4B34303238383139
(1780156068.944000) can0 10240040#83FF8A1100D80FFD
(1780156068.954000) can0 102C0040#803C96B503
(1780156068.970000) can0 102CA040#0000000000000F00
(1780156068.985000) can0 10264040#0000000000000000
(1780156068.995000) can0 10210040#0000800000008000
(1780156069.018000) can0 10220040#1000000040080000
(1780156069.018000) can0 1022E040#3000000030000000
(1780156069.025000) can0 10230040#0000000000000000
(1780156069.049000) can0 1022A040#00B00000000000
(1780156069.050000) can0 1022C040#00000000
(1780156069.054000) can0 10240040#83FE8A1100D80FFD
(1780156069.059000) can0 102C0040#803C96B503
(1780156069.065000) can0 102CA040#0000000000000F00
(1780156069.070000) can0 106B8040#0000000000000000
(1780156069.075000) can0 102CC040#0400C00000000000
(1780156069.097000) can0 10264040#0000000000000000
(1780156069.098000) can0 102CE040#0700070000000000
(1780156069.098000) can0 10210040#0000800000008000
(1780156069.105000) can0 10220040#10000000400A0000
(1780156069.131000) can0 1022E040#1000000010000000
(1780156069.131000) can0 10780040#0000000000000000
(1780156069.132000) can0 10230040#2000000020000000
(1780156069.133000) can0 10800040#020000000000
(1780156069.144000) can0 10240040#83FF8A1100D80FFD
(1780156069.162000) can0 102C0040#803C96B503
(1780156069.165000) can0 102CA040#0000000000000F00
(1780156069.193000) can0 10264040#0000000000000000
(1780156069.195000) can0 10210040#0000800000008000
(1780156069.205000) can0 10220040#1000000040080000
(1780156069.224000) can0 1022E040#3000000030000000
(1780156069.225000) can0 10230040#0000000000000000
(1780156069.256000) can0 10240040#83FE8A1100D80000
(1780156069.257000) can0 106B8040#0000000000000000
(1780156069.259000) can0 102C0040#803C96B503
(1780156069.265000) can0 102CA040#0000000000000F00
(1780156069.288000) can0 10264040#0000000000000000
(1780156069.295000) can0 10210040#0000800000008000
(1780156069.299000) can0 1022A040#00B00000000000
(1780156069.319000) can0 10220040#1000000040080000
(1780156069.321000) can0 1022C040#00000000
(1780156069.322000) can0 1022E040#1000000010000000
(1780156069.323000) can0 10248040#00005CA6A300
(1780156069.325000) can0 10230040#2000000020000000
(1780156069.330000) can0 102CC040#0400C00000000000
(1780156069.351000) can0 102CE040#0700070000000000
(1780156069.359000) can0 102D0040#0000000000000000
(1780156069.360000) can0 10240040#83FF8A1100D80FFD
(1780156069.360000) can0 102C0040#803C96B503
(1780156069.361000) can0 10806040#0000000000
(1780156069.365000) can0 102CA040#0000000000000F00
(1780156069.382000) can0 10780040#0000000000000000
(1780156069.383000) can0 10788040#100A00000000
(1780156069.383000) can0 10800040#020000000000
(1780156069.385000) can0 10264040#0000000000000000
(1780156069.395000) can0 10210040#0000800000008000
(1780156069.414000) can0 10220040#10000000400A0000
(1780156069.414000) can0 1022E040#3000000030000000
(1780156069.425000) can0 10230040#0000000000000000
(1780156069.444000) can0 10240040#83FE8A1100D80000
(1780156069.450000) can0 106B8040#0000000000000000
(1780156069.454000) can0 102C0040#803C96B503
(1780156069.475000) can0 102CA040#0000000000000F00
(1780156069.485000) can0 10264040#0000000000000000
(1780156069.506000) can0 10210040#0000800000008000
(1780156069.506000) can0 10220040#1000000040080000
(1780156069.514000) can0 1022E040#1000000010000000
(1780156069.537000) can0 10230040#2000000020000000
(1780156069.544000) can0 1022A040#00B00000000000
(1780156069.548000) can0 1022C040#00000000
(1780156069.569000) can0 10240040#83FE8A1100D80000
(1780156069.570000) can0 102C0040#803C96B503
(1780156069.570000) can0 102CA040#0000000000000F00
(1780156069.574000) can0 102CC040#0400C00000000000
(1780156069.585000) can0 10264040#0000000000000000
(1780156069.589000) can0 102CE040#0700070000000000
(1780156069.594000) can0 10210040#0000800000008000
(1780156069.616000) can0 10220040#10000000400A0000
(1780156069.617000) can0 1022E040#3000000030000000
(1780156069.620000) can0 10780040#0000000000000000
(1780156069.625000) can0 10230040#0000000000000000
(1780156069.629000) can0 10800040#020000000000
(1780156069.648000) can0 10240040#83FE8A1100D80000
(1780156069.649000) can0 106B8040#0000000000000000
(1780156069.653000) can0 102C0040#803C96B503
(1780156069.679000) can0 102CA040#0000000000000F00
(1780156069.680000) can0 621#0052000000000000
(1780156069.684000) can0 10264040#0000000000000000
(1780156069.688000) can0 1080A040#00000000
(1780156069.694000) can0 10210040#0000800000008000
(1780156069.711000) can0 1080E040#0000000000000000
(1780156069.711000) can0 10220040#1000000040080000
(1780156069.712000) can0 13FFE040#
(1780156069.714000) can0 1022E040#1000000010000000
(1780156069.724000) can0 10230040#2000000020000000
(1780156069.744000) can0 10240040#83FF8A1100D80FFD
(1780156069.753000) can0 102C0040#803C96B503
(1780156069.773000) can0 102CA040#0000000000000F00
(1780156069.784000) can0 10264040#0000000000000000
(1780156069.805000) can0 10210040#0000800000008000
(1780156069.807000) can0 1022A040#00B00000000000
(1780156069.808000) can0 10220040#1000000040080000
(1780156069.808000) can0 1022C040#00000000
(1780156069.814000) can0 1022E040#3000000030000000
(1780156069.819000) can0 10248040#00005CA6A300
(1780156069.837000) can0 10230040#0000000000000000
(1780156069.837000) can0 10250040#0000
(1780156069.837000) can0 102CC040#0400C00000000000
(1780156069.839000) can0 102CE040#0700070000000000
(1780156069.844000) can0 10240040#83FE8A1100D80FFD
(1780156069.850000) can0 102D0040#0000000000000000
(1780156069.868000) can0 102C0040#803C96B503
(1780156069.869000) can0 102E0040#840000000000004E
(1780156069.869000) can0 102CA040#0000000000000F00
(1780156069.870000) can0 106B8040#0000000000000000
(1780156069.873000) can0 106C0040#00B5D1DE00
(1780156069.878000) can0 1077C040#303003B9
(1780156069.900000) can0 10264040#0000000000000000
(1780156069.901000) can0 10780040#0000000000000000
(1780156069.901000) can0 10210040#0000800000008000
(1780156069.901000) can0 10788040#100A00000000
(1780156069.904000) can0 10220040#1000000040080000
(1780156069.909000) can0 10800040#020000000000
(1780156069.914000) can0 1022E040#1000000010000000
(1780156069.932000) can0 10806040#0000000000
(1780156069.933000) can0 10230040#2000000020000000
(1780156069.944000) can0 10240040#83FF8A1100D80000
(1780156069.963000) can0 102C0040#803C96B503
(1780156069.964000) can0 102CA040#0000000000000F00
(1780156069.995000) can0 10264040#0000000000000000
(1780156069.996000) can0 10210040#0000800000008000
(1780156070.004000) can0 10220040#10000000400A0000
(1780156070.028000) can0 1022E040#3000000030000000
(1780156070.028000) can0 10230040#0000000000000000
(1780156070.058000) can0 1022A040#00B00000000000
(1780156070.059000) can0 1022C040#00000000
(1780156070.059000) can0 10240040#83FF8A1100D80000
(1780156070.059000) can0 102C0040#803C96B503
(1780156070.074000) can0 102CA040#0000000000000F00
(1780156070.074000) can0 106B8040#0000000000000000
(1780156070.074000) can0 102CC040#0400C00000000000
(1780156070.084000) can0 10264040#0000000000000000
(1780156070.105000) can0 102CE040#0700070000000000
(1780156070.106000) can0 10210040#0000800000008000
(1780156070.106000) can0 10220040#10000000400A0000
(1780156070.114000) can0 1022E040#1000000010000000
(1780156070.120000) can0 10780040#0000000000000000
(1780156070.125000) can0 10230040#2000000020000000
(1780156070.130000) can0 10800040#020000000000
(1780156070.152000) can0 10240040#83FF8A1100D80000
(1780156070.153000) can0 102C0040#803C96B503
(1780156070.165000) can0 102CA040#0000000000000F00
(1780156070.184000) can0 10264040#0000000000000000
(1780156070.194000) can0 10210040#0000800000008000
(1780156070.214000) can0 10220040#1000000040080000
(1780156070.215000) can0 1022E040#3000000030000000
(1780156070.224000) can0 10230040#0000000000000000
(1780156070.246000) can0 10240040#83FF8A1100D80000
(1780156070.249000) can0 106B8040#0000000000000000
(1780156070.254000) can0 102C0040#803C96B503
(1780156070.277000) can0 102CA040#0000000000000F00
(1780156070.285000) can0 10264040#0000000000000000
(1780156070.307000) can0 10210040#0000800000008000
(1780156070.308000) can0 1022A040#00B00000000000
(1780156070.308000) can0 10220040#1000000040080000
(1780156070.308000) can0 1022C040#00000000
(1780156070.314000) can0 1022E040#1000000010000000
(1780156070.319000) can0 10248040#00005CA6A300
(1780156070.341000) can0 10230040#2000000020000000
(1780156070.344000) can0 102CC040#0400C00000000000
(1780156070.344000) can0 102CE040#0700070000000000
(1780156070.344000) can0 102D0040#0000000000000000
(1780156070.345000) can0 10240040#83FF8A1100D80FFD
(1780156070.354000) can0 102C0040#803C96B503
(1780156070.372000) can0 10806040#0000000000
(1780156070.372000) can0 102CA040#0000000000000F00
(1780156070.373000) can0 10780040#0000000000000000
(1780156070.374000) can0 10788040#100A00000000
(1780156070.379000) can0 10800040#020000000000
(1780156070.385000) can0 10264040#0000000000000000
(1780156070.404000) can0 10210040#0000800000008000
(1780156070.405000) can0 10220040#1000000040080000
(1780156070.414000) can0 1022E040#3000000030000000
(1780156070.435000) can0 10230040#0000000000000000
(1780156070.444000) can0 10240040#83FE8A1100D80000
(1780156070.450000) can0 106B8040#0000000000000000
(1780156070.453000) can0 102C0040#803C96B503
(1780156070.465000) can0 102CA040#0000000000000F00
(1780156070.484000) can0 10264040#0000000000000000
(1780156070.495000) can0 10210040#0000800000008000
(1780156070.513000) can0 10220040#1000000040080000
(1780156070.514000) can0 1022E040#1000000010000000
(1780156070.524000) can0 10230040#2000000020000000
(1780156070.544000) can0 1022A040#00B00000000000
(1780156070.549000) can0 1022C040#00000000
(1780156070.555000) can0 10240040#83FF8A1100D80000
(1780156070.558000) can0 102C0040#803C96B503
(1780156070.565000) can0 102CA040#0000000000000F00
(1780156070.575000) can0 102CC040#0400C00000000000
(1780156070.585000) can0 10264040#0000000000000000
(1780156070.590000) can0 102CE040#0700070000000000
(1780156070.594000) can0 10210040#0000800000008000
(1780156070.605000) can0 10220040#1000000040080000
(1780156070.622000) can0 1022E040#3000000030000000
(1780156070.623000) can0 10780040#0000000000000000
(1780156070.624000) can0 10230040#0000000000000000
(1780156070.629000) can0 10800040#020000000000
(1780156070.656000) can0 10240040#83FE8A1100D80000
(1780156070.658000) can0 106B8040#0000000000000000
(1780156070.659000) can0 102C0040#803C96B503
(1780156070.665000) can0 102CA040#0000000000000F00
(1780156070.691000) can0 621#0052000000000000
(1780156070.695000) can0 10264040#0000000000000000
(1780156070.695000) can0 1080A040#00000000
(1780156070.696000) can0 10210040#0000800000008000
(1780156070.699000) can0 1080E040#0000000000000000
(1780156070.717000) can0 10220040#1000000040080000
(1780156070.718000) can0 1022E040#1000000010000000
(1780156070.724000) can0 10230040#2000000020000000
(1780156070.749000) can0 10240040#83FF8A1100D80000
(1780156070.754000) can0 102C0040#803C96B503
(1780156070.784000) can0 10264040#0000000000000000
(1780156070.794000) can0 10210040#0000800000008000
(1780156070.799000) can0 1022A040#00B00000000000
(1780156070.804000) can0 10220040#1000000040080000
(1780156070.808000) can0 1022C040#00000000
(1780156070.826000) can0 1022E040#3000000030000000
(1780156070.826000) can0 10248040#00005CA6A300
(1780156070.827000) can0 10230040#0000000000000000
(1780156070.828000) can0 10250040#0000
(1780156070.834000) can0 102CC040#0400C00000000000
(1780156070.839000) can0 102CE040#0700070000000000
(1780156070.858000) can0 10240040#83FF8A1100D80FFD
(1780156070.859000) can0 102D0040#0000000000000000
(1780156070.860000) can0 102C0040#803C96B503
(1780156070.860000) can0 102E0040#840000000000004E
(1780156070.864000) can0 102CA040#0000000000000F00
(1780156070.869000) can0 106B8040#0000000000000000
(1780156070.890000) can0 1077C040#303003B9
(1780156070.891000) can0 10264040#0000000000000000
(1780156070.892000) can0 10780040#0000000000000000
(1780156070.894000) can0 10210040#0000800000008000
(1780156070.899000) can0 10788040#100A00000000
(1780156070.904000) can0 10220040#10000000400A0000
(1780156070.910000) can0 10800040#020000000000
(1780156070.920000) can0 1022E040#1000000010000000
(1780156070.920000) can0 10806040#0000000000
(1780156070.925000) can0 10230040#2000000020000000
(1780156070.928000) can0 13FFE040#
(1780156070.952000) can0 10240040#83FE8A1100D80FFD
(1780156070.953000) can0 102C0040#803C96B503
(1780156070.964000) can0 102CA040#0000000000000F00
(1780156070.984000) can0 10264040#0000000000000000
(1780156070.994000) can0 10210040#0000800000008000
(1780156071.017000) can0 10220040#1000000040080000
(1780156071.018000) can0 1022E040#3000000030000000
(1780156071.026000) can0 10230040#0000000000000000
(1780156071.048000) can0 1022A040#00B00000000000
(1780156071.048000) can0 1022C040#00000000
(1780156071.054000) can0 10240040#83FE8A1100D80000
(1780156071.059000) can0 102C0040#803C96B503
(1780156071.080000) can0 102CA040#0000000000000F00
(1780156071.080000) can0 106B8040#0000000000000000
(1780156071.081000) can0 102CC040#0400C00000000000
(1780156071.084000) can0 10264040#0000000000000000
(1780156071.089000) can0 102CE040#0700070000000000
(1780156071.112000) can0 10220040#1000000040080000
(1780156071.114000) can0 1022E040#1000000010000000
(1780156071.119000) can0 10780040#0000000000000000
(1780156071.142000) can0 10230040#2000000020000000
(1780156071.143000) can0 10800040#020000000000
(1780156071.144000) can0 10240040#83FE8A1100D80000
(1780156071.153000) can0 102C0040#803C96B503
(1780156071.174000) can0 102CA040#0000000000000F00
(1780156071.185000) can0 10264040#0000000000000000
(1780156071.205000) can0 10210040#0000800000008000
(1780156071.206000) can0 10220040#10000000400A0000
(1780156071.214000) can0 1022E040#3000000030000000
(1780156071.237000) can0 10230040#0000000000000000
(1780156071.244000) can0 10240040#83FF8A1100D80000
(1780156071.250000) can0 106B8040#0000000000000000
(1780156071.268000) can0 102C0040#803C96B503
(1780156071.268000) can0 102CA040#0000000000000F00
(1780156071.301000) can0 10264040#0000000000000000
(1780156071.309000) can0 10210040#0000800000008000
(1780156071.315000) can0 1022A040#00B00000000000
(1780156071.315000) can0 10220040#1000000040080000
(1780156071.315000) can0 1022C040#00000000
(1780156071.316000) can0 1022E040#1000000010000000
(1780156071.319000) can0 10248040#00005CA6A300
(1780156071.324000) can0 10230040#2000000020000000
(1780156071.346000) can0 102CE040#0700070000000000
(1780156071.368000) can0 102D0040#0000000000000000
(1780156071.369000) can0 10240040#83FF8A1100D80000
(1780156071.370000) can0 102C0040#803C96B503
(1780156071.371000) can0 10806040#0000000000
(1780156071.371000) can0 102CA040#0000000000000F00
(1780156071.371000) can0 10780040#0000000000000000
(1780156071.374000) can0 10788040#100A00000000
(1780156071.392000) can0 10800040#020000000000
(1780156071.393000) can0 10264040#0000000000000000
(1780156071.394000) can0 10210040#0000800000008000
(1780156071.404000) can0 10220040#1000000040080000
(1780156071.424000) can0 1022E040#3000000030000000
(1780156071.426000) can0 10230040#0000000000000000
(1780156071.456000) can0 10240040#83FF8A1100D80000
(1780156071.457000) can0 106B8040#0000000000000000
(1780156071.459000) can0 102C0040#803C96B503
(1780156071.465000) can0 102CA040#0000000000000F00
(1780156071.488000) can0 10264040#0000000000000000
(1780156071.495000) can0 10210040#0000800000008000
(1780156071.517000) can0 10220040#1000000040080000
(1780156071.518000) can0 1022E040#1000000010000000
(1780156071.526000) can0 10230040#2000000020000000
(1780156071.549000) can0 1022A040#00B00000000000
(1780156071.550000) can0 1022C040#00000000
(1780156071.554000) can0 10240040#83FF8A1100D80FFD
(1780156071.560000) can0 102C0040#803C96B503
(1780156071.579000) can0 102CA040#0000000000000F00
(1780156071.579000) can0 102CC040#0400C00000000000
(1780156071.585000) can0 10264040#0000000000000000
(1780156071.589000) can0 102CE040#0700070000000000
(1780156071.594000) can0 10210040#0000800000008000
(1780156071.604000) can0 10220040#1000000040080000
(1780156071.626000) can0 1022E040#3000000030000000
(1780156071.627000) can0 10780040#0000000000000000
(1780156071.628000) can0 10230040#0000000000000000
(1780156071.629000) can0 10800040#020000000000
(1780156071.658000) can0 10240040#83FF8A1100D80FFD
(1780156071.660000) can0 106B8040#0000000000000000
(1780156071.661000) can0 102C0040#803C96B503
(1780156071.665000) can0 102CA040#0000000000000F00
(1780156071.691000) can0 10264040#0000000000000000
(1780156071.695000) can0 1080A040#00000000
(1780156071.695000) can0 10210040#0000800000008000
(1780156071.700000) can0 1080E040#0000000000000000
(1780156071.720000) can0 1022E040#1000000010000000
(1780156071.724000) can0 10230040#2000000020000000
(1780156071.752000) can0 10240040#83FF8A1100D80FFD
(1780156071.753000) can0 102C0040#803C96B503
(1780156071.764000) can0 102CA040#0000000000000F00
(1780156071.784000) can0 10264040#0000000000000000
(1780156071.794000) can0 10210040#0000800000008000
(1780156071.815000) can0 10220040#1000000040080000
(1780156071.816000) can0 1022C040#00000000
(1780156071.816000) can0 1022E040#3000000030000000
(1780156071.819000) can0 10248040#00005CA6A300
(1780156071.824000) can0 10230040#0000000000000000
(1780156071.828000) can0 10250040#0000
(1780156071.847000) can0 102CC040#0400C00000000000
(1780156071.847000) can0 102CE040#0700070000000000
(1780156071.848000) can0 10240040#83FE8A1100D80000
(1780156071.849000) can0 102D0040#0000000000000000
(1780156071.854000) can0 102C0040#803C96B503
(1780156071.859000) can0 102E0040#840000000000004E
(1780156071.879000) can0 102CA040#0000000000000F00
(1780156071.879000) can0 106B8040#0000000000000000
(1780156071.880000) can0 106C0040#00B5D1DE00
(1780156071.880000) can0 1077C040#303003B9
(1780156071.885000) can0 10264040#0000000000000000
(1780156071.889000) can0 10780040#0000000000000000
(1780156071.894000) can0 10210040#0000800000008000
(1780156071.899000) can0 10788040#100A00000000
(1780156071.904000) can0 10220040#1000000040080000
(1780156071.911000) can0 10800040#020000000000
(1780156071.914000) can0 1022E040#1000000010000000
(1780156071.918000) can0 10806040#0000000000
(1780156071.926000) can0 10230040#2000000020000000
(1780156071.958000) can0 10240040#83FF8A1100D80000
(1780156071.958000) can0 102C0040#803C96B503
(1780156071.965000) can0 102CA040#0000000000000F00
(1780156071.989000) can0 10264040#0000000000000000
(1780156071.994000) can0 10210040#0000800000008000
(1780156072.018000) can0 10220040#1000000040080000
(1780156072.018000) can0 1022E040#3000000030000000
(1780156072.024000) can0 10230040#0000000000000000
(1780156072.049000) can0 1022A040#00B00000000000
(1780156072.050000) can0 1022C040#00000000
(1780156072.054000) can0 10240040#83FE8A1100D80FFD
(1780156072.058000) can0 102C0040#803C96B503
(1780156072.082000) can0 106B8040#0000000000000000
(1780156072.082000) can0 102CC040#0400C00000000000
(1780156072.085000) can0 10264040#0000000000000000
(1780156072.092000) can0 102CE040#0700070000000000
(1780156072.095000) can0 10210040#0000800000008000
(1780156072.114000) can0 10220040#1000000040080000
(1780156072.115000) can0 1022E040#1000000010000000
(1780156072.120000) can0 10780040#0000000000000000
(1780156072.126000) can0 10230040#2000000020000000
(1780156072.145000) can0 10240040#83FE8A1100D80000
(1780156072.153000) can0 102C0040#803C96B503
(1780156072.179000) can0 102CA040#0000000000000F00
(1780156072.185000) can0 10264040#0000000000000000
(1780156072.210000) can0 10210040#0000800000008000
(1780156072.212000) can0 10220040#10000000400A0000
(1780156072.214000) can0 1022E040#3000000030000000
(1780156072.244000) can0 10240040#83FE8A1100D80000
(1780156072.249000) can0 106B8040#0000000000000000
(1780156072.253000) can0 102C0040#803C96B503
(1780156072.271000) can0 102CA040#0000000000000F00
(1780156072.285000) can0 10264040#0000000000000000
(1780156072.303000) can0 10210040#0000800000008000
(1780156072.304000) can0 1022A040#00B00000000000
(1780156072.304000) can0 10220040#1000000040080000
(1780156072.309000) can0 1022C040#00000000
(1780156072.314000) can0 1022E040#1000000010000000
(1780156072.335000) can0 10230040#2000000020000000
(1780156072.335000) can0 102CC040#0400C00000000000
(1780156072.336000) can0 102CE040#0700070000000000
(1780156072.339000) can0 102D0040#0000000000000000
(1780156072.344000) can0 10240040#83FF8A1100D80000
(1780156072.368000) can0 102C0040#803C96B503
(1780156072.369000) can0 10806040#0000000000
(1780156072.369000) can0 102CA040#0000000000000F00
(1780156072.370000) can0 10780040#0000000000000000
(1780156072.376000) can0 10788040#100A00000000
(1780156072.379000) can0 10800040#020000000000
(1780156072.398000) can0 10264040#0000000000000000
(1780156072.399000) can0 10210040#0000800000008000
(1780156072.404000) can0 10220040#1000000040080000
(1780156072.431000) can0 10230040#0000000000000000
(1780156072.444000) can0 10240040#83FF8A1100D80FFD
(1780156072.451000) can0 106B8040#0000000000000000
(1780156072.461000) can0 102C0040#803C96B503
(1780156072.464000) can0 102CA040#0000000000000F00
(1780156072.492000) can0 10264040#0000000000000000
(1780156072.494000) can0 10210040#0000800000008000
(1780156072.504000) can0 10220040#1000000040080000
(1780156072.524000) can0 1022E040#1000000010000000
(1780156072.525000) can0 10230040#2000000020000000
(1780156072.556000) can0 1022A040#00B00000000000
(1780156072.558000) can0 1022C040#00000000
(1780156072.558000) can0 10240040#83FF8A1100D80000
(1780156072.559000) can0 102C0040#803C96B503
(1780156072.564000) can0 102CA040#0000000000000F00
(1780156072.587000) can0 102CC040#0400C00000000000
(1780156072.588000) can0 10264040#0000000000000000
(1780156072.589000) can0 102CE040#0700070000000000
(1780156072.594000) can0 10210040#0000800000008000
(1780156072.619000) can0 10220040#1000000040080000
(1780156072.620000) can0 1022E040#3000000030000000
(1780156072.621000) can0 10780040#0000000000000000
(1780156072.625000) can0 10230040#0000000000000000
(1780156072.628000) can0 10800040#020000000000
(1780156072.652000) can0 10240040#83FE8A1100D80000
(1780156072.656000) can0 106B8040#0000000000000000
(1780156072.659000) can0 102C0040#803C96B503
(1780156072.666000) can0 102CA040#0000000000000F00
(1780156072.676000) can0 621#0052000000000000
(1780156072.699000) can0 10264040#0000000000000000
(1780156072.700000) can0 1080A040#00000000
(1780156072.700000) can0 10210040#0000800000008000
(1780156072.701000) can0 1080E040#0000000000000000
(1780156072.704000) can0 10220040#1000000040080000
(1780156072.729000) can0 1022E040#1000000010000000
(1780156072.730000) can0 10230040#2000000020000000
(1780156072.744000) can0 10240040#83FF8A1100D80FFD
(1780156072.761000) can0 102C0040#803C96B503
(1780156072.764000) can0 102CA040#0000000000000F00
(1780156072.793000) can0 10264040#0000000000000000
(1780156072.794000) can0 10210040#0000800000008000
(1780156072.799000) can0 1022A040#00B00000000000
(1780156072.804000) can0 10220040#1000000040080000
(1780156072.808000) can0 1022C040#00000000
(1780156072.814000) can0 1022E040#3000000030000000
(1780156072.818000) can0 10248040#00005CA6A300
(1780156072.840000) can0 10250040#0000
(1780156072.840000) can0 102CC040#0400C00000000000
(1780156072.841000) can0 102CE040#0700070000000000
(1780156072.844000) can0 10240040#83FF8A1100D80000
(1780156072.849000) can0 102D0040#0000000000000000
(1780156072.853000) can0 102C0040#803C96B503
(1780156072.875000) can0 102E0040#840000000000004E
(1780156072.881000) can0 102CA040#0000000000000F00
(1780156072.882000) can0 106B8040#0000000000000000
(1780156072.883000) can0 106C0040#00B5D1DE00
(1780156072.883000) can0 1077C040#303003B9
(1780156072.884000) can0 10264040#0000000000000000
(1780156072.906000) can0 10210040#0000800000008000
(1780156072.909000) can0 10788040#100A00000000
(1780156072.910000) can0 10220040#1000000040080000
(1780156072.911000) can0 10800040#020000000000
(1780156072.914000) can0 1022E040#1000000010000000
(1780156072.919000) can0 10806040#0000000000
(1780156072.924000) can0 10230040#2000000020000000
(1780156072.951000) can0 10240040#83FF8A1100D80000
(1780156072.953000) can0 102C0040#803C96B503
(1780156072.964000) can0 102CA040#0000000000000F00
(1780156072.984000) can0 10264040#0000000000000000
(1780156072.994000) can0 10210040#0000800000008000
(1780156073.014000) can0 10220040#10000000400A0000
(1780156073.015000) can0 1022E040#3000000030000000
(1780156073.024000) can0 10230040#0000000000000000
(1780156073.048000) can0 1022A040#00B00000000000
(1780156073.048000) can0 1022C040#00000000
(1780156073.054000) can0 10240040#83FE8A1100D80FFD
(1780156073.058000) can0 102C0040#803C96B503
(1780156073.077000) can0 102CA040#0000000000000F00
(1780156073.078000) can0 106B8040#0000000000000000
(1780156073.080000) can0 102CC040#0400C00000000000
(1780156073.085000) can0 10264040#0000000000000000
(1780156073.089000) can0 102CE040#0700070000000000
(1780156073.109000) can0 10210040#0000800000008000
(1780156073.109000) can0 10220040#1000000040080000
(1780156073.114000) can0 1022E040#1000000010000000
(1780156073.119000) can0 10780040#0000000000000000
(1780156073.124000) can0 10230040#2000000020000000
(1780156073.128000) can0 10800040#020000000000
(1780156073.159000) can0 10240040#83FF8A1100D80FFD
(1780156073.162000) can0 102C0040#803C96B503
(1780156073.164000) can0 102CA040#0000000000000F00
(1780156073.188000) can0 10264040#0000000000000000
(1780156073.194000) can0 10210040#0000800000008000
(1780156073.220000) can0 10220040#1000000040080000
(1780156073.221000) can0 1022E040#3000000030000000
(1780156073.225000) can0 10230040#0000000000000000
(1780156073.251000) can0 10240040#83FF8A1100D80000
(1780156073.252000) can0 106B8040#0000000000000000
(1780156073.255000) can0 102C0040#803C96B503
(1780156073.264000) can0 102CA040#0000000000000F00
(1780156073.284000) can0 10264040#0000000000000000
(1780156073.287000) can0 13FFE040#
(1780156073.294000) can0 10210040#0000800000008000
(1780156073.314000) can0 1022A040#00B00000000000
(1780156073.315000) can0 10220040#1000000040080000
(1780156073.315000) can0 1022C040#00000000
(1780156073.316000) can0 1022E040#1000000010000000
(1780156073.318000) can0 10248040#00005CA6A300
(1780156073.326000) can0 10230040#2000000020000000
(1780156073.330000) can0 102CC040#0400C00000000000
(1780156073.338000) can0 102CE040#0700070000000000
(1780156073.340000) can0 102D0040#0000000000000000
(1780156073.344000) can0 10240040#83FF8A1100D80FFD
(1780156073.360000) can0 102C0040#803C96B503
(1780156073.384000) can0 10806040#0000000000
(1780156073.384000) can0 102CA040#0000000000000F00
(1780156073.385000) can0 10780040#0000000000000000
(1780156073.385000) can0 10788040#100A00000000
(1780156073.385000) can0 10800040#020000000000
(1780156073.386000) can0 10264040#0000000000000000
(1780156073.408000) can0 10210040#0000800000008000
(1780156073.410000) can0 10220040#1000000040080000
(1780156073.414000) can0 1022E040#3000000030000000
(1780156073.443000) can0 10240040#83FE8A1100D80000
(1780156073.449000) can0 106B8040#0000000000000000
(1780156073.453000) can0 102C0040#803C96B503
(1780156073.471000) can0 102CA040#0000000000000F00
(1780156073.484000) can0 10264040#0000000000000000
(1780156073.503000) can0 10210040#0000800000008000
(1780156073.504000) can0 10220040#10000000400A0000
(1780156073.514000) can0 1022E040#1000000010000000
(1780156073.534000) can0 10230040#2000000020000000
(1780156073.543000) can0 1022A040#00B00000000000
(1780156073.547000) can0 1022C040#00000000
(1780156073.565000) can0 10240040#83FE8A1100D80FFD
(1780156073.566000) can0 102C0040#803C96B503
(1780156073.566000) can0 102CA040#0000000000000F00
(1780156073.574000) can0 102CC040#0400C00000000000
(1780156073.597000) can0 10264040#0000000000000000
(1780156073.597000) can0 102CE040#0700070000000000
(1780156073.598000) can0 10210040#0000800000008000
(1780156073.604000) can0 10220040#1000000040080000
(1780156073.630000) can0 1022E040#3000000030000000
(1780156073.630000) can0 10780040#0000000000000000
(1780156073.631000) can0 10230040#0000000000000000
(1780156073.631000) can0 10800040#020000000000
(1780156073.644000) can0 10240040#83FE8A1100D80000
(1780156073.662000) can0 106B8040#0000000000000000
(1780156073.663000) can0 102C0040#803C96B503
(1780156073.664000) can0 102CA040#0000000000000F00
(1780156073.673000) can0 621#0052000000000000
(1780156073.693000) can0 10264040#0000000000000000
(1780156073.694000) can0 1080A040#00000000
(1780156073.694000) can0 10210040#0000800000008000
(1780156073.699000) can0 1080E040#0000000000000000
(1780156073.704000) can0 10220040#1000000040080000
(1780156073.708000) can0 10814040#00000000
(1780156073.725000) can0 1022E040#1000000010000000
(1780156073.726000) can0 10230040#2000000020000000
(1780156073.757000) can0 10240040#83FF8A1100D80000
(1780156073.758000) can0 102C0040#803C96B503
(1780156073.764000) can0 102CA040#0000000000000F00
(1780156073.788000) can0 10264040#0000000000000000
(1780156073.794000) can0 10210040#0000800000008000
(1780156073.798000) can0 1022A040#00B00000000000
(1780156073.820000) can0 10220040#1000000040080000
(1780156073.820000) can0 1022C040#00000000
(1780156073.820000) can0 1022E040#3000000030000000
(1780156073.821000) can0 10242040#02
(1780156073.824000) can0 10230040#0000000000000000
(1780156073.828000) can0 10248040#00005CA6A300
(1780156073.832000) can0 10250040#0000
(1780156073.850000) can0 102CC040#0400C00000000000
(1780156073.850000) can0 10240040#83FF8A1100D80000
(1780156073.851000) can0 102CE040#0700070000000000
(1780156073.853000) can0 102C0040#803C96B503
(1780156073.859000) can0 102D0040#0000000000000000
(1780156073.864000) can0 102CA040#0000000000000F00
(1780156073.881000) can0 102E0040#840000000000004E
(1780156073.882000) can0 106B8040#0000000000000000
(1780156073.882000) can0 106C0040#00B5D1DE00
(1780156073.884000) can0 10264040#0000000000000000
(1780156073.887000) can0 1077C040#303003B9
(1780156073.893000) can0 10210040#0000800000008000
(1780156073.913000) can0 10780040#0000000000000000
(1780156073.914000) can0 10220040#1000000040080000
(1780156073.914000) can0 10788040#100A00000000
(1780156073.914000) can0 1022E040#1000000010000000
(1780156073.918000) can0 10800040#020000000000
(1780156073.924000) can0 10230040#2000000020000000
(1780156073.928000) can0 10806040#0000000000
(1780156073.945000) can0 10EC4040#3056305845503638
(1780156073.945000) can0 10EC8040#4B34303238383139
(1780156073.946000) can0 10240040#83FF8A1100D80000
(1780156073.953000) can0 102C0040#803C96B503
(1780156073.978000) can0 102CA040#0000000000000F00
(1780156073.984000) can0 10264040#0000000000000000
(1780156074.008000) can0 10210040#0000800000008000
(1780156074.008000) can0 10220040#1000000040080000
(1780156074.013000) can0 1022E040#3000000030000000
(1780156074.039000) can0 10230040#0000000000000000
(1780156074.043000) can0 1022A040#00B00000000000
(1780156074.047000) can0 1022C040#00000000
(1780156074.053000) can0 10240040#83FF8A1100D80000
(1780156074.058000) can0 102C0040#803C96B503
(1780156074.064000) can0 102CA040#0000000000000F00
(1780156074.069000) can0 106B8040#0000000000000000
(1780156074.085000) can0 10264040#0000000000000000
(1780156074.088000) can0 102CE040#0700070000000000
(1780156074.093000) can0 10210040#0000800000008000
(1780156074.116000) can0 10220040#1000000040080000
