# cantool ipc-rpm-word-sweep TX/RX capture bitrate=33333.333 fclk=170000000 brp=255 prop=1 phase1=13 phase2=5 sjw=4
# rpm-word-sweep mode=interactive upper_half=true full_candidates=232 active_candidates=116 first_full_index=117 active_period_ms=20 hold_ms=1500
# rpm-word-sweep progress_indicator id=10210040 period_ms=100 display=50-100kmh note=uses confirmed 10210040 speedometer feed
# mark keys: m/space=manual event, b=bad/restart/disruptive, n=skip, p=pause/resume, q=quit
# rpm-window-start t=021.620s full_index=117/232 upper_index=1/116 active=102CA040#0000000C80000F00 note=102CA040 body/DIC status rpm-word offset 3: 800 rpm raw 0x0C80; full_index=117/232
# tx t=021.624s 100# note=rpm word sweep baseline SWCAN wake pulse
# tx t=021.624s 13FFE040# note=rpm word sweep baseline BCM/source 0x40 presence
# tx t=021.625s 621#0052000000000000 note=rpm word sweep baseline key-on 621 keepalive
# tx t=021.625s 102C0040#803C96B503 note=rpm word sweep baseline ignition/power-mode key-on context
# tx t=021.625s 102CC040#0000400000000000 note=rpm word sweep baseline confirmed speed-valid prerequisite
# tx t=021.625s 102CA040#0000000C80000F00 note=102CA040 body/DIC status rpm-word offset 3: 800 rpm raw 0x0C80; full_index=117/232
# tx t=021.625s 10210040#0D00000000000000 note=RPM sweep progress indicator 50.2% full_index=117/232 target 50 kmh via confirmed 10210040 byte0=0x0D
(1780180655.934000) can0 100#
(1780180655.935000) can0 13FFE040#
(1780180655.935000) can0 621#0052000000000000
(1780180655.935000) can0 102C0040#803C96B503
(1780180655.936000) can0 102CC040#0000400000000000
(1780180655.939000) can0 102CA040#0000000C80000F00
(1780180655.943000) can0 10210040#0D00000000000000
# tx t=021.651s 102CA040#0000000C80000F00 note=102CA040 body/DIC status rpm-word offset 3: 800 rpm raw 0x0C80; full_index=117/232
(1780180655.959000) can0 10244060#02
(1780180655.960000) can0 102CA040#0000000C80000F00
(1780180655.961000) can0 103BC060#00
(1780180655.968000) can0 1045C060#40
(1780180655.972000) can0 10ACE060#1E01200000000000
# tx t=021.683s 102CA040#0000000C80000F00 note=102CA040 body/DIC status rpm-word offset 3: 800 rpm raw 0x0C80; full_index=117/232
(1780180655.991000) can0 10AE8060#030E010104050000
(1780180655.992000) can0 13FFE060#
(1780180655.992000) can0 10308060#000002
(1780180655.992000) can0 102CA040#0000000C80000F00
(1780180655.999000) can0 103D6060#00
(1780180656.002000) can0 103DA060#00
(1780180656.004000) can0 10812060#00
(1780180656.006000) can0 1084A060#00
(1780180656.011000) can0 10AE8060#0016010800000000
(1780180656.013000) can0 13FFE060#
(1780180656.017000) can0 62C#0112000000000000
# tx t=021.730s 102C0040#803C96B503 note=rpm word sweep baseline ignition/power-mode key-on context
# tx t=021.730s 102CA040#0000000C80000F00 note=102CA040 body/DIC status rpm-word offset 3: 800 rpm raw 0x0C80; full_index=117/232
# tx t=021.730s 10210040#0D00000000000000 note=RPM sweep progress indicator 50.2% full_index=117/232 target 50 kmh via confirmed 10210040 byte0=0x0D
(1780180656.039000) can0 102C0040#803C96B503
(1780180656.039000) can0 102CA040#0000000C80000F00
(1780180656.039000) can0 10210040#0D00000000000000
(1780180656.053000) can0 10424060#079964
# tx t=021.777s 102CA040#0000000C80000F00 note=102CA040 body/DIC status rpm-word offset 3: 800 rpm raw 0x0C80; full_index=117/232
(1780180656.086000) can0 10ACE060#2B00000000000000
(1780180656.086000) can0 102CA040#0000000C80000F00
# tx t=021.807s 102CA040#0000000C80000F00 note=102CA040 body/DIC status rpm-word offset 3: 800 rpm raw 0x0C80; full_index=117/232
(1780180656.116000) can0 102CA040#0000000C80000F00
# tx t=021.839s 102C0040#803C96B503 note=rpm word sweep baseline ignition/power-mode key-on context
# tx t=021.839s 102CA040#0000000C80000F00 note=102CA040 body/DIC status rpm-word offset 3: 800 rpm raw 0x0C80; full_index=117/232
# tx t=021.840s 10210040#0D00000000000000 note=RPM sweep progress indicator 50.2% full_index=117/232 target 50 kmh via confirmed 10210040 byte0=0x0D
(1780180656.148000) can0 102C0040#803C96B503
(1780180656.148000) can0 102CA040#0000000C80000F00
(1780180656.148000) can0 10210040#0D00000000000000
# tx t=021.871s 102CC040#0000400000000000 note=rpm word sweep baseline confirmed speed-valid prerequisite
# tx t=021.871s 102CA040#0000000C80000F00 note=102CA040 body/DIC status rpm-word offset 3: 800 rpm raw 0x0C80; full_index=117/232
(1780180656.180000) can0 102CC040#0000400000000000
(1780180656.180000) can0 102CA040#0000000C80000F00
(1780180656.193000) can0 10ACE060#1E00200000000000
# tx t=021.903s 102CA040#0000000C80000F00 note=102CA040 body/DIC status rpm-word offset 3: 800 rpm raw 0x0C80; full_index=117/232
(1780180656.212000) can0 10AFC060#38FFFFFFFFFFFF2B
(1780180656.212000) can0 102CA040#0000000C80000F00
# tx t=021.936s 102C0040#803C96B503 note=rpm word sweep baseline ignition/power-mode key-on context
# tx t=021.936s 102CA040#0000000C80000F00 note=102CA040 body/DIC status rpm-word offset 3: 800 rpm raw 0x0C80; full_index=117/232
# tx t=021.936s 10210040#0D00000000000000 note=RPM sweep progress indicator 50.2% full_index=117/232 target 50 kmh via confirmed 10210040 byte0=0x0D
(1780180656.245000) can0 102C0040#803C96B503
(1780180656.245000) can0 102CA040#0000000C80000F00
(1780180656.245000) can0 10210040#0D00000000000000
# tx t=021.967s 102CA040#0000000C80000F00 note=102CA040 body/DIC status rpm-word offset 3: 800 rpm raw 0x0C80; full_index=117/232
(1780180656.276000) can0 102CA040#0000000C80000F00
(1780180656.284000) can0 10600060#0160B902005B00
# tx t=021.999s 102CA040#0000000C80000F00 note=102CA040 body/DIC status rpm-word offset 3: 800 rpm raw 0x0C80; full_index=117/232
(1780180656.308000) can0 102CA040#0000000C80000F00
# tx t=022.031s 102C0040#803C96B503 note=rpm word sweep baseline ignition/power-mode key-on context
# tx t=022.031s 102CA040#0000000C80000F00 note=102CA040 body/DIC status rpm-word offset 3: 800 rpm raw 0x0C80; full_index=117/232
# tx t=022.032s 10210040#0D00000000000000 note=RPM sweep progress indicator 50.2% full_index=117/232 target 50 kmh via confirmed 10210040 byte0=0x0D
(1780180656.340000) can0 102C0040#803C96B503
(1780180656.340000) can0 102CA040#0000000C80000F00
(1780180656.340000) can0 10210040#0D00000000000000
# tx t=022.063s 102CA040#0000000C80000F00 note=102CA040 body/DIC status rpm-word offset 3: 800 rpm raw 0x0C80; full_index=117/232
(1780180656.372000) can0 102CA040#0000000C80000F00
# tx t=022.095s 102CA040#0000000C80000F00 note=102CA040 body/DIC status rpm-word offset 3: 800 rpm raw 0x0C80; full_index=117/232
(1780180656.404000) can0 102CA040#0000000C80000F00
# tx t=022.127s 102C0040#803C96B503 note=rpm word sweep baseline ignition/power-mode key-on context
# tx t=022.128s 10242040#02 note=rpm word sweep baseline key second-turn sub-state
# tx t=022.128s 102CC040#0000400000000000 note=rpm word sweep baseline confirmed speed-valid prerequisite
# tx t=022.128s 102CA040#0000000C80000F00 note=102CA040 body/DIC status rpm-word offset 3: 800 rpm raw 0x0C80; full_index=117/232
# tx t=022.128s 10210040#0D00000000000000 note=RPM sweep progress indicator 50.2% full_index=117/232 target 50 kmh via confirmed 10210040 byte0=0x0D
(1780180656.437000) can0 102C0040#803C96B503
(1780180656.437000) can0 10242040#02
(1780180656.437000) can0 102CC040#0000400000000000
(1780180656.439000) can0 102CA040#0000000C80000F00
(1780180656.442000) can0 10210040#0D00000000000000
# tx t=022.159s 102CA040#0000000C80000F00 note=102CA040 body/DIC status rpm-word offset 3: 800 rpm raw 0x0C80; full_index=117/232
(1780180656.468000) can0 102CA040#0000000C80000F00
# tx t=022.191s 102CA040#0000000C80000F00 note=102CA040 body/DIC status rpm-word offset 3: 800 rpm raw 0x0C80; full_index=117/232
(1780180656.500000) can0 10244060#02
(1780180656.500000) can0 102CA040#0000000C80000F00
# tx t=022.223s 102C0040#803C96B503 note=rpm word sweep baseline ignition/power-mode key-on context
# tx t=022.224s 10754040#040400 note=rpm word sweep baseline key-present/key-on context
# tx t=022.224s 102CA040#0000000C80000F00 note=102CA040 body/DIC status rpm-word offset 3: 800 rpm raw 0x0C80; full_index=117/232
# tx t=022.224s 10210040#0D00000000000000 note=RPM sweep progress indicator 50.2% full_index=117/232 target 50 kmh via confirmed 10210040 byte0=0x0D
(1780180656.532000) can0 102C0040#803C96B503
(1780180656.532000) can0 10754040#040400
(1780180656.533000) can0 102CA040#0000000C80000F00
(1780180656.535000) can0 10210040#0D00000000000000
# tx t=022.255s 102CA040#0000000C80000F00 note=102CA040 body/DIC status rpm-word offset 3: 800 rpm raw 0x0C80; full_index=117/232
(1780180656.564000) can0 102CA040#0000000C80000F00
# tx t=022.287s 102CA040#0000000C80000F00 note=102CA040 body/DIC status rpm-word offset 3: 800 rpm raw 0x0C80; full_index=117/232
(1780180656.596000) can0 102CA040#0000000C80000F00
(1780180656.603000) can0 10244060#02
# tx t=022.320s 102C0040#803C96B503 note=rpm word sweep baseline ignition/power-mode key-on context
# tx t=022.320s 102CA040#0000000C80000F00 note=102CA040 body/DIC status rpm-word offset 3: 800 rpm raw 0x0C80; full_index=117/232
# tx t=022.320s 10210040#0D00000000000000 note=RPM sweep progress indicator 50.2% full_index=117/232 target 50 kmh via confirmed 10210040 byte0=0x0D
(1780180656.628000) can0 102C0040#803C96B503
(1780180656.629000) can0 102CA040#0000000C80000F00
(1780180656.629000) can0 10210040#0D00000000000000
# tx t=022.352s 102CA040#0000000C80000F00 note=102CA040 body/DIC status rpm-word offset 3: 800 rpm raw 0x0C80; full_index=117/232
(1780180656.660000) can0 102CA040#0000000C80000F00
# tx t=022.384s 102CC040#0000400000000000 note=rpm word sweep baseline confirmed speed-valid prerequisite
# tx t=022.384s 102CA040#0000000C80000F00 note=102CA040 body/DIC status rpm-word offset 3: 800 rpm raw 0x0C80; full_index=117/232
(1780180656.692000) can0 102CC040#0000400000000000
(1780180656.692000) can0 102CA040#0000000C80000F00
# tx t=022.416s 102CA040#0000000C80000F00 note=102CA040 body/DIC status rpm-word offset 3: 800 rpm raw 0x0C80; full_index=117/232
(1780180656.724000) can0 102CA040#0000000C80000F00
# tx t=022.448s 102C0040#803C96B503 note=rpm word sweep baseline ignition/power-mode key-on context
# tx t=022.448s 102CA040#0000000C80000F00 note=102CA040 body/DIC status rpm-word offset 3: 800 rpm raw 0x0C80; full_index=117/232
# tx t=022.448s 10210040#0D00000000000000 note=RPM sweep progress indicator 50.2% full_index=117/232 target 50 kmh via confirmed 10210040 byte0=0x0D
(1780180656.756000) can0 102C0040#803C96B503
(1780180656.757000) can0 102CA040#0000000C80000F00
(1780180656.757000) can0 10210040#0D00000000000000
# tx t=022.480s 102CA040#0000000C80000F00 note=102CA040 body/DIC status rpm-word offset 3: 800 rpm raw 0x0C80; full_index=117/232
(1780180656.788000) can0 102CA040#0000000C80000F00
# tx t=022.512s 102CA040#0000000C80000F00 note=102CA040 body/DIC status rpm-word offset 3: 800 rpm raw 0x0C80; full_index=117/232
(1780180656.820000) can0 102CA040#0000000C80000F00
# tx t=022.544s 102C0040#803C96B503 note=rpm word sweep baseline ignition/power-mode key-on context
# tx t=022.544s 102CA040#0000000C80000F00 note=102CA040 body/DIC status rpm-word offset 3: 800 rpm raw 0x0C80; full_index=117/232
# tx t=022.544s 10210040#0D00000000000000 note=RPM sweep progress indicator 50.2% full_index=117/232 target 50 kmh via confirmed 10210040 byte0=0x0D
(1780180656.852000) can0 102C0040#803C96B503
(1780180656.853000) can0 102CA040#0000000C80000F00
(1780180656.853000) can0 10210040#0D00000000000000
# tx t=022.576s 102CA040#0000000C80000F00 note=102CA040 body/DIC status rpm-word offset 3: 800 rpm raw 0x0C80; full_index=117/232
(1780180656.884000) can0 102CA040#0000000C80000F00
# tx t=022.608s 102CA040#0000000C80000F00 note=102CA040 body/DIC status rpm-word offset 3: 800 rpm raw 0x0C80; full_index=117/232
(1780180656.916000) can0 102CA040#0000000C80000F00
# tx t=022.640s 621#0052000000000000 note=rpm word sweep baseline key-on 621 keepalive
# tx t=022.640s 102C0040#803C96B503 note=rpm word sweep baseline ignition/power-mode key-on context
# tx t=022.640s 102CC040#0000400000000000 note=rpm word sweep baseline confirmed speed-valid prerequisite
# tx t=022.640s 102CA040#0000000C80000F00 note=102CA040 body/DIC status rpm-word offset 3: 800 rpm raw 0x0C80; full_index=117/232
# tx t=022.641s 10210040#0D00000000000000 note=RPM sweep progress indicator 50.2% full_index=117/232 target 50 kmh via confirmed 10210040 byte0=0x0D
(1780180656.949000) can0 621#0052000000000000
(1780180656.949000) can0 102C0040#803C96B503
(1780180656.949000) can0 102CC040#0000400000000000
(1780180656.952000) can0 102CA040#0000000C80000F00
(1780180656.955000) can0 10210040#0D00000000000000
# tx t=022.672s 102CA040#0000000C80000F00 note=102CA040 body/DIC status rpm-word offset 3: 800 rpm raw 0x0C80; full_index=117/232
(1780180656.980000) can0 102CA040#0000000C80000F00
# tx t=022.704s 102CA040#0000000C80000F00 note=102CA040 body/DIC status rpm-word offset 3: 800 rpm raw 0x0C80; full_index=117/232
(1780180657.012000) can0 102CA040#0000000C80000F00
# tx t=022.736s 102C0040#803C96B503 note=rpm word sweep baseline ignition/power-mode key-on context
# tx t=022.736s 102CA040#0000000C80000F00 note=102CA040 body/DIC status rpm-word offset 3: 800 rpm raw 0x0C80; full_index=117/232
# tx t=022.736s 10210040#0D00000000000000 note=RPM sweep progress indicator 50.2% full_index=117/232 target 50 kmh via confirmed 10210040 byte0=0x0D
(1780180657.045000) can0 102C0040#803C96B503
(1780180657.045000) can0 102CA040#0000000C80000F00
(1780180657.045000) can0 10210040#0D00000000000000
# tx t=022.768s 102CA040#0000000C80000F00 note=102CA040 body/DIC status rpm-word offset 3: 800 rpm raw 0x0C80; full_index=117/232
(1780180657.077000) can0 102CA040#0000000C80000F00
# tx t=022.800s 102CA040#0000000C80000F00 note=102CA040 body/DIC status rpm-word offset 3: 800 rpm raw 0x0C80; full_index=117/232
(1780180657.109000) can0 102CA040#0000000C80000F00
# tx t=022.832s 13FFE040# note=rpm word sweep baseline BCM/source 0x40 presence
# tx t=022.832s 102C0040#803C96B503 note=rpm word sweep baseline ignition/power-mode key-on context
# tx t=022.832s 102CA040#0000000C80000F00 note=102CA040 body/DIC status rpm-word offset 3: 800 rpm raw 0x0C80; full_index=117/232
# tx t=022.833s 10210040#0D00000000000000 note=RPM sweep progress indicator 50.2% full_index=117/232 target 50 kmh via confirmed 10210040 byte0=0x0D
(1780180657.141000) can0 13FFE040#
(1780180657.141000) can0 102C0040#803C96B503
(1780180657.141000) can0 102CA040#0000000C80000F00
(1780180657.143000) can0 10210040#0D00000000000000
# tx t=022.864s 102CA040#0000000C80000F00 note=102CA040 body/DIC status rpm-word offset 3: 800 rpm raw 0x0C80; full_index=117/232
(1780180657.173000) can0 102CA040#0000000C80000F00
# tx t=022.896s 102CC040#0000400000000000 note=rpm word sweep baseline confirmed speed-valid prerequisite
# tx t=022.896s 102CA040#0000000C80000F00 note=102CA040 body/DIC status rpm-word offset 3: 800 rpm raw 0x0C80; full_index=117/232
(1780180657.205000) can0 102CC040#0000400000000000
(1780180657.205000) can0 102CA040#0000000C80000F00
(1780180657.215000) can0 13FFE060#
# tx t=022.928s 102C0040#803C96B503 note=rpm word sweep baseline ignition/power-mode key-on context
# tx t=022.928s 102CA040#0000000C80000F00 note=102CA040 body/DIC status rpm-word offset 3: 800 rpm raw 0x0C80; full_index=117/232
# tx t=022.928s 10210040#0D00000000000000 note=RPM sweep progress indicator 50.2% full_index=117/232 target 50 kmh via confirmed 10210040 byte0=0x0D
(1780180657.237000) can0 102C0040#803C96B503
(1780180657.237000) can0 102CA040#0000000C80000F00
(1780180657.237000) can0 10210040#0D00000000000000
# tx t=022.960s 102CA040#0000000C80000F00 note=102CA040 body/DIC status rpm-word offset 3: 800 rpm raw 0x0C80; full_index=117/232
(1780180657.269000) can0 102CA040#0000000C80000F00
# tx t=022.992s 102CA040#0000000C80000F00 note=102CA040 body/DIC status rpm-word offset 3: 800 rpm raw 0x0C80; full_index=117/232
(1780180657.301000) can0 102CA040#0000000C80000F00
# tx t=023.024s 102C0040#803C96B503 note=rpm word sweep baseline ignition/power-mode key-on context
# tx t=023.024s 102CA040#0000000C80000F00 note=102CA040 body/DIC status rpm-word offset 3: 800 rpm raw 0x0C80; full_index=117/232
# tx t=023.025s 10210040#0D00000000000000 note=RPM sweep progress indicator 50.2% full_index=117/232 target 50 kmh via confirmed 10210040 byte0=0x0D
(1780180657.333000) can0 102C0040#803C96B503
(1780180657.333000) can0 102CA040#0000000C80000F00
(1780180657.333000) can0 10210040#0D00000000000000
# tx t=023.056s 102CA040#0000000C80000F00 note=102CA040 body/DIC status rpm-word offset 3: 800 rpm raw 0x0C80; full_index=117/232
(1780180657.365000) can0 102CA040#0000000C80000F00
# tx t=023.088s 102CA040#0000000C80000F00 note=102CA040 body/DIC status rpm-word offset 3: 800 rpm raw 0x0C80; full_index=117/232
(1780180657.397000) can0 102CA040#0000000C80000F00
# tx t=023.120s 102C0040#803C96B503 note=rpm word sweep baseline ignition/power-mode key-on context
# tx t=023.121s 10242040#02 note=rpm word sweep baseline key second-turn sub-state
# tx t=023.121s 102CC040#0000400000000000 note=rpm word sweep baseline confirmed speed-valid prerequisite
# rpm-window-end t=023.121s full_index=117/232 upper_index=1/116 active=102CA040#0000000C80000F00 reason=completed
# rpm-window-start t=023.121s full_index=118/232 upper_index=2/116 active=102CA040#00000012C0000F00 note=102CA040 body/DIC status rpm-word offset 3: 1200 rpm raw 0x12C0; full_index=118/232
# tx t=023.122s 102CA040#00000012C0000F00 note=102CA040 body/DIC status rpm-word offset 3: 1200 rpm raw 0x12C0; full_index=118/232
# tx t=023.122s 10210040#0D00000000000000 note=RPM sweep progress indicator 50.6% full_index=118/232 target 51 kmh via confirmed 10210040 byte0=0x0D
(1780180657.430000) can0 102C0040#803C96B503
(1780180657.430000) can0 10242040#02
(1780180657.430000) can0 102CC040#0000400000000000
(1780180657.432000) can0 102CA040#00000012C0000F00
(1780180657.435000) can0 10210040#0D00000000000000
# tx t=023.152s 102CA040#00000012C0000F00 note=102CA040 body/DIC status rpm-word offset 3: 1200 rpm raw 0x12C0; full_index=118/232
(1780180657.461000) can0 102CA040#00000012C0000F00
# tx t=023.184s 102CA040#00000012C0000F00 note=102CA040 body/DIC status rpm-word offset 3: 1200 rpm raw 0x12C0; full_index=118/232
(1780180657.493000) can0 102CA040#00000012C0000F00
# tx t=023.216s 102CA040#00000012C0000F00 note=102CA040 body/DIC status rpm-word offset 3: 1200 rpm raw 0x12C0; full_index=118/232
(1780180657.525000) can0 102CA040#00000012C0000F00
# tx t=023.248s 102C0040#803C96B503 note=rpm word sweep baseline ignition/power-mode key-on context
# tx t=023.248s 10754040#040400 note=rpm word sweep baseline key-present/key-on context
# tx t=023.248s 102CA040#00000012C0000F00 note=102CA040 body/DIC status rpm-word offset 3: 1200 rpm raw 0x12C0; full_index=118/232
# tx t=023.248s 10210040#0D00000000000000 note=RPM sweep progress indicator 50.6% full_index=118/232 target 51 kmh via confirmed 10210040 byte0=0x0D
(1780180657.557000) can0 102C0040#803C96B503
(1780180657.557000) can0 10754040#040400
(1780180657.557000) can0 102CA040#00000012C0000F00
(1780180657.560000) can0 10210040#0D00000000000000
# tx t=023.280s 102CA040#00000012C0000F00 note=102CA040 body/DIC status rpm-word offset 3: 1200 rpm raw 0x12C0; full_index=118/232
(1780180657.588000) can0 102CA040#00000012C0000F00
# tx t=023.312s 102CA040#00000012C0000F00 note=102CA040 body/DIC status rpm-word offset 3: 1200 rpm raw 0x12C0; full_index=118/232
(1780180657.620000) can0 102CA040#00000012C0000F00
# tx t=023.343s 102C0040#803C96B503 note=rpm word sweep baseline ignition/power-mode key-on context
# tx t=023.344s 102CA040#00000012C0000F00 note=102CA040 body/DIC status rpm-word offset 3: 1200 rpm raw 0x12C0; full_index=118/232
# tx t=023.344s 10210040#0D00000000000000 note=RPM sweep progress indicator 50.6% full_index=118/232 target 51 kmh via confirmed 10210040 byte0=0x0D
(1780180657.652000) can0 102C0040#803C96B503
(1780180657.652000) can0 102CA040#00000012C0000F00
(1780180657.652000) can0 10210040#0D00000000000000
# tx t=023.375s 102CC040#0000400000000000 note=rpm word sweep baseline confirmed speed-valid prerequisite
# tx t=023.376s 102CA040#00000012C0000F00 note=102CA040 body/DIC status rpm-word offset 3: 1200 rpm raw 0x12C0; full_index=118/232
(1780180657.684000) can0 102CC040#0000400000000000
(1780180657.684000) can0 102CA040#00000012C0000F00
# tx t=023.407s 102CA040#00000012C0000F00 note=102CA040 body/DIC status rpm-word offset 3: 1200 rpm raw 0x12C0; full_index=118/232
(1780180657.716000) can0 102CA040#00000012C0000F00
# tx t=023.439s 102C0040#803C96B503 note=rpm word sweep baseline ignition/power-mode key-on context
# tx t=023.439s 102CA040#00000012C0000F00 note=102CA040 body/DIC status rpm-word offset 3: 1200 rpm raw 0x12C0; full_index=118/232
# tx t=023.439s 10210040#0D00000000000000 note=RPM sweep progress indicator 50.6% full_index=118/232 target 51 kmh via confirmed 10210040 byte0=0x0D
(1780180657.748000) can0 102C0040#803C96B503
(1780180657.748000) can0 102CA040#00000012C0000F00
(1780180657.748000) can0 10210040#0D00000000000000
# tx t=023.471s 102CA040#00000012C0000F00 note=102CA040 body/DIC status rpm-word offset 3: 1200 rpm raw 0x12C0; full_index=118/232
(1780180657.779000) can0 102CA040#00000012C0000F00
# tx t=023.503s 102CA040#00000012C0000F00 note=102CA040 body/DIC status rpm-word offset 3: 1200 rpm raw 0x12C0; full_index=118/232
(1780180657.811000) can0 102CA040#00000012C0000F00
# tx t=023.535s 102C0040#803C96B503 note=rpm word sweep baseline ignition/power-mode key-on context
# tx t=023.535s 102CA040#00000012C0000F00 note=102CA040 body/DIC status rpm-word offset 3: 1200 rpm raw 0x12C0; full_index=118/232
# tx t=023.535s 10210040#0D00000000000000 note=RPM sweep progress indicator 50.6% full_index=118/232 target 51 kmh via confirmed 10210040 byte0=0x0D
(1780180657.844000) can0 102C0040#803C96B503
(1780180657.844000) can0 102CA040#00000012C0000F00
(1780180657.844000) can0 10210040#0D00000000000000
# tx t=023.567s 102CA040#00000012C0000F00 note=102CA040 body/DIC status rpm-word offset 3: 1200 rpm raw 0x12C0; full_index=118/232
(1780180657.875000) can0 102CA040#00000012C0000F00
# tx t=023.598s 102CA040#00000012C0000F00 note=102CA040 body/DIC status rpm-word offset 3: 1200 rpm raw 0x12C0; full_index=118/232
(1780180657.906000) can0 102CA040#00000012C0000F00
# tx t=023.630s 621#0052000000000000 note=rpm word sweep baseline key-on 621 keepalive
# tx t=023.630s 102C0040#803C96B503 note=rpm word sweep baseline ignition/power-mode key-on context
# tx t=023.630s 102CC040#0000400000000000 note=rpm word sweep baseline confirmed speed-valid prerequisite
# tx t=023.630s 102CA040#00000012C0000F00 note=102CA040 body/DIC status rpm-word offset 3: 1200 rpm raw 0x12C0; full_index=118/232
# tx t=023.631s 10210040#0D00000000000000 note=RPM sweep progress indicator 50.6% full_index=118/232 target 51 kmh via confirmed 10210040 byte0=0x0D
(1780180657.939000) can0 621#0052000000000000
(1780180657.939000) can0 102C0040#803C96B503
(1780180657.939000) can0 102CC040#0000400000000000
(1780180657.942000) can0 102CA040#00000012C0000F00
(1780180657.945000) can0 10210040#0D00000000000000
# tx t=023.662s 102CA040#00000012C0000F00 note=102CA040 body/DIC status rpm-word offset 3: 1200 rpm raw 0x12C0; full_index=118/232
(1780180657.970000) can0 102CA040#00000012C0000F00
# tx t=023.693s 102CA040#00000012C0000F00 note=102CA040 body/DIC status rpm-word offset 3: 1200 rpm raw 0x12C0; full_index=118/232
(1780180658.001000) can0 102CA040#00000012C0000F00
# tx t=023.725s 102C0040#803C96B503 note=rpm word sweep baseline ignition/power-mode key-on context
# tx t=023.725s 102CA040#00000012C0000F00 note=102CA040 body/DIC status rpm-word offset 3: 1200 rpm raw 0x12C0; full_index=118/232
# tx t=023.725s 10210040#0D00000000000000 note=RPM sweep progress indicator 50.6% full_index=118/232 target 51 kmh via confirmed 10210040 byte0=0x0D
(1780180658.034000) can0 102C0040#803C96B503
(1780180658.034000) can0 102CA040#00000012C0000F00
(1780180658.034000) can0 10210040#0D00000000000000
# tx t=023.757s 102CA040#00000012C0000F00 note=102CA040 body/DIC status rpm-word offset 3: 1200 rpm raw 0x12C0; full_index=118/232
(1780180658.065000) can0 102CA040#00000012C0000F00
# tx t=023.789s 102CA040#00000012C0000F00 note=102CA040 body/DIC status rpm-word offset 3: 1200 rpm raw 0x12C0; full_index=118/232
(1780180658.097000) can0 102CA040#00000012C0000F00
# tx t=023.821s 102C0040#803C96B503 note=rpm word sweep baseline ignition/power-mode key-on context
# tx t=023.821s 102CA040#00000012C0000F00 note=102CA040 body/DIC status rpm-word offset 3: 1200 rpm raw 0x12C0; full_index=118/232
# tx t=023.821s 10210040#0D00000000000000 note=RPM sweep progress indicator 50.6% full_index=118/232 target 51 kmh via confirmed 10210040 byte0=0x0D
(1780180658.130000) can0 102C0040#803C96B503
(1780180658.130000) can0 102CA040#00000012C0000F00
(1780180658.130000) can0 10210040#0D00000000000000
# tx t=023.853s 102CA040#00000012C0000F00 note=102CA040 body/DIC status rpm-word offset 3: 1200 rpm raw 0x12C0; full_index=118/232
(1780180658.162000) can0 102CA040#00000012C0000F00
# tx t=023.885s 102CC040#0000400000000000 note=rpm word sweep baseline confirmed speed-valid prerequisite
# tx t=023.885s 102CA040#00000012C0000F00 note=102CA040 body/DIC status rpm-word offset 3: 1200 rpm raw 0x12C0; full_index=118/232
(1780180658.194000) can0 102CC040#0000400000000000
(1780180658.194000) can0 102CA040#00000012C0000F00
# tx t=023.917s 102CA040#00000012C0000F00 note=102CA040 body/DIC status rpm-word offset 3: 1200 rpm raw 0x12C0; full_index=118/232
(1780180658.226000) can0 102CA040#00000012C0000F00
# tx t=023.949s 102C0040#803C96B503 note=rpm word sweep baseline ignition/power-mode key-on context
# tx t=023.949s 102CA040#00000012C0000F00 note=102CA040 body/DIC status rpm-word offset 3: 1200 rpm raw 0x12C0; full_index=118/232
# tx t=023.950s 10210040#0D00000000000000 note=RPM sweep progress indicator 50.6% full_index=118/232 target 51 kmh via confirmed 10210040 byte0=0x0D
(1780180658.258000) can0 102C0040#803C96B503
(1780180658.258000) can0 102CA040#00000012C0000F00
(1780180658.258000) can0 10210040#0D00000000000000
# tx t=023.981s 102CA040#00000012C0000F00 note=102CA040 body/DIC status rpm-word offset 3: 1200 rpm raw 0x12C0; full_index=118/232
(1780180658.290000) can0 102CA040#00000012C0000F00
# tx t=024.013s 102CA040#00000012C0000F00 note=102CA040 body/DIC status rpm-word offset 3: 1200 rpm raw 0x12C0; full_index=118/232
(1780180658.322000) can0 102CA040#00000012C0000F00
# tx t=024.045s 13FFE040# note=rpm word sweep baseline BCM/source 0x40 presence
# tx t=024.046s 102C0040#803C96B503 note=rpm word sweep baseline ignition/power-mode key-on context
# tx t=024.046s 102CA040#00000012C0000F00 note=102CA040 body/DIC status rpm-word offset 3: 1200 rpm raw 0x12C0; full_index=118/232
# tx t=024.046s 10210040#0D00000000000000 note=RPM sweep progress indicator 50.6% full_index=118/232 target 51 kmh via confirmed 10210040 byte0=0x0D
(1780180658.354000) can0 13FFE040#
(1780180658.354000) can0 102C0040#803C96B503
(1780180658.355000) can0 102CA040#00000012C0000F00
(1780180658.356000) can0 10210040#0D00000000000000
# tx t=024.077s 102CA040#00000012C0000F00 note=102CA040 body/DIC status rpm-word offset 3: 1200 rpm raw 0x12C0; full_index=118/232
(1780180658.386000) can0 102CA040#00000012C0000F00
# tx t=024.109s 102CA040#00000012C0000F00 note=102CA040 body/DIC status rpm-word offset 3: 1200 rpm raw 0x12C0; full_index=118/232
(1780180658.418000) can0 13FFE060#
(1780180658.418000) can0 102CA040#00000012C0000F00
# tx t=024.141s 102C0040#803C96B503 note=rpm word sweep baseline ignition/power-mode key-on context
# tx t=024.142s 10242040#02 note=rpm word sweep baseline key second-turn sub-state
# tx t=024.142s 102CC040#0000400000000000 note=rpm word sweep baseline confirmed speed-valid prerequisite
# tx t=024.142s 102CA040#00000012C0000F00 note=102CA040 body/DIC status rpm-word offset 3: 1200 rpm raw 0x12C0; full_index=118/232
# tx t=024.142s 10210040#0D00000000000000 note=RPM sweep progress indicator 50.6% full_index=118/232 target 51 kmh via confirmed 10210040 byte0=0x0D
(1780180658.450000) can0 102C0040#803C96B503
(1780180658.451000) can0 10242040#02
(1780180658.451000) can0 102CC040#0000400000000000
(1780180658.453000) can0 102CA040#00000012C0000F00
(1780180658.456000) can0 10210040#0D00000000000000
# tx t=024.173s 102CA040#00000012C0000F00 note=102CA040 body/DIC status rpm-word offset 3: 1200 rpm raw 0x12C0; full_index=118/232
(1780180658.482000) can0 102CA040#00000012C0000F00
# tx t=024.205s 102CA040#00000012C0000F00 note=102CA040 body/DIC status rpm-word offset 3: 1200 rpm raw 0x12C0; full_index=118/232
(1780180658.514000) can0 102CA040#00000012C0000F00
# tx t=024.238s 102C0040#803C96B503 note=rpm word sweep baseline ignition/power-mode key-on context
# tx t=024.238s 10754040#040400 note=rpm word sweep baseline key-present/key-on context
# tx t=024.238s 102CA040#00000012C0000F00 note=102CA040 body/DIC status rpm-word offset 3: 1200 rpm raw 0x12C0; full_index=118/232
# tx t=024.238s 10210040#0D00000000000000 note=RPM sweep progress indicator 50.6% full_index=118/232 target 51 kmh via confirmed 10210040 byte0=0x0D
(1780180658.546000) can0 102C0040#803C96B503
(1780180658.546000) can0 10754040#040400
(1780180658.547000) can0 102CA040#00000012C0000F00
(1780180658.549000) can0 10210040#0D00000000000000
# tx t=024.269s 102CA040#00000012C0000F00 note=102CA040 body/DIC status rpm-word offset 3: 1200 rpm raw 0x12C0; full_index=118/232
(1780180658.578000) can0 102CA040#00000012C0000F00
# tx t=024.301s 102CA040#00000012C0000F00 note=102CA040 body/DIC status rpm-word offset 3: 1200 rpm raw 0x12C0; full_index=118/232
(1780180658.610000) can0 102CA040#00000012C0000F00
# tx t=024.334s 102C0040#803C96B503 note=rpm word sweep baseline ignition/power-mode key-on context
# tx t=024.334s 102CA040#00000012C0000F00 note=102CA040 body/DIC status rpm-word offset 3: 1200 rpm raw 0x12C0; full_index=118/232
# tx t=024.334s 10210040#0D00000000000000 note=RPM sweep progress indicator 50.6% full_index=118/232 target 51 kmh via confirmed 10210040 byte0=0x0D
(1780180658.643000) can0 102C0040#803C96B503
(1780180658.643000) can0 102CA040#00000012C0000F00
(1780180658.643000) can0 10210040#0D00000000000000
# tx t=024.366s 102CA040#00000012C0000F00 note=102CA040 body/DIC status rpm-word offset 3: 1200 rpm raw 0x12C0; full_index=118/232
(1780180658.674000) can0 102CA040#00000012C0000F00
# tx t=024.398s 102CC040#0000400000000000 note=rpm word sweep baseline confirmed speed-valid prerequisite
# tx t=024.398s 102CA040#00000012C0000F00 note=102CA040 body/DIC status rpm-word offset 3: 1200 rpm raw 0x12C0; full_index=118/232
(1780180658.706000) can0 102CC040#0000400000000000
(1780180658.707000) can0 102CA040#00000012C0000F00
# tx t=024.430s 102C0040#803C96B503 note=rpm word sweep baseline ignition/power-mode key-on context
# tx t=024.430s 102CA040#00000012C0000F00 note=102CA040 body/DIC status rpm-word offset 3: 1200 rpm raw 0x12C0; full_index=118/232
# tx t=024.430s 10210040#0D00000000000000 note=RPM sweep progress indicator 50.6% full_index=118/232 target 51 kmh via confirmed 10210040 byte0=0x0D
(1780180658.739000) can0 102C0040#803C96B503
(1780180658.739000) can0 102CA040#00000012C0000F00
(1780180658.739000) can0 10210040#0D00000000000000
# tx t=024.462s 102CA040#00000012C0000F00 note=102CA040 body/DIC status rpm-word offset 3: 1200 rpm raw 0x12C0; full_index=118/232
(1780180658.770000) can0 102CA040#00000012C0000F00
# tx t=024.494s 102CA040#00000012C0000F00 note=102CA040 body/DIC status rpm-word offset 3: 1200 rpm raw 0x12C0; full_index=118/232
(1780180658.802000) can0 102CA040#00000012C0000F00
# tx t=024.526s 102C0040#803C96B503 note=rpm word sweep baseline ignition/power-mode key-on context
# tx t=024.526s 102CA040#00000012C0000F00 note=102CA040 body/DIC status rpm-word offset 3: 1200 rpm raw 0x12C0; full_index=118/232
# tx t=024.526s 10210040#0D00000000000000 note=RPM sweep progress indicator 50.6% full_index=118/232 target 51 kmh via confirmed 10210040 byte0=0x0D
(1780180658.835000) can0 102C0040#803C96B503
(1780180658.835000) can0 102CA040#00000012C0000F00
(1780180658.835000) can0 10210040#0D00000000000000
# tx t=024.558s 102CA040#00000012C0000F00 note=102CA040 body/DIC status rpm-word offset 3: 1200 rpm raw 0x12C0; full_index=118/232
(1780180658.866000) can0 102CA040#00000012C0000F00
# tx t=024.590s 102CA040#00000012C0000F00 note=102CA040 body/DIC status rpm-word offset 3: 1200 rpm raw 0x12C0; full_index=118/232
(1780180658.898000) can0 102CA040#00000012C0000F00
# tx t=024.622s 621#0052000000000000 note=rpm word sweep baseline key-on 621 keepalive
# tx t=024.622s 102C0040#803C96B503 note=rpm word sweep baseline ignition/power-mode key-on context
# tx t=024.622s 102CC040#0000400000000000 note=rpm word sweep baseline confirmed speed-valid prerequisite
# rpm-window-end t=024.622s full_index=118/232 upper_index=2/116 active=102CA040#00000012C0000F00 reason=completed
# rpm-window-start t=024.622s full_index=119/232 upper_index=3/116 active=102CA040#0000001F40000F00 note=102CA040 body/DIC status rpm-word offset 3: 2000 rpm raw 0x1F40; full_index=119/232
# tx t=024.622s 102CA040#0000001F40000F00 note=102CA040 body/DIC status rpm-word offset 3: 2000 rpm raw 0x1F40; full_index=119/232
# tx t=024.623s 10210040#0D00000000000000 note=RPM sweep progress indicator 51.1% full_index=119/232 target 51 kmh via confirmed 10210040 byte0=0x0D
(1780180658.931000) can0 621#0052000000000000
(1780180658.931000) can0 102C0040#803C96B503
(1780180658.931000) can0 102CC040#0000400000000000
(1780180658.934000) can0 102CA040#0000001F40000F00
(1780180658.937000) can0 10210040#0D00000000000000
# tx t=024.654s 102CA040#0000001F40000F00 note=102CA040 body/DIC status rpm-word offset 3: 2000 rpm raw 0x1F40; full_index=119/232
(1780180658.962000) can0 102CA040#0000001F40000F00
# tx t=024.686s 102CA040#0000001F40000F00 note=102CA040 body/DIC status rpm-word offset 3: 2000 rpm raw 0x1F40; full_index=119/232
(1780180658.994000) can0 102CA040#0000001F40000F00
(1780180659.009000) can0 62C#0040000000000000
# tx t=024.718s 102CA040#0000001F40000F00 note=102CA040 body/DIC status rpm-word offset 3: 2000 rpm raw 0x1F40; full_index=119/232
(1780180659.027000) can0 102CA040#0000001F40000F00
(1780180659.039000) can0 10600060#0160C020007B00
# tx t=024.749s 102C0040#803C96B503 note=rpm word sweep baseline ignition/power-mode key-on context
# tx t=024.750s 102CA040#0000001F40000F00 note=102CA040 body/DIC status rpm-word offset 3: 2000 rpm raw 0x1F40; full_index=119/232
# tx t=024.750s 10210040#0D00000000000000 note=RPM sweep progress indicator 51.1% full_index=119/232 target 51 kmh via confirmed 10210040 byte0=0x0D
(1780180659.058000) can0 102C0040#803C96B503
(1780180659.058000) can0 102CA040#0000001F40000F00
(1780180659.058000) can0 10210040#0D00000000000000
# tx t=024.781s 102CA040#0000001F40000F00 note=102CA040 body/DIC status rpm-word offset 3: 2000 rpm raw 0x1F40; full_index=119/232
(1780180659.090000) can0 102CA040#0000001F40000F00
# tx t=024.813s 102CA040#0000001F40000F00 note=102CA040 body/DIC status rpm-word offset 3: 2000 rpm raw 0x1F40; full_index=119/232
(1780180659.122000) can0 102CA040#0000001F40000F00
# tx t=024.845s 102C0040#803C96B503 note=rpm word sweep baseline ignition/power-mode key-on context
# tx t=024.845s 102CA040#0000001F40000F00 note=102CA040 body/DIC status rpm-word offset 3: 2000 rpm raw 0x1F40; full_index=119/232
# tx t=024.845s 10210040#0D00000000000000 note=RPM sweep progress indicator 51.1% full_index=119/232 target 51 kmh via confirmed 10210040 byte0=0x0D
(1780180659.154000) can0 102C0040#803C96B503
(1780180659.154000) can0 102CA040#0000001F40000F00
(1780180659.154000) can0 10210040#0D00000000000000
# tx t=024.877s 102CC040#0000400000000000 note=rpm word sweep baseline confirmed speed-valid prerequisite
# tx t=024.877s 102CA040#0000001F40000F00 note=102CA040 body/DIC status rpm-word offset 3: 2000 rpm raw 0x1F40; full_index=119/232
(1780180659.186000) can0 102CC040#0000400000000000
(1780180659.186000) can0 102CA040#0000001F40000F00
# tx t=024.909s 102CA040#0000001F40000F00 note=102CA040 body/DIC status rpm-word offset 3: 2000 rpm raw 0x1F40; full_index=119/232
(1780180659.217000) can0 102CA040#0000001F40000F00
# tx t=024.940s 102C0040#803C96B503 note=rpm word sweep baseline ignition/power-mode key-on context
# tx t=024.940s 102CA040#0000001F40000F00 note=102CA040 body/DIC status rpm-word offset 3: 2000 rpm raw 0x1F40; full_index=119/232
# tx t=024.941s 10210040#0D00000000000000 note=RPM sweep progress indicator 51.1% full_index=119/232 target 51 kmh via confirmed 10210040 byte0=0x0D
(1780180659.249000) can0 102C0040#803C96B503
(1780180659.249000) can0 102CA040#0000001F40000F00
(1780180659.249000) can0 10210040#0D00000000000000
# tx t=024.972s 102CA040#0000001F40000F00 note=102CA040 body/DIC status rpm-word offset 3: 2000 rpm raw 0x1F40; full_index=119/232
(1780180659.281000) can0 102CA040#0000001F40000F00
# tx t=025.004s 102CA040#0000001F40000F00 note=102CA040 body/DIC status rpm-word offset 3: 2000 rpm raw 0x1F40; full_index=119/232
(1780180659.313000) can0 102CA040#0000001F40000F00
# tx t=025.036s 102C0040#803C96B503 note=rpm word sweep baseline ignition/power-mode key-on context
# tx t=025.036s 102CA040#0000001F40000F00 note=102CA040 body/DIC status rpm-word offset 3: 2000 rpm raw 0x1F40; full_index=119/232
# tx t=025.037s 10210040#0D00000000000000 note=RPM sweep progress indicator 51.1% full_index=119/232 target 51 kmh via confirmed 10210040 byte0=0x0D
(1780180659.345000) can0 102C0040#803C96B503
(1780180659.345000) can0 102CA040#0000001F40000F00
(1780180659.345000) can0 10210040#0D00000000000000
# tx t=025.067s 102CA040#0000001F40000F00 note=102CA040 body/DIC status rpm-word offset 3: 2000 rpm raw 0x1F40; full_index=119/232
(1780180659.376000) can0 102CA040#0000001F40000F00
# tx t=025.099s 102CA040#0000001F40000F00 note=102CA040 body/DIC status rpm-word offset 3: 2000 rpm raw 0x1F40; full_index=119/232
(1780180659.408000) can0 102CA040#0000001F40000F00
# tx t=025.131s 102C0040#803C96B503 note=rpm word sweep baseline ignition/power-mode key-on context
# tx t=025.132s 10242040#02 note=rpm word sweep baseline key second-turn sub-state
# tx t=025.132s 102CC040#0000400000000000 note=rpm word sweep baseline confirmed speed-valid prerequisite
# tx t=025.132s 102CA040#0000001F40000F00 note=102CA040 body/DIC status rpm-word offset 3: 2000 rpm raw 0x1F40; full_index=119/232
# tx t=025.132s 10210040#0D00000000000000 note=RPM sweep progress indicator 51.1% full_index=119/232 target 51 kmh via confirmed 10210040 byte0=0x0D
(1780180659.441000) can0 102C0040#803C96B503
(1780180659.441000) can0 10242040#02
(1780180659.441000) can0 102CC040#0000400000000000
(1780180659.443000) can0 102CA040#0000001F40000F00
(1780180659.446000) can0 10210040#0D00000000000000
# tx t=025.163s 102CA040#0000001F40000F00 note=102CA040 body/DIC status rpm-word offset 3: 2000 rpm raw 0x1F40; full_index=119/232
(1780180659.472000) can0 102CA040#0000001F40000F00
# tx t=025.195s 102CA040#0000001F40000F00 note=102CA040 body/DIC status rpm-word offset 3: 2000 rpm raw 0x1F40; full_index=119/232
(1780180659.504000) can0 102CA040#0000001F40000F00
# tx t=025.227s 13FFE040# note=rpm word sweep baseline BCM/source 0x40 presence
# tx t=025.228s 102C0040#803C96B503 note=rpm word sweep baseline ignition/power-mode key-on context
# tx t=025.228s 10754040#040400 note=rpm word sweep baseline key-present/key-on context
# tx t=025.228s 102CA040#0000001F40000F00 note=102CA040 body/DIC status rpm-word offset 3: 2000 rpm raw 0x1F40; full_index=119/232
# tx t=025.228s 10210040#0D00000000000000 note=RPM sweep progress indicator 51.1% full_index=119/232 target 51 kmh via confirmed 10210040 byte0=0x0D
(1780180659.537000) can0 13FFE040#
(1780180659.537000) can0 102C0040#803C96B503
(1780180659.537000) can0 10754040#040400
(1780180659.538000) can0 102CA040#0000001F40000F00
(1780180659.541000) can0 10210040#0D00000000000000
# tx t=025.260s 102CA040#0000001F40000F00 note=102CA040 body/DIC status rpm-word offset 3: 2000 rpm raw 0x1F40; full_index=119/232
(1780180659.568000) can0 102CA040#0000001F40000F00
# tx t=025.292s 102CA040#0000001F40000F00 note=102CA040 body/DIC status rpm-word offset 3: 2000 rpm raw 0x1F40; full_index=119/232
(1780180659.600000) can0 102CA040#0000001F40000F00
(1780180659.607000) can0 13FFE060#
# tx t=025.324s 102C0040#803C96B503 note=rpm word sweep baseline ignition/power-mode key-on context
# tx t=025.324s 102CA040#0000001F40000F00 note=102CA040 body/DIC status rpm-word offset 3: 2000 rpm raw 0x1F40; full_index=119/232
# tx t=025.324s 10210040#0D00000000000000 note=RPM sweep progress indicator 51.1% full_index=119/232 target 51 kmh via confirmed 10210040 byte0=0x0D
(1780180659.632000) can0 102C0040#803C96B503
(1780180659.633000) can0 102CA040#0000001F40000F00
(1780180659.633000) can0 10210040#0D00000000000000
# tx t=025.356s 102CA040#0000001F40000F00 note=102CA040 body/DIC status rpm-word offset 3: 2000 rpm raw 0x1F40; full_index=119/232
(1780180659.664000) can0 102CA040#0000001F40000F00
# tx t=025.388s 102CC040#0000400000000000 note=rpm word sweep baseline confirmed speed-valid prerequisite
# tx t=025.388s 102CA040#0000001F40000F00 note=102CA040 body/DIC status rpm-word offset 3: 2000 rpm raw 0x1F40; full_index=119/232
(1780180659.696000) can0 102CC040#0000400000000000
(1780180659.696000) can0 102CA040#0000001F40000F00
# tx t=025.420s 102C0040#803C96B503 note=rpm word sweep baseline ignition/power-mode key-on context
# tx t=025.420s 102CA040#0000001F40000F00 note=102CA040 body/DIC status rpm-word offset 3: 2000 rpm raw 0x1F40; full_index=119/232
# tx t=025.420s 10210040#0D00000000000000 note=RPM sweep progress indicator 51.1% full_index=119/232 target 51 kmh via confirmed 10210040 byte0=0x0D
(1780180659.729000) can0 102C0040#803C96B503
(1780180659.729000) can0 102CA040#0000001F40000F00
(1780180659.729000) can0 10210040#0D00000000000000
# tx t=025.451s 102CA040#0000001F40000F00 note=102CA040 body/DIC status rpm-word offset 3: 2000 rpm raw 0x1F40; full_index=119/232
(1780180659.759000) can0 102CA040#0000001F40000F00
# tx t=025.483s 102CA040#0000001F40000F00 note=102CA040 body/DIC status rpm-word offset 3: 2000 rpm raw 0x1F40; full_index=119/232
(1780180659.791000) can0 102CA040#0000001F40000F00
# tx t=025.515s 102CA040#0000001F40000F00 note=102CA040 body/DIC status rpm-word offset 3: 2000 rpm raw 0x1F40; full_index=119/232
(1780180659.823000) can0 102CA040#0000001F40000F00
# tx t=025.546s 102C0040#803C96B503 note=rpm word sweep baseline ignition/power-mode key-on context
# tx t=025.546s 102CA040#0000001F40000F00 note=102CA040 body/DIC status rpm-word offset 3: 2000 rpm raw 0x1F40; full_index=119/232
# tx t=025.546s 10210040#0D00000000000000 note=RPM sweep progress indicator 51.1% full_index=119/232 target 51 kmh via confirmed 10210040 byte0=0x0D
(1780180659.855000) can0 102C0040#803C96B503
(1780180659.855000) can0 102CA040#0000001F40000F00
(1780180659.855000) can0 10210040#0D00000000000000
# tx t=025.578s 102CA040#0000001F40000F00 note=102CA040 body/DIC status rpm-word offset 3: 2000 rpm raw 0x1F40; full_index=119/232
(1780180659.887000) can0 102CA040#0000001F40000F00
# tx t=025.610s 102CA040#0000001F40000F00 note=102CA040 body/DIC status rpm-word offset 3: 2000 rpm raw 0x1F40; full_index=119/232
(1780180659.919000) can0 102CA040#0000001F40000F00
# tx t=025.641s 621#0052000000000000 note=rpm word sweep baseline key-on 621 keepalive
# tx t=025.642s 102C0040#803C96B503 note=rpm word sweep baseline ignition/power-mode key-on context
# tx t=025.642s 102CC040#0000400000000000 note=rpm word sweep baseline confirmed speed-valid prerequisite
# tx t=025.642s 102CA040#0000001F40000F00 note=102CA040 body/DIC status rpm-word offset 3: 2000 rpm raw 0x1F40; full_index=119/232
# tx t=025.642s 10210040#0D00000000000000 note=RPM sweep progress indicator 51.1% full_index=119/232 target 51 kmh via confirmed 10210040 byte0=0x0D
(1780180659.950000) can0 621#0052000000000000
(1780180659.950000) can0 102C0040#803C96B503
(1780180659.951000) can0 102CC040#0000400000000000
(1780180659.953000) can0 102CA040#0000001F40000F00
(1780180659.957000) can0 10210040#0D00000000000000
# tx t=025.673s 102CA040#0000001F40000F00 note=102CA040 body/DIC status rpm-word offset 3: 2000 rpm raw 0x1F40; full_index=119/232
(1780180659.982000) can0 102CA040#0000001F40000F00
# tx t=025.704s 102CA040#0000001F40000F00 note=102CA040 body/DIC status rpm-word offset 3: 2000 rpm raw 0x1F40; full_index=119/232
(1780180660.013000) can0 102CA040#0000001F40000F00
# tx t=025.735s 102C0040#803C96B503 note=rpm word sweep baseline ignition/power-mode key-on context
# tx t=025.736s 102CA040#0000001F40000F00 note=102CA040 body/DIC status rpm-word offset 3: 2000 rpm raw 0x1F40; full_index=119/232
# tx t=025.736s 10210040#0D00000000000000 note=RPM sweep progress indicator 51.1% full_index=119/232 target 51 kmh via confirmed 10210040 byte0=0x0D
(1780180660.044000) can0 102C0040#803C96B503
(1780180660.044000) can0 102CA040#0000001F40000F00
(1780180660.045000) can0 10210040#0D00000000000000
# tx t=025.768s 102CA040#0000001F40000F00 note=102CA040 body/DIC status rpm-word offset 3: 2000 rpm raw 0x1F40; full_index=119/232
(1780180660.076000) can0 102CA040#0000001F40000F00
# tx t=025.799s 102CA040#0000001F40000F00 note=102CA040 body/DIC status rpm-word offset 3: 2000 rpm raw 0x1F40; full_index=119/232
(1780180660.108000) can0 102CA040#0000001F40000F00
# tx t=025.832s 102C0040#803C96B503 note=rpm word sweep baseline ignition/power-mode key-on context
# tx t=025.832s 102CA040#0000001F40000F00 note=102CA040 body/DIC status rpm-word offset 3: 2000 rpm raw 0x1F40; full_index=119/232
# tx t=025.832s 10210040#0D00000000000000 note=RPM sweep progress indicator 51.1% full_index=119/232 target 51 kmh via confirmed 10210040 byte0=0x0D
(1780180660.140000) can0 102C0040#803C96B503
(1780180660.140000) can0 102CA040#0000001F40000F00
(1780180660.141000) can0 10210040#0D00000000000000
# tx t=025.864s 102CA040#0000001F40000F00 note=102CA040 body/DIC status rpm-word offset 3: 2000 rpm raw 0x1F40; full_index=119/232
(1780180660.172000) can0 102CA040#0000001F40000F00
# tx t=025.896s 102CC040#0000400000000000 note=rpm word sweep baseline confirmed speed-valid prerequisite
# tx t=025.896s 102CA040#0000001F40000F00 note=102CA040 body/DIC status rpm-word offset 3: 2000 rpm raw 0x1F40; full_index=119/232
(1780180660.204000) can0 102CC040#0000400000000000
(1780180660.204000) can0 102CA040#0000001F40000F00
# tx t=025.927s 102C0040#803C96B503 note=rpm word sweep baseline ignition/power-mode key-on context
# tx t=025.927s 102CA040#0000001F40000F00 note=102CA040 body/DIC status rpm-word offset 3: 2000 rpm raw 0x1F40; full_index=119/232
# tx t=025.927s 10210040#0D00000000000000 note=RPM sweep progress indicator 51.1% full_index=119/232 target 51 kmh via confirmed 10210040 byte0=0x0D
(1780180660.236000) can0 102C0040#803C96B503
(1780180660.236000) can0 102CA040#0000001F40000F00
(1780180660.236000) can0 10210040#0D00000000000000
# tx t=025.959s 102CA040#0000001F40000F00 note=102CA040 body/DIC status rpm-word offset 3: 2000 rpm raw 0x1F40; full_index=119/232
(1780180660.268000) can0 102CA040#0000001F40000F00
# tx t=025.991s 102CA040#0000001F40000F00 note=102CA040 body/DIC status rpm-word offset 3: 2000 rpm raw 0x1F40; full_index=119/232
(1780180660.300000) can0 102CA040#0000001F40000F00
# tx t=026.023s 102C0040#803C96B503 note=rpm word sweep baseline ignition/power-mode key-on context
# tx t=026.023s 102CA040#0000001F40000F00 note=102CA040 body/DIC status rpm-word offset 3: 2000 rpm raw 0x1F40; full_index=119/232
# tx t=026.023s 10210040#0D00000000000000 note=RPM sweep progress indicator 51.1% full_index=119/232 target 51 kmh via confirmed 10210040 byte0=0x0D
(1780180660.331000) can0 102C0040#803C96B503
(1780180660.332000) can0 102CA040#0000001F40000F00
(1780180660.332000) can0 10210040#0D00000000000000
# tx t=026.055s 102CA040#0000001F40000F00 note=102CA040 body/DIC status rpm-word offset 3: 2000 rpm raw 0x1F40; full_index=119/232
(1780180660.363000) can0 102CA040#0000001F40000F00
# tx t=026.087s 102CA040#0000001F40000F00 note=102CA040 body/DIC status rpm-word offset 3: 2000 rpm raw 0x1F40; full_index=119/232
(1780180660.395000) can0 102CA040#0000001F40000F00
# tx t=026.119s 102CA040#0000001F40000F00 note=102CA040 body/DIC status rpm-word offset 3: 2000 rpm raw 0x1F40; full_index=119/232
(1780180660.427000) can0 102CA040#0000001F40000F00
# tx t=026.150s 102C0040#803C96B503 note=rpm word sweep baseline ignition/power-mode key-on context
# tx t=026.150s 10242040#02 note=rpm word sweep baseline key second-turn sub-state
# tx t=026.150s 102CC040#0000400000000000 note=rpm word sweep baseline confirmed speed-valid prerequisite
# rpm-window-end t=026.150s full_index=119/232 upper_index=3/116 active=102CA040#0000001F40000F00 reason=completed
# rpm-window-start t=026.150s full_index=120/232 upper_index=4/116 active=102CA040#0000002EE0000F00 note=102CA040 body/DIC status rpm-word offset 3: 3000 rpm raw 0x2EE0; full_index=120/232
# tx t=026.150s 102CA040#0000002EE0000F00 note=102CA040 body/DIC status rpm-word offset 3: 3000 rpm raw 0x2EE0; full_index=120/232
# tx t=026.151s 10210040#0D00000000000000 note=RPM sweep progress indicator 51.5% full_index=120/232 target 52 kmh via confirmed 10210040 byte0=0x0D
(1780180660.459000) can0 102C0040#803C96B503
(1780180660.459000) can0 10242040#02
(1780180660.459000) can0 102CC040#0000400000000000
(1780180660.462000) can0 102CA040#0000002EE0000F00
(1780180660.464000) can0 10210040#0D00000000000000
# tx t=026.182s 102CA040#0000002EE0000F00 note=102CA040 body/DIC status rpm-word offset 3: 3000 rpm raw 0x2EE0; full_index=120/232
(1780180660.490000) can0 102CA040#0000002EE0000F00
# tx t=026.214s 102CA040#0000002EE0000F00 note=102CA040 body/DIC status rpm-word offset 3: 3000 rpm raw 0x2EE0; full_index=120/232
(1780180660.522000) can0 102CA040#0000002EE0000F00
# tx t=026.246s 102C0040#803C96B503 note=rpm word sweep baseline ignition/power-mode key-on context
# tx t=026.246s 10754040#040400 note=rpm word sweep baseline key-present/key-on context
# tx t=026.246s 102CA040#0000002EE0000F00 note=102CA040 body/DIC status rpm-word offset 3: 3000 rpm raw 0x2EE0; full_index=120/232
# tx t=026.246s 10210040#0D00000000000000 note=RPM sweep progress indicator 51.5% full_index=120/232 target 52 kmh via confirmed 10210040 byte0=0x0D
(1780180660.555000) can0 102C0040#803C96B503
(1780180660.555000) can0 10754040#040400
(1780180660.555000) can0 102CA040#0000002EE0000F00
(1780180660.558000) can0 10210040#0D00000000000000
# tx t=026.278s 102CA040#0000002EE0000F00 note=102CA040 body/DIC status rpm-word offset 3: 3000 rpm raw 0x2EE0; full_index=120/232
(1780180660.586000) can0 102CA040#0000002EE0000F00
# tx t=026.309s 102CA040#0000002EE0000F00 note=102CA040 body/DIC status rpm-word offset 3: 3000 rpm raw 0x2EE0; full_index=120/232
(1780180660.617000) can0 102CA040#0000002EE0000F00
# tx t=026.340s 102C0040#803C96B503 note=rpm word sweep baseline ignition/power-mode key-on context
# tx t=026.340s 102CA040#0000002EE0000F00 note=102CA040 body/DIC status rpm-word offset 3: 3000 rpm raw 0x2EE0; full_index=120/232
# tx t=026.340s 10210040#0D00000000000000 note=RPM sweep progress indicator 51.5% full_index=120/232 target 52 kmh via confirmed 10210040 byte0=0x0D
(1780180660.648000) can0 102C0040#803C96B503
(1780180660.649000) can0 102CA040#0000002EE0000F00
(1780180660.649000) can0 10210040#0D00000000000000
# tx t=026.370s 102CC040#0000400000000000 note=rpm word sweep baseline confirmed speed-valid prerequisite
# tx t=026.371s 102CA040#0000002EE0000F00 note=102CA040 body/DIC status rpm-word offset 3: 3000 rpm raw 0x2EE0; full_index=120/232
(1780180660.679000) can0 102CC040#0000400000000000
(1780180660.679000) can0 102CA040#0000002EE0000F00
# tx t=026.402s 102CA040#0000002EE0000F00 note=102CA040 body/DIC status rpm-word offset 3: 3000 rpm raw 0x2EE0; full_index=120/232
(1780180660.711000) can0 102CA040#0000002EE0000F00
# tx t=026.434s 13FFE040# note=rpm word sweep baseline BCM/source 0x40 presence
# tx t=026.434s 102C0040#803C96B503 note=rpm word sweep baseline ignition/power-mode key-on context
# tx t=026.434s 102CA040#0000002EE0000F00 note=102CA040 body/DIC status rpm-word offset 3: 3000 rpm raw 0x2EE0; full_index=120/232
# tx t=026.435s 10210040#0D00000000000000 note=RPM sweep progress indicator 51.5% full_index=120/232 target 52 kmh via confirmed 10210040 byte0=0x0D
(1780180660.743000) can0 13FFE040#
(1780180660.743000) can0 102C0040#803C96B503
(1780180660.743000) can0 102CA040#0000002EE0000F00
(1780180660.744000) can0 10210040#0D00000000000000
# tx t=026.466s 102CA040#0000002EE0000F00 note=102CA040 body/DIC status rpm-word offset 3: 3000 rpm raw 0x2EE0; full_index=120/232
(1780180660.774000) can0 102CA040#0000002EE0000F00
# tx t=026.498s 102CA040#0000002EE0000F00 note=102CA040 body/DIC status rpm-word offset 3: 3000 rpm raw 0x2EE0; full_index=120/232
(1780180660.806000) can0 102CA040#0000002EE0000F00
(1780180660.807000) can0 13FFE060#
# tx t=026.529s 102C0040#803C96B503 note=rpm word sweep baseline ignition/power-mode key-on context
# tx t=026.530s 102CA040#0000002EE0000F00 note=102CA040 body/DIC status rpm-word offset 3: 3000 rpm raw 0x2EE0; full_index=120/232
# tx t=026.530s 10210040#0D00000000000000 note=RPM sweep progress indicator 51.5% full_index=120/232 target 52 kmh via confirmed 10210040 byte0=0x0D
(1780180660.838000) can0 102C0040#803C96B503
(1780180660.838000) can0 102CA040#0000002EE0000F00
(1780180660.839000) can0 10210040#0D00000000000000
# tx t=026.561s 102CA040#0000002EE0000F00 note=102CA040 body/DIC status rpm-word offset 3: 3000 rpm raw 0x2EE0; full_index=120/232
(1780180660.870000) can0 102CA040#0000002EE0000F00
# tx t=026.593s 102CA040#0000002EE0000F00 note=102CA040 body/DIC status rpm-word offset 3: 3000 rpm raw 0x2EE0; full_index=120/232
(1780180660.902000) can0 102CA040#0000002EE0000F00
# tx t=026.625s 621#0052000000000000 note=rpm word sweep baseline key-on 621 keepalive
# tx t=026.625s 102C0040#803C96B503 note=rpm word sweep baseline ignition/power-mode key-on context
# tx t=026.625s 102CC040#0000400000000000 note=rpm word sweep baseline confirmed speed-valid prerequisite
# tx t=026.625s 102CA040#0000002EE0000F00 note=102CA040 body/DIC status rpm-word offset 3: 3000 rpm raw 0x2EE0; full_index=120/232
# tx t=026.626s 10210040#0D00000000000000 note=RPM sweep progress indicator 51.5% full_index=120/232 target 52 kmh via confirmed 10210040 byte0=0x0D
(1780180660.934000) can0 621#0052000000000000
(1780180660.934000) can0 102C0040#803C96B503
(1780180660.934000) can0 102CC040#0000400000000000
(1780180660.937000) can0 102CA040#0000002EE0000F00
(1780180660.940000) can0 10210040#0D00000000000000
(1780180660.947000) can0 10244060#02
# tx t=026.670s 102CA040#0000002EE0000F00 note=102CA040 body/DIC status rpm-word offset 3: 3000 rpm raw 0x2EE0; full_index=120/232
(1780180660.978000) can0 102CA040#0000002EE0000F00
# tx t=026.702s 102CA040#0000002EE0000F00 note=102CA040 body/DIC status rpm-word offset 3: 3000 rpm raw 0x2EE0; full_index=120/232
(1780180661.010000) can0 102CA040#0000002EE0000F00
# tx t=026.734s 102C0040#803C96B503 note=rpm word sweep baseline ignition/power-mode key-on context
# tx t=026.734s 102CA040#0000002EE0000F00 note=102CA040 body/DIC status rpm-word offset 3: 3000 rpm raw 0x2EE0; full_index=120/232
# tx t=026.734s 10210040#0D00000000000000 note=RPM sweep progress indicator 51.5% full_index=120/232 target 52 kmh via confirmed 10210040 byte0=0x0D
(1780180661.042000) can0 102C0040#803C96B503
(1780180661.043000) can0 102CA040#0000002EE0000F00
(1780180661.043000) can0 10210040#0D00000000000000
# tx t=026.766s 102CA040#0000002EE0000F00 note=102CA040 body/DIC status rpm-word offset 3: 3000 rpm raw 0x2EE0; full_index=120/232
(1780180661.074000) can0 102CA040#0000002EE0000F00
# tx t=026.798s 102CA040#0000002EE0000F00 note=102CA040 body/DIC status rpm-word offset 3: 3000 rpm raw 0x2EE0; full_index=120/232
(1780180661.106000) can0 102CA040#0000002EE0000F00
# tx t=026.829s 102C0040#803C96B503 note=rpm word sweep baseline ignition/power-mode key-on context
# tx t=026.829s 102CA040#0000002EE0000F00 note=102CA040 body/DIC status rpm-word offset 3: 3000 rpm raw 0x2EE0; full_index=120/232
# tx t=026.829s 10210040#0D00000000000000 note=RPM sweep progress indicator 51.5% full_index=120/232 target 52 kmh via confirmed 10210040 byte0=0x0D
(1780180661.138000) can0 102C0040#803C96B503
(1780180661.138000) can0 102CA040#0000002EE0000F00
(1780180661.138000) can0 10210040#0D00000000000000
# tx t=026.861s 102CA040#0000002EE0000F00 note=102CA040 body/DIC status rpm-word offset 3: 3000 rpm raw 0x2EE0; full_index=120/232
(1780180661.169000) can0 102CA040#0000002EE0000F00
# tx t=026.893s 102CC040#0000400000000000 note=rpm word sweep baseline confirmed speed-valid prerequisite
# tx t=026.893s 102CA040#0000002EE0000F00 note=102CA040 body/DIC status rpm-word offset 3: 3000 rpm raw 0x2EE0; full_index=120/232
(1780180661.202000) can0 102CC040#0000400000000000
(1780180661.202000) can0 102CA040#0000002EE0000F00
# tx t=026.924s 102C0040#803C96B503 note=rpm word sweep baseline ignition/power-mode key-on context
# tx t=026.924s 102CA040#0000002EE0000F00 note=102CA040 body/DIC status rpm-word offset 3: 3000 rpm raw 0x2EE0; full_index=120/232
# tx t=026.924s 10210040#0D00000000000000 note=RPM sweep progress indicator 51.5% full_index=120/232 target 52 kmh via confirmed 10210040 byte0=0x0D
(1780180661.233000) can0 102C0040#803C96B503
(1780180661.233000) can0 102CA040#0000002EE0000F00
(1780180661.233000) can0 10210040#0D00000000000000
# tx t=026.956s 102CA040#0000002EE0000F00 note=102CA040 body/DIC status rpm-word offset 3: 3000 rpm raw 0x2EE0; full_index=120/232
(1780180661.265000) can0 102CA040#0000002EE0000F00
# tx t=026.988s 102CA040#0000002EE0000F00 note=102CA040 body/DIC status rpm-word offset 3: 3000 rpm raw 0x2EE0; full_index=120/232
(1780180661.297000) can0 102CA040#0000002EE0000F00
# tx t=027.020s 102C0040#803C96B503 note=rpm word sweep baseline ignition/power-mode key-on context
# tx t=027.020s 102CA040#0000002EE0000F00 note=102CA040 body/DIC status rpm-word offset 3: 3000 rpm raw 0x2EE0; full_index=120/232
# tx t=027.020s 10210040#0D00000000000000 note=RPM sweep progress indicator 51.5% full_index=120/232 target 52 kmh via confirmed 10210040 byte0=0x0D
(1780180661.329000) can0 102C0040#803C96B503
(1780180661.329000) can0 102CA040#0000002EE0000F00
(1780180661.329000) can0 10210040#0D00000000000000
# tx t=027.052s 102CA040#0000002EE0000F00 note=102CA040 body/DIC status rpm-word offset 3: 3000 rpm raw 0x2EE0; full_index=120/232
(1780180661.360000) can0 102CA040#0000002EE0000F00
# tx t=027.084s 102CA040#0000002EE0000F00 note=102CA040 body/DIC status rpm-word offset 3: 3000 rpm raw 0x2EE0; full_index=120/232
(1780180661.392000) can0 102CA040#0000002EE0000F00
# tx t=027.116s 102CA040#0000002EE0000F00 note=102CA040 body/DIC status rpm-word offset 3: 3000 rpm raw 0x2EE0; full_index=120/232
(1780180661.424000) can0 102CA040#0000002EE0000F00
# tx t=027.147s 102C0040#803C96B503 note=rpm word sweep baseline ignition/power-mode key-on context
# tx t=027.148s 10242040#02 note=rpm word sweep baseline key second-turn sub-state
# tx t=027.148s 102CC040#0000400000000000 note=rpm word sweep baseline confirmed speed-valid prerequisite
# tx t=027.148s 102CA040#0000002EE0000F00 note=102CA040 body/DIC status rpm-word offset 3: 3000 rpm raw 0x2EE0; full_index=120/232
# tx t=027.148s 10210040#0D00000000000000 note=RPM sweep progress indicator 51.5% full_index=120/232 target 52 kmh via confirmed 10210040 byte0=0x0D
(1780180661.456000) can0 102C0040#803C96B503
(1780180661.456000) can0 10242040#02
(1780180661.457000) can0 102CC040#0000400000000000
(1780180661.459000) can0 102CA040#0000002EE0000F00
(1780180661.461000) can0 10210040#0D00000000000000
# tx t=027.179s 102CA040#0000002EE0000F00 note=102CA040 body/DIC status rpm-word offset 3: 3000 rpm raw 0x2EE0; full_index=120/232
(1780180661.488000) can0 102CA040#0000002EE0000F00
# tx t=027.211s 102CA040#0000002EE0000F00 note=102CA040 body/DIC status rpm-word offset 3: 3000 rpm raw 0x2EE0; full_index=120/232
(1780180661.520000) can0 102CA040#0000002EE0000F00
# tx t=027.242s 102C0040#803C96B503 note=rpm word sweep baseline ignition/power-mode key-on context
# tx t=027.243s 10754040#040400 note=rpm word sweep baseline key-present/key-on context
# tx t=027.243s 102CA040#0000002EE0000F00 note=102CA040 body/DIC status rpm-word offset 3: 3000 rpm raw 0x2EE0; full_index=120/232
# tx t=027.243s 10210040#0D00000000000000 note=RPM sweep progress indicator 51.5% full_index=120/232 target 52 kmh via confirmed 10210040 byte0=0x0D
(1780180661.551000) can0 102C0040#803C96B503
(1780180661.551000) can0 10754040#040400
(1780180661.552000) can0 102CA040#0000002EE0000F00
(1780180661.554000) can0 10210040#0D00000000000000
# tx t=027.274s 102CA040#0000002EE0000F00 note=102CA040 body/DIC status rpm-word offset 3: 3000 rpm raw 0x2EE0; full_index=120/232
(1780180661.583000) can0 102CA040#0000002EE0000F00
# tx t=027.306s 102CA040#0000002EE0000F00 note=102CA040 body/DIC status rpm-word offset 3: 3000 rpm raw 0x2EE0; full_index=120/232
(1780180661.615000) can0 102CA040#0000002EE0000F00
# tx t=027.339s 102C0040#803C96B503 note=rpm word sweep baseline ignition/power-mode key-on context
# tx t=027.339s 102CA040#0000002EE0000F00 note=102CA040 body/DIC status rpm-word offset 3: 3000 rpm raw 0x2EE0; full_index=120/232
# tx t=027.339s 10210040#0D00000000000000 note=RPM sweep progress indicator 51.5% full_index=120/232 target 52 kmh via confirmed 10210040 byte0=0x0D
(1780180661.647000) can0 102C0040#803C96B503
(1780180661.648000) can0 102CA040#0000002EE0000F00
(1780180661.648000) can0 10210040#0D00000000000000
# tx t=027.371s 102CC040#0000400000000000 note=rpm word sweep baseline confirmed speed-valid prerequisite
# tx t=027.371s 102CA040#0000002EE0000F00 note=102CA040 body/DIC status rpm-word offset 3: 3000 rpm raw 0x2EE0; full_index=120/232
(1780180661.679000) can0 102CC040#0000400000000000
(1780180661.679000) can0 102CA040#0000002EE0000F00
# tx t=027.403s 102CA040#0000002EE0000F00 note=102CA040 body/DIC status rpm-word offset 3: 3000 rpm raw 0x2EE0; full_index=120/232
(1780180661.711000) can0 102CA040#0000002EE0000F00
# tx t=027.435s 102C0040#803C96B503 note=rpm word sweep baseline ignition/power-mode key-on context
# tx t=027.435s 102CA040#0000002EE0000F00 note=102CA040 body/DIC status rpm-word offset 3: 3000 rpm raw 0x2EE0; full_index=120/232
# tx t=027.435s 10210040#0D00000000000000 note=RPM sweep progress indicator 51.5% full_index=120/232 target 52 kmh via confirmed 10210040 byte0=0x0D
(1780180661.743000) can0 102C0040#803C96B503
(1780180661.744000) can0 102CA040#0000002EE0000F00
(1780180661.744000) can0 10210040#0D00000000000000
# tx t=027.467s 102CA040#0000002EE0000F00 note=102CA040 body/DIC status rpm-word offset 3: 3000 rpm raw 0x2EE0; full_index=120/232
(1780180661.775000) can0 102CA040#0000002EE0000F00
# tx t=027.499s 102CA040#0000002EE0000F00 note=102CA040 body/DIC status rpm-word offset 3: 3000 rpm raw 0x2EE0; full_index=120/232
(1780180661.807000) can0 102CA040#0000002EE0000F00
# tx t=027.531s 102C0040#803C96B503 note=rpm word sweep baseline ignition/power-mode key-on context
# tx t=027.531s 102CA040#0000002EE0000F00 note=102CA040 body/DIC status rpm-word offset 3: 3000 rpm raw 0x2EE0; full_index=120/232
# tx t=027.531s 10210040#0D00000000000000 note=RPM sweep progress indicator 51.5% full_index=120/232 target 52 kmh via confirmed 10210040 byte0=0x0D
(1780180661.839000) can0 102C0040#803C96B503
(1780180661.840000) can0 102CA040#0000002EE0000F00
(1780180661.840000) can0 10210040#0D00000000000000
# tx t=027.563s 102CA040#0000002EE0000F00 note=102CA040 body/DIC status rpm-word offset 3: 3000 rpm raw 0x2EE0; full_index=120/232
(1780180661.871000) can0 102CA040#0000002EE0000F00
# tx t=027.595s 102CA040#0000002EE0000F00 note=102CA040 body/DIC status rpm-word offset 3: 3000 rpm raw 0x2EE0; full_index=120/232
(1780180661.903000) can0 102CA040#0000002EE0000F00
# tx t=027.627s 13FFE040# note=rpm word sweep baseline BCM/source 0x40 presence
# tx t=027.627s 621#0052000000000000 note=rpm word sweep baseline key-on 621 keepalive
# tx t=027.627s 102C0040#803C96B503 note=rpm word sweep baseline ignition/power-mode key-on context
# tx t=027.627s 102CC040#0000400000000000 note=rpm word sweep baseline confirmed speed-valid prerequisite
# tx t=027.627s 102CA040#0000002EE0000F00 note=102CA040 body/DIC status rpm-word offset 3: 3000 rpm raw 0x2EE0; full_index=120/232
# tx t=027.628s 10210040#0D00000000000000 note=RPM sweep progress indicator 51.5% full_index=120/232 target 52 kmh via confirmed 10210040 byte0=0x0D
(1780180661.936000) can0 13FFE040#
(1780180661.936000) can0 621#0052000000000000
(1780180661.936000) can0 102C0040#803C96B503
(1780180661.937000) can0 102CC040#0000400000000000
(1780180661.941000) can0 102CA040#0000002EE0000F00
(1780180661.944000) can0 10210040#0D00000000000000
# rpm-window-end t=027.659s full_index=120/232 upper_index=4/116 active=102CA040#0000002EE0000F00 reason=completed
# rpm-window-start t=027.659s full_index=121/232 upper_index=5/116 active=102CA040#000000000C800F00 note=102CA040 body/DIC status rpm-word offset 4: 800 rpm raw 0x0C80; full_index=121/232
# tx t=027.659s 102CA040#000000000C800F00 note=102CA040 body/DIC status rpm-word offset 4: 800 rpm raw 0x0C80; full_index=121/232
(1780180661.967000) can0 102CA040#000000000C800F00
# tx t=027.691s 102CA040#000000000C800F00 note=102CA040 body/DIC status rpm-word offset 4: 800 rpm raw 0x0C80; full_index=121/232
(1780180661.999000) can0 102CA040#000000000C800F00
(1780180662.007000) can0 62C#0040000000000000
(1780180662.010000) can0 13FFE060#
# tx t=027.723s 102C0040#803C96B503 note=rpm word sweep baseline ignition/power-mode key-on context
# tx t=027.723s 102CA040#000000000C800F00 note=102CA040 body/DIC status rpm-word offset 4: 800 rpm raw 0x0C80; full_index=121/232
# tx t=027.723s 10210040#0D00000000000000 note=RPM sweep progress indicator 51.9% full_index=121/232 target 52 kmh via confirmed 10210040 byte0=0x0D
(1780180662.032000) can0 102C0040#803C96B503
(1780180662.032000) can0 102CA040#000000000C800F00
(1780180662.032000) can0 10210040#0D00000000000000
# tx t=027.755s 102CA040#000000000C800F00 note=102CA040 body/DIC status rpm-word offset 4: 800 rpm raw 0x0C80; full_index=121/232
(1780180662.063000) can0 102CA040#000000000C800F00
# tx t=027.787s 102CA040#000000000C800F00 note=102CA040 body/DIC status rpm-word offset 4: 800 rpm raw 0x0C80; full_index=121/232
(1780180662.095000) can0 102CA040#000000000C800F00
# tx t=027.819s 102CA040#000000000C800F00 note=102CA040 body/DIC status rpm-word offset 4: 800 rpm raw 0x0C80; full_index=121/232
(1780180662.127000) can0 102CA040#000000000C800F00
# tx t=027.851s 102C0040#803C96B503 note=rpm word sweep baseline ignition/power-mode key-on context
# tx t=027.851s 102CA040#000000000C800F00 note=102CA040 body/DIC status rpm-word offset 4: 800 rpm raw 0x0C80; full_index=121/232
# tx t=027.852s 10210040#0D00000000000000 note=RPM sweep progress indicator 51.9% full_index=121/232 target 52 kmh via confirmed 10210040 byte0=0x0D
(1780180662.160000) can0 102C0040#803C96B503
(1780180662.160000) can0 102CA040#000000000C800F00
(1780180662.160000) can0 10210040#0D00000000000000
# tx t=027.883s 102CC040#0000400000000000 note=rpm word sweep baseline confirmed speed-valid prerequisite
# tx t=027.883s 102CA040#000000000C800F00 note=102CA040 body/DIC status rpm-word offset 4: 800 rpm raw 0x0C80; full_index=121/232
(1780180662.192000) can0 102CC040#0000400000000000
(1780180662.192000) can0 102CA040#000000000C800F00
# tx t=027.915s 102CA040#000000000C800F00 note=102CA040 body/DIC status rpm-word offset 4: 800 rpm raw 0x0C80; full_index=121/232
(1780180662.223000) can0 102CA040#000000000C800F00
# tx t=027.947s 102C0040#803C96B503 note=rpm word sweep baseline ignition/power-mode key-on context
# tx t=027.947s 102CA040#000000000C800F00 note=102CA040 body/DIC status rpm-word offset 4: 800 rpm raw 0x0C80; full_index=121/232
# tx t=027.948s 10210040#0D00000000000000 note=RPM sweep progress indicator 51.9% full_index=121/232 target 52 kmh via confirmed 10210040 byte0=0x0D
(1780180662.256000) can0 102C0040#803C96B503
(1780180662.256000) can0 102CA040#000000000C800F00
(1780180662.256000) can0 10210040#0D00000000000000
# tx t=027.979s 102CA040#000000000C800F00 note=102CA040 body/DIC status rpm-word offset 4: 800 rpm raw 0x0C80; full_index=121/232
(1780180662.288000) can0 102CA040#000000000C800F00
# tx t=028.011s 102CA040#000000000C800F00 note=102CA040 body/DIC status rpm-word offset 4: 800 rpm raw 0x0C80; full_index=121/232
(1780180662.320000) can0 102CA040#000000000C800F00
# tx t=028.042s 102C0040#803C96B503 note=rpm word sweep baseline ignition/power-mode key-on context
# tx t=028.042s 102CA040#000000000C800F00 note=102CA040 body/DIC status rpm-word offset 4: 800 rpm raw 0x0C80; full_index=121/232
# tx t=028.043s 10210040#0D00000000000000 note=RPM sweep progress indicator 51.9% full_index=121/232 target 52 kmh via confirmed 10210040 byte0=0x0D
(1780180662.351000) can0 102C0040#803C96B503
(1780180662.351000) can0 102CA040#000000000C800F00
(1780180662.351000) can0 10210040#0D00000000000000
# tx t=028.073s 102CA040#000000000C800F00 note=102CA040 body/DIC status rpm-word offset 4: 800 rpm raw 0x0C80; full_index=121/232
(1780180662.382000) can0 102CA040#000000000C800F00
# tx t=028.105s 102CA040#000000000C800F00 note=102CA040 body/DIC status rpm-word offset 4: 800 rpm raw 0x0C80; full_index=121/232
(1780180662.414000) can0 102CA040#000000000C800F00
# tx t=028.137s 102C0040#803C96B503 note=rpm word sweep baseline ignition/power-mode key-on context
# tx t=028.138s 10242040#02 note=rpm word sweep baseline key second-turn sub-state
# tx t=028.138s 102CC040#0000400000000000 note=rpm word sweep baseline confirmed speed-valid prerequisite
# tx t=028.138s 102CA040#000000000C800F00 note=102CA040 body/DIC status rpm-word offset 4: 800 rpm raw 0x0C80; full_index=121/232
# tx t=028.138s 10210040#0D00000000000000 note=RPM sweep progress indicator 51.9% full_index=121/232 target 52 kmh via confirmed 10210040 byte0=0x0D
(1780180662.446000) can0 102C0040#803C96B503
(1780180662.446000) can0 10242040#02
(1780180662.446000) can0 102CC040#0000400000000000
(1780180662.449000) can0 102CA040#000000000C800F00
(1780180662.451000) can0 10210040#0D00000000000000
# tx t=028.168s 102CA040#000000000C800F00 note=102CA040 body/DIC status rpm-word offset 4: 800 rpm raw 0x0C80; full_index=121/232
(1780180662.477000) can0 102CA040#000000000C800F00
# tx t=028.200s 102CA040#000000000C800F00 note=102CA040 body/DIC status rpm-word offset 4: 800 rpm raw 0x0C80; full_index=121/232
(1780180662.509000) can0 102CA040#000000000C800F00
# tx t=028.232s 102C0040#803C96B503 note=rpm word sweep baseline ignition/power-mode key-on context
# tx t=028.233s 10754040#040400 note=rpm word sweep baseline key-present/key-on context
# tx t=028.233s 102CA040#000000000C800F00 note=102CA040 body/DIC status rpm-word offset 4: 800 rpm raw 0x0C80; full_index=121/232
# tx t=028.233s 10210040#0D00000000000000 note=RPM sweep progress indicator 51.9% full_index=121/232 target 52 kmh via confirmed 10210040 byte0=0x0D
(1780180662.541000) can0 102C0040#803C96B503
(1780180662.541000) can0 10754040#040400
(1780180662.542000) can0 102CA040#000000000C800F00
(1780180662.544000) can0 10210040#0D00000000000000
# tx t=028.264s 102CA040#000000000C800F00 note=102CA040 body/DIC status rpm-word offset 4: 800 rpm raw 0x0C80; full_index=121/232
(1780180662.573000) can0 102CA040#000000000C800F00
# tx t=028.296s 102CA040#000000000C800F00 note=102CA040 body/DIC status rpm-word offset 4: 800 rpm raw 0x0C80; full_index=121/232
(1780180662.605000) can0 102CA040#000000000C800F00
# tx t=028.329s 102C0040#803C96B503 note=rpm word sweep baseline ignition/power-mode key-on context
# tx t=028.329s 102CA040#000000000C800F00 note=102CA040 body/DIC status rpm-word offset 4: 800 rpm raw 0x0C80; full_index=121/232
# tx t=028.329s 10210040#0D00000000000000 note=RPM sweep progress indicator 51.9% full_index=121/232 target 52 kmh via confirmed 10210040 byte0=0x0D
(1780180662.637000) can0 102C0040#803C96B503
(1780180662.638000) can0 102CA040#000000000C800F00
(1780180662.638000) can0 10210040#0D00000000000000
# tx t=028.361s 102CA040#000000000C800F00 note=102CA040 body/DIC status rpm-word offset 4: 800 rpm raw 0x0C80; full_index=121/232
(1780180662.669000) can0 102CA040#000000000C800F00
# tx t=028.393s 102CC040#0000400000000000 note=rpm word sweep baseline confirmed speed-valid prerequisite
# tx t=028.393s 102CA040#000000000C800F00 note=102CA040 body/DIC status rpm-word offset 4: 800 rpm raw 0x0C80; full_index=121/232
(1780180662.701000) can0 102CC040#0000400000000000
(1780180662.701000) can0 102CA040#000000000C800F00
# tx t=028.425s 102C0040#803C96B503 note=rpm word sweep baseline ignition/power-mode key-on context
# tx t=028.425s 102CA040#000000000C800F00 note=102CA040 body/DIC status rpm-word offset 4: 800 rpm raw 0x0C80; full_index=121/232
# tx t=028.425s 10210040#0D00000000000000 note=RPM sweep progress indicator 51.9% full_index=121/232 target 52 kmh via confirmed 10210040 byte0=0x0D
(1780180662.734000) can0 102C0040#803C96B503
(1780180662.734000) can0 102CA040#000000000C800F00
(1780180662.734000) can0 10210040#0D00000000000000
# tx t=028.457s 102CA040#000000000C800F00 note=102CA040 body/DIC status rpm-word offset 4: 800 rpm raw 0x0C80; full_index=121/232
(1780180662.765000) can0 102CA040#000000000C800F00
# tx t=028.489s 102CA040#000000000C800F00 note=102CA040 body/DIC status rpm-word offset 4: 800 rpm raw 0x0C80; full_index=121/232
(1780180662.797000) can0 102CA040#000000000C800F00
# tx t=028.521s 102C0040#803C96B503 note=rpm word sweep baseline ignition/power-mode key-on context
# tx t=028.521s 102CA040#000000000C800F00 note=102CA040 body/DIC status rpm-word offset 4: 800 rpm raw 0x0C80; full_index=121/232
# tx t=028.521s 10210040#0D00000000000000 note=RPM sweep progress indicator 51.9% full_index=121/232 target 52 kmh via confirmed 10210040 byte0=0x0D
(1780180662.830000) can0 102C0040#803C96B503
(1780180662.830000) can0 102CA040#000000000C800F00
(1780180662.830000) can0 10210040#0D00000000000000
# tx t=028.553s 102CA040#000000000C800F00 note=102CA040 body/DIC status rpm-word offset 4: 800 rpm raw 0x0C80; full_index=121/232
(1780180662.861000) can0 102CA040#000000000C800F00
# tx t=028.585s 102CA040#000000000C800F00 note=102CA040 body/DIC status rpm-word offset 4: 800 rpm raw 0x0C80; full_index=121/232
(1780180662.893000) can0 102CA040#000000000C800F00
# tx t=028.617s 102CA040#000000000C800F00 note=102CA040 body/DIC status rpm-word offset 4: 800 rpm raw 0x0C80; full_index=121/232
(1780180662.925000) can0 102CA040#000000000C800F00
# tx t=028.649s 621#0052000000000000 note=rpm word sweep baseline key-on 621 keepalive
# tx t=028.649s 102C0040#803C96B503 note=rpm word sweep baseline ignition/power-mode key-on context
# tx t=028.649s 102CC040#0000400000000000 note=rpm word sweep baseline confirmed speed-valid prerequisite
# tx t=028.649s 102CA040#000000000C800F00 note=102CA040 body/DIC status rpm-word offset 4: 800 rpm raw 0x0C80; full_index=121/232
# tx t=028.649s 10210040#0D00000000000000 note=RPM sweep progress indicator 51.9% full_index=121/232 target 52 kmh via confirmed 10210040 byte0=0x0D
(1780180662.958000) can0 621#0052000000000000
(1780180662.958000) can0 102C0040#803C96B503
(1780180662.958000) can0 102CC040#0000400000000000
(1780180662.961000) can0 102CA040#000000000C800F00
(1780180662.964000) can0 10210040#0D00000000000000
# tx t=028.681s 102CA040#000000000C800F00 note=102CA040 body/DIC status rpm-word offset 4: 800 rpm raw 0x0C80; full_index=121/232
(1780180662.989000) can0 102CA040#000000000C800F00
# tx t=028.713s 102CA040#000000000C800F00 note=102CA040 body/DIC status rpm-word offset 4: 800 rpm raw 0x0C80; full_index=121/232
(1780180663.021000) can0 102CA040#000000000C800F00
# tx t=028.745s 102C0040#803C96B503 note=rpm word sweep baseline ignition/power-mode key-on context
# tx t=028.745s 102CA040#000000000C800F00 note=102CA040 body/DIC status rpm-word offset 4: 800 rpm raw 0x0C80; full_index=121/232
# tx t=028.745s 10210040#0D00000000000000 note=RPM sweep progress indicator 51.9% full_index=121/232 target 52 kmh via confirmed 10210040 byte0=0x0D
(1780180663.054000) can0 102C0040#803C96B503
(1780180663.054000) can0 102CA040#000000000C800F00
(1780180663.054000) can0 10210040#0D00000000000000
# tx t=028.777s 102CA040#000000000C800F00 note=102CA040 body/DIC status rpm-word offset 4: 800 rpm raw 0x0C80; full_index=121/232
(1780180663.086000) can0 102CA040#000000000C800F00
# tx t=028.809s 102CA040#000000000C800F00 note=102CA040 body/DIC status rpm-word offset 4: 800 rpm raw 0x0C80; full_index=121/232
(1780180663.117000) can0 102CA040#000000000C800F00
# tx t=028.841s 13FFE040# note=rpm word sweep baseline BCM/source 0x40 presence
# tx t=028.841s 102C0040#803C96B503 note=rpm word sweep baseline ignition/power-mode key-on context
# tx t=028.841s 102CA040#000000000C800F00 note=102CA040 body/DIC status rpm-word offset 4: 800 rpm raw 0x0C80; full_index=121/232
# tx t=028.841s 10210040#0D00000000000000 note=RPM sweep progress indicator 51.9% full_index=121/232 target 52 kmh via confirmed 10210040 byte0=0x0D
(1780180663.150000) can0 13FFE040#
(1780180663.150000) can0 102C0040#803C96B503
(1780180663.150000) can0 102CA040#000000000C800F00
(1780180663.152000) can0 10210040#0D00000000000000
# tx t=028.873s 102CC040#0000400000000000 note=rpm word sweep baseline confirmed speed-valid prerequisite
# tx t=028.873s 102CA040#000000000C800F00 note=102CA040 body/DIC status rpm-word offset 4: 800 rpm raw 0x0C80; full_index=121/232
(1780180663.182000) can0 102CC040#0000400000000000
(1780180663.182000) can0 102CA040#000000000C800F00
# tx t=028.905s 102CA040#000000000C800F00 note=102CA040 body/DIC status rpm-word offset 4: 800 rpm raw 0x0C80; full_index=121/232
(1780180663.214000) can0 13FFE060#
(1780180663.214000) can0 102CA040#000000000C800F00
# tx t=028.937s 102C0040#803C96B503 note=rpm word sweep baseline ignition/power-mode key-on context
# tx t=028.937s 102CA040#000000000C800F00 note=102CA040 body/DIC status rpm-word offset 4: 800 rpm raw 0x0C80; full_index=121/232
# tx t=028.938s 10210040#0D00000000000000 note=RPM sweep progress indicator 51.9% full_index=121/232 target 52 kmh via confirmed 10210040 byte0=0x0D
(1780180663.246000) can0 102C0040#803C96B503
(1780180663.246000) can0 102CA040#000000000C800F00
(1780180663.246000) can0 10210040#0D00000000000000
# tx t=028.969s 102CA040#000000000C800F00 note=102CA040 body/DIC status rpm-word offset 4: 800 rpm raw 0x0C80; full_index=121/232
(1780180663.278000) can0 102CA040#000000000C800F00
# tx t=029.001s 102CA040#000000000C800F00 note=102CA040 body/DIC status rpm-word offset 4: 800 rpm raw 0x0C80; full_index=121/232
(1780180663.310000) can0 102CA040#000000000C800F00
# tx t=029.033s 102C0040#803C96B503 note=rpm word sweep baseline ignition/power-mode key-on context
# tx t=029.033s 102CA040#000000000C800F00 note=102CA040 body/DIC status rpm-word offset 4: 800 rpm raw 0x0C80; full_index=121/232
# tx t=029.034s 10210040#0D00000000000000 note=RPM sweep progress indicator 51.9% full_index=121/232 target 52 kmh via confirmed 10210040 byte0=0x0D
(1780180663.342000) can0 102C0040#803C96B503
(1780180663.342000) can0 102CA040#000000000C800F00
(1780180663.342000) can0 10210040#0D00000000000000
# tx t=029.065s 102CA040#000000000C800F00 note=102CA040 body/DIC status rpm-word offset 4: 800 rpm raw 0x0C80; full_index=121/232
(1780180663.374000) can0 102CA040#000000000C800F00
# tx t=029.097s 102CA040#000000000C800F00 note=102CA040 body/DIC status rpm-word offset 4: 800 rpm raw 0x0C80; full_index=121/232
(1780180663.406000) can0 102CA040#000000000C800F00
# tx t=029.129s 102C0040#803C96B503 note=rpm word sweep baseline ignition/power-mode key-on context
# tx t=029.130s 10242040#02 note=rpm word sweep baseline key second-turn sub-state
# tx t=029.130s 102CC040#0000400000000000 note=rpm word sweep baseline confirmed speed-valid prerequisite
# tx t=029.130s 102CA040#000000000C800F00 note=102CA040 body/DIC status rpm-word offset 4: 800 rpm raw 0x0C80; full_index=121/232
# tx t=029.130s 10210040#0D00000000000000 note=RPM sweep progress indicator 51.9% full_index=121/232 target 52 kmh via confirmed 10210040 byte0=0x0D
(1780180663.438000) can0 102C0040#803C96B503
(1780180663.439000) can0 10242040#02
(1780180663.439000) can0 102CC040#0000400000000000
(1780180663.441000) can0 102CA040#000000000C800F00
(1780180663.444000) can0 10210040#0D00000000000000
# rpm-window-end t=029.161s full_index=121/232 upper_index=5/116 active=102CA040#000000000C800F00 reason=completed
# rpm-window-start t=029.161s full_index=122/232 upper_index=6/116 active=102CA040#0000000012C00F00 note=102CA040 body/DIC status rpm-word offset 4: 1200 rpm raw 0x12C0; full_index=122/232
# tx t=029.162s 102CA040#0000000012C00F00 note=102CA040 body/DIC status rpm-word offset 4: 1200 rpm raw 0x12C0; full_index=122/232
(1780180663.470000) can0 102CA040#0000000012C00F00
# tx t=029.193s 102CA040#0000000012C00F00 note=102CA040 body/DIC status rpm-word offset 4: 1200 rpm raw 0x12C0; full_index=122/232
(1780180663.502000) can0 102CA040#0000000012C00F00
# tx t=029.225s 102C0040#803C96B503 note=rpm word sweep baseline ignition/power-mode key-on context
# tx t=029.226s 10754040#040400 note=rpm word sweep baseline key-present/key-on context
# tx t=029.226s 102CA040#0000000012C00F00 note=102CA040 body/DIC status rpm-word offset 4: 1200 rpm raw 0x12C0; full_index=122/232
# tx t=029.226s 10210040#0D00000000000000 note=RPM sweep progress indicator 52.4% full_index=122/232 target 52 kmh via confirmed 10210040 byte0=0x0D
(1780180663.534000) can0 102C0040#803C96B503
(1780180663.534000) can0 10754040#040400
(1780180663.535000) can0 102CA040#0000000012C00F00
(1780180663.537000) can0 10210040#0D00000000000000
# tx t=029.257s 102CA040#0000000012C00F00 note=102CA040 body/DIC status rpm-word offset 4: 1200 rpm raw 0x12C0; full_index=122/232
(1780180663.566000) can0 102CA040#0000000012C00F00
# tx t=029.288s 102CA040#0000000012C00F00 note=102CA040 body/DIC status rpm-word offset 4: 1200 rpm raw 0x12C0; full_index=122/232
(1780180663.597000) can0 102CA040#0000000012C00F00
# tx t=029.320s 102C0040#803C96B503 note=rpm word sweep baseline ignition/power-mode key-on context
# tx t=029.321s 102CA040#0000000012C00F00 note=102CA040 body/DIC status rpm-word offset 4: 1200 rpm raw 0x12C0; full_index=122/232
# tx t=029.321s 10210040#0D00000000000000 note=RPM sweep progress indicator 52.4% full_index=122/232 target 52 kmh via confirmed 10210040 byte0=0x0D
(1780180663.629000) can0 102C0040#803C96B503
(1780180663.629000) can0 102CA040#0000000012C00F00
(1780180663.629000) can0 10210040#0D00000000000000
# tx t=029.353s 102CA040#0000000012C00F00 note=102CA040 body/DIC status rpm-word offset 4: 1200 rpm raw 0x12C0; full_index=122/232
(1780180663.661000) can0 102CA040#0000000012C00F00
# tx t=029.385s 102CC040#0000400000000000 note=rpm word sweep baseline confirmed speed-valid prerequisite
# tx t=029.385s 102CA040#0000000012C00F00 note=102CA040 body/DIC status rpm-word offset 4: 1200 rpm raw 0x12C0; full_index=122/232
(1780180663.693000) can0 102CC040#0000400000000000
(1780180663.693000) can0 102CA040#0000000012C00F00
# tx t=029.417s 102CA040#0000000012C00F00 note=102CA040 body/DIC status rpm-word offset 4: 1200 rpm raw 0x12C0; full_index=122/232
(1780180663.725000) can0 102CA040#0000000012C00F00
# tx t=029.449s 102C0040#803C96B503 note=rpm word sweep baseline ignition/power-mode key-on context
# tx t=029.449s 102CA040#0000000012C00F00 note=102CA040 body/DIC status rpm-word offset 4: 1200 rpm raw 0x12C0; full_index=122/232
# tx t=029.449s 10210040#0D00000000000000 note=RPM sweep progress indicator 52.4% full_index=122/232 target 52 kmh via confirmed 10210040 byte0=0x0D
(1780180663.758000) can0 102C0040#803C96B503
(1780180663.758000) can0 102CA040#0000000012C00F00
(1780180663.758000) can0 10210040#0D00000000000000
# tx t=029.481s 102CA040#0000000012C00F00 note=102CA040 body/DIC status rpm-word offset 4: 1200 rpm raw 0x12C0; full_index=122/232
(1780180663.789000) can0 102CA040#0000000012C00F00
# tx t=029.513s 102CA040#0000000012C00F00 note=102CA040 body/DIC status rpm-word offset 4: 1200 rpm raw 0x12C0; full_index=122/232
(1780180663.821000) can0 102CA040#0000000012C00F00
# tx t=029.545s 102C0040#803C96B503 note=rpm word sweep baseline ignition/power-mode key-on context
# tx t=029.545s 102CA040#0000000012C00F00 note=102CA040 body/DIC status rpm-word offset 4: 1200 rpm raw 0x12C0; full_index=122/232
# tx t=029.545s 10210040#0D00000000000000 note=RPM sweep progress indicator 52.4% full_index=122/232 target 52 kmh via confirmed 10210040 byte0=0x0D
(1780180663.854000) can0 102C0040#803C96B503
(1780180663.854000) can0 102CA040#0000000012C00F00
(1780180663.854000) can0 10210040#0D00000000000000
# tx t=029.576s 102CA040#0000000012C00F00 note=102CA040 body/DIC status rpm-word offset 4: 1200 rpm raw 0x12C0; full_index=122/232
(1780180663.884000) can0 102CA040#0000000012C00F00
# tx t=029.608s 102CA040#0000000012C00F00 note=102CA040 body/DIC status rpm-word offset 4: 1200 rpm raw 0x12C0; full_index=122/232
(1780180663.916000) can0 102CA040#0000000012C00F00
# tx t=029.639s 621#0052000000000000 note=rpm word sweep baseline key-on 621 keepalive
# tx t=029.640s 102C0040#803C96B503 note=rpm word sweep baseline ignition/power-mode key-on context
# tx t=029.640s 102CC040#0000400000000000 note=rpm word sweep baseline confirmed speed-valid prerequisite
# tx t=029.640s 102CA040#0000000012C00F00 note=102CA040 body/DIC status rpm-word offset 4: 1200 rpm raw 0x12C0; full_index=122/232
# tx t=029.640s 10210040#0D00000000000000 note=RPM sweep progress indicator 52.4% full_index=122/232 target 52 kmh via confirmed 10210040 byte0=0x0D
(1780180663.948000) can0 621#0052000000000000
(1780180663.949000) can0 102C0040#803C96B503
(1780180663.949000) can0 102CC040#0000400000000000
(1780180663.951000) can0 102CA040#0000000012C00F00
(1780180663.955000) can0 10210040#0D00000000000000
# tx t=029.671s 102CA040#0000000012C00F00 note=102CA040 body/DIC status rpm-word offset 4: 1200 rpm raw 0x12C0; full_index=122/232
(1780180663.980000) can0 102CA040#0000000012C00F00
# tx t=029.703s 102CA040#0000000012C00F00 note=102CA040 body/DIC status rpm-word offset 4: 1200 rpm raw 0x12C0; full_index=122/232
(1780180664.012000) can0 102CA040#0000000012C00F00
# tx t=029.735s 102C0040#803C96B503 note=rpm word sweep baseline ignition/power-mode key-on context
# tx t=029.735s 102CA040#0000000012C00F00 note=102CA040 body/DIC status rpm-word offset 4: 1200 rpm raw 0x12C0; full_index=122/232
# tx t=029.735s 10210040#0D00000000000000 note=RPM sweep progress indicator 52.4% full_index=122/232 target 52 kmh via confirmed 10210040 byte0=0x0D
(1780180664.044000) can0 102C0040#803C96B503
(1780180664.044000) can0 102CA040#0000000012C00F00
(1780180664.044000) can0 10210040#0D00000000000000
# tx t=029.767s 102CA040#0000000012C00F00 note=102CA040 body/DIC status rpm-word offset 4: 1200 rpm raw 0x12C0; full_index=122/232
(1780180664.075000) can0 102CA040#0000000012C00F00
# tx t=029.797s 102CA040#0000000012C00F00 note=102CA040 body/DIC status rpm-word offset 4: 1200 rpm raw 0x12C0; full_index=122/232
(1780180664.105000) can0 102CA040#0000000012C00F00
# tx t=029.828s 102C0040#803C96B503 note=rpm word sweep baseline ignition/power-mode key-on context
# tx t=029.828s 102CA040#0000000012C00F00 note=102CA040 body/DIC status rpm-word offset 4: 1200 rpm raw 0x12C0; full_index=122/232
# tx t=029.828s 10210040#0D00000000000000 note=RPM sweep progress indicator 52.4% full_index=122/232 target 52 kmh via confirmed 10210040 byte0=0x0D
(1780180664.137000) can0 102C0040#803C96B503
(1780180664.137000) can0 102CA040#0000000012C00F00
(1780180664.137000) can0 10210040#0D00000000000000
# tx t=029.860s 102CA040#0000000012C00F00 note=102CA040 body/DIC status rpm-word offset 4: 1200 rpm raw 0x12C0; full_index=122/232
(1780180664.168000) can0 102CA040#0000000012C00F00
# tx t=029.892s 102CC040#0000400000000000 note=rpm word sweep baseline confirmed speed-valid prerequisite
# tx t=029.892s 102CA040#0000000012C00F00 note=102CA040 body/DIC status rpm-word offset 4: 1200 rpm raw 0x12C0; full_index=122/232
(1780180664.201000) can0 102CC040#0000400000000000
(1780180664.201000) can0 102CA040#0000000012C00F00
# tx t=029.924s 102C0040#803C96B503 note=rpm word sweep baseline ignition/power-mode key-on context
# tx t=029.924s 102CA040#0000000012C00F00 note=102CA040 body/DIC status rpm-word offset 4: 1200 rpm raw 0x12C0; full_index=122/232
# tx t=029.924s 10210040#0D00000000000000 note=RPM sweep progress indicator 52.4% full_index=122/232 target 52 kmh via confirmed 10210040 byte0=0x0D
(1780180664.233000) can0 102C0040#803C96B503
(1780180664.233000) can0 102CA040#0000000012C00F00
(1780180664.233000) can0 10210040#0D00000000000000
# tx t=029.956s 102CA040#0000000012C00F00 note=102CA040 body/DIC status rpm-word offset 4: 1200 rpm raw 0x12C0; full_index=122/232
(1780180664.265000) can0 102CA040#0000000012C00F00
# tx t=029.988s 102CA040#0000000012C00F00 note=102CA040 body/DIC status rpm-word offset 4: 1200 rpm raw 0x12C0; full_index=122/232
(1780180664.297000) can0 102CA040#0000000012C00F00
# tx t=030.020s 13FFE040# note=rpm word sweep baseline BCM/source 0x40 presence
# tx t=030.021s 102C0040#803C96B503 note=rpm word sweep baseline ignition/power-mode key-on context
# tx t=030.021s 102CA040#0000000012C00F00 note=102CA040 body/DIC status rpm-word offset 4: 1200 rpm raw 0x12C0; full_index=122/232
# tx t=030.021s 10210040#0D00000000000000 note=RPM sweep progress indicator 52.4% full_index=122/232 target 52 kmh via confirmed 10210040 byte0=0x0D
(1780180664.329000) can0 13FFE040#
(1780180664.330000) can0 102C0040#803C96B503
(1780180664.330000) can0 102CA040#0000000012C00F00
(1780180664.331000) can0 10210040#0D00000000000000
# tx t=030.052s 102CA040#0000000012C00F00 note=102CA040 body/DIC status rpm-word offset 4: 1200 rpm raw 0x12C0; full_index=122/232
(1780180664.361000) can0 102CA040#0000000012C00F00
# tx t=030.084s 102CA040#0000000012C00F00 note=102CA040 body/DIC status rpm-word offset 4: 1200 rpm raw 0x12C0; full_index=122/232
(1780180664.393000) can0 102CA040#0000000012C00F00
(1780180664.405000) can0 13FFE060#
# tx t=030.116s 102CA040#0000000012C00F00 note=102CA040 body/DIC status rpm-word offset 4: 1200 rpm raw 0x12C0; full_index=122/232
(1780180664.425000) can0 102CA040#0000000012C00F00
# tx t=030.148s 102C0040#803C96B503 note=rpm word sweep baseline ignition/power-mode key-on context
# tx t=030.148s 10242040#02 note=rpm word sweep baseline key second-turn sub-state
# tx t=030.149s 102CC040#0000400000000000 note=rpm word sweep baseline confirmed speed-valid prerequisite
# tx t=030.149s 102CA040#0000000012C00F00 note=102CA040 body/DIC status rpm-word offset 4: 1200 rpm raw 0x12C0; full_index=122/232
# tx t=030.149s 10210040#0D00000000000000 note=RPM sweep progress indicator 52.4% full_index=122/232 target 52 kmh via confirmed 10210040 byte0=0x0D
(1780180664.457000) can0 102C0040#803C96B503
(1780180664.458000) can0 10242040#02
(1780180664.458000) can0 102CC040#0000400000000000
(1780180664.460000) can0 102CA040#0000000012C00F00
(1780180664.462000) can0 10210040#0D00000000000000
# tx t=030.180s 102CA040#0000000012C00F00 note=102CA040 body/DIC status rpm-word offset 4: 1200 rpm raw 0x12C0; full_index=122/232
(1780180664.489000) can0 102CA040#0000000012C00F00
# tx t=030.212s 102CA040#0000000012C00F00 note=102CA040 body/DIC status rpm-word offset 4: 1200 rpm raw 0x12C0; full_index=122/232
(1780180664.521000) can0 102CA040#0000000012C00F00
# tx t=030.244s 102C0040#803C96B503 note=rpm word sweep baseline ignition/power-mode key-on context
# tx t=030.245s 10754040#040400 note=rpm word sweep baseline key-present/key-on context
# tx t=030.245s 102CA040#0000000012C00F00 note=102CA040 body/DIC status rpm-word offset 4: 1200 rpm raw 0x12C0; full_index=122/232
# tx t=030.245s 10210040#0D00000000000000 note=RPM sweep progress indicator 52.4% full_index=122/232 target 52 kmh via confirmed 10210040 byte0=0x0D
(1780180664.553000) can0 102C0040#803C96B503
(1780180664.553000) can0 10754040#040400
(1780180664.554000) can0 102CA040#0000000012C00F00
(1780180664.556000) can0 10210040#0D00000000000000
# tx t=030.276s 102CA040#0000000012C00F00 note=102CA040 body/DIC status rpm-word offset 4: 1200 rpm raw 0x12C0; full_index=122/232
(1780180664.585000) can0 102CA040#0000000012C00F00
# tx t=030.308s 102CA040#0000000012C00F00 note=102CA040 body/DIC status rpm-word offset 4: 1200 rpm raw 0x12C0; full_index=122/232
(1780180664.617000) can0 102CA040#0000000012C00F00
# tx t=030.340s 102C0040#803C96B503 note=rpm word sweep baseline ignition/power-mode key-on context
# tx t=030.340s 102CA040#0000000012C00F00 note=102CA040 body/DIC status rpm-word offset 4: 1200 rpm raw 0x12C0; full_index=122/232
# tx t=030.340s 10210040#0D00000000000000 note=RPM sweep progress indicator 52.4% full_index=122/232 target 52 kmh via confirmed 10210040 byte0=0x0D
(1780180664.648000) can0 102C0040#803C96B503
(1780180664.649000) can0 102CA040#0000000012C00F00
(1780180664.649000) can0 10210040#0D00000000000000
# tx t=030.372s 102CC040#0000400000000000 note=rpm word sweep baseline confirmed speed-valid prerequisite
# tx t=030.372s 102CA040#0000000012C00F00 note=102CA040 body/DIC status rpm-word offset 4: 1200 rpm raw 0x12C0; full_index=122/232
(1780180664.680000) can0 102CC040#0000400000000000
(1780180664.680000) can0 102CA040#0000000012C00F00
# tx t=030.404s 102CA040#0000000012C00F00 note=102CA040 body/DIC status rpm-word offset 4: 1200 rpm raw 0x12C0; full_index=122/232
(1780180664.712000) can0 102CA040#0000000012C00F00
# tx t=030.435s 102C0040#803C96B503 note=rpm word sweep baseline ignition/power-mode key-on context
# tx t=030.435s 102CA040#0000000012C00F00 note=102CA040 body/DIC status rpm-word offset 4: 1200 rpm raw 0x12C0; full_index=122/232
# tx t=030.435s 10210040#0D00000000000000 note=RPM sweep progress indicator 52.4% full_index=122/232 target 52 kmh via confirmed 10210040 byte0=0x0D
(1780180664.744000) can0 102C0040#803C96B503
(1780180664.744000) can0 102CA040#0000000012C00F00
(1780180664.744000) can0 10210040#0D00000000000000
# tx t=030.467s 102CA040#0000000012C00F00 note=102CA040 body/DIC status rpm-word offset 4: 1200 rpm raw 0x12C0; full_index=122/232
(1780180664.775000) can0 102CA040#0000000012C00F00
# tx t=030.499s 102CA040#0000000012C00F00 note=102CA040 body/DIC status rpm-word offset 4: 1200 rpm raw 0x12C0; full_index=122/232
(1780180664.807000) can0 102CA040#0000000012C00F00
# tx t=030.530s 102C0040#803C96B503 note=rpm word sweep baseline ignition/power-mode key-on context
# tx t=030.531s 102CA040#0000000012C00F00 note=102CA040 body/DIC status rpm-word offset 4: 1200 rpm raw 0x12C0; full_index=122/232
# tx t=030.531s 10210040#0D00000000000000 note=RPM sweep progress indicator 52.4% full_index=122/232 target 52 kmh via confirmed 10210040 byte0=0x0D
(1780180664.839000) can0 102C0040#803C96B503
(1780180664.839000) can0 102CA040#0000000012C00F00
(1780180664.840000) can0 10210040#0D00000000000000
# tx t=030.563s 102CA040#0000000012C00F00 note=102CA040 body/DIC status rpm-word offset 4: 1200 rpm raw 0x12C0; full_index=122/232
(1780180664.871000) can0 102CA040#0000000012C00F00
# tx t=030.594s 102CA040#0000000012C00F00 note=102CA040 body/DIC status rpm-word offset 4: 1200 rpm raw 0x12C0; full_index=122/232
(1780180664.903000) can0 102CA040#0000000012C00F00
# tx t=030.626s 621#0052000000000000 note=rpm word sweep baseline key-on 621 keepalive
# tx t=030.626s 102C0040#803C96B503 note=rpm word sweep baseline ignition/power-mode key-on context
# tx t=030.626s 102CC040#0000400000000000 note=rpm word sweep baseline confirmed speed-valid prerequisite
# tx t=030.626s 102CA040#0000000012C00F00 note=102CA040 body/DIC status rpm-word offset 4: 1200 rpm raw 0x12C0; full_index=122/232
# tx t=030.626s 10210040#0D00000000000000 note=RPM sweep progress indicator 52.4% full_index=122/232 target 52 kmh via confirmed 10210040 byte0=0x0D
(1780180664.935000) can0 621#0052000000000000
(1780180664.935000) can0 102C0040#803C96B503
(1780180664.935000) can0 102CC040#0000400000000000
(1780180664.938000) can0 102CA040#0000000012C00F00
(1780180664.941000) can0 10210040#0D00000000000000
# tx t=030.658s 102CA040#0000000012C00F00 note=102CA040 body/DIC status rpm-word offset 4: 1200 rpm raw 0x12C0; full_index=122/232
(1780180664.967000) can0 102CA040#0000000012C00F00
# rpm-window-end t=030.690s full_index=122/232 upper_index=6/116 active=102CA040#0000000012C00F00 reason=completed
# rpm-window-start t=030.690s full_index=123/232 upper_index=7/116 active=102CA040#000000001F400F00 note=102CA040 body/DIC status rpm-word offset 4: 2000 rpm raw 0x1F40; full_index=123/232
# tx t=030.690s 102CA040#000000001F400F00 note=102CA040 body/DIC status rpm-word offset 4: 2000 rpm raw 0x1F40; full_index=123/232
(1780180664.999000) can0 102CA040#000000001F400F00
(1780180665.007000) can0 62C#0040000000000000
# tx t=030.722s 102C0040#803C96B503 note=rpm word sweep baseline ignition/power-mode key-on context
# tx t=030.722s 102CA040#000000001F400F00 note=102CA040 body/DIC status rpm-word offset 4: 2000 rpm raw 0x1F40; full_index=123/232
# tx t=030.722s 10210040#0D00000000000000 note=RPM sweep progress indicator 52.8% full_index=123/232 target 53 kmh via confirmed 10210040 byte0=0x0D
(1780180665.031000) can0 102C0040#803C96B503
(1780180665.031000) can0 102CA040#000000001F400F00
(1780180665.031000) can0 10210040#0D00000000000000
# tx t=030.754s 102CA040#000000001F400F00 note=102CA040 body/DIC status rpm-word offset 4: 2000 rpm raw 0x1F40; full_index=123/232
(1780180665.063000) can0 102CA040#000000001F400F00
# tx t=030.786s 102CA040#000000001F400F00 note=102CA040 body/DIC status rpm-word offset 4: 2000 rpm raw 0x1F40; full_index=123/232
(1780180665.094000) can0 102CA040#000000001F400F00
# tx t=030.818s 102CA040#000000001F400F00 note=102CA040 body/DIC status rpm-word offset 4: 2000 rpm raw 0x1F40; full_index=123/232
(1780180665.126000) can0 102CA040#000000001F400F00
# tx t=030.850s 102C0040#803C96B503 note=rpm word sweep baseline ignition/power-mode key-on context
# tx t=030.850s 102CA040#000000001F400F00 note=102CA040 body/DIC status rpm-word offset 4: 2000 rpm raw 0x1F40; full_index=123/232
# tx t=030.850s 10210040#0D00000000000000 note=RPM sweep progress indicator 52.8% full_index=123/232 target 53 kmh via confirmed 10210040 byte0=0x0D
(1780180665.159000) can0 102C0040#803C96B503
(1780180665.159000) can0 102CA040#000000001F400F00
(1780180665.159000) can0 10210040#0D00000000000000
# tx t=030.882s 102CC040#0000400000000000 note=rpm word sweep baseline confirmed speed-valid prerequisite
# tx t=030.882s 102CA040#000000001F400F00 note=102CA040 body/DIC status rpm-word offset 4: 2000 rpm raw 0x1F40; full_index=123/232
(1780180665.191000) can0 102CC040#0000400000000000
(1780180665.191000) can0 102CA040#000000001F400F00
# tx t=030.914s 102CA040#000000001F400F00 note=102CA040 body/DIC status rpm-word offset 4: 2000 rpm raw 0x1F40; full_index=123/232
(1780180665.223000) can0 102CA040#000000001F400F00
# tx t=030.946s 102C0040#803C96B503 note=rpm word sweep baseline ignition/power-mode key-on context
# tx t=030.946s 102CA040#000000001F400F00 note=102CA040 body/DIC status rpm-word offset 4: 2000 rpm raw 0x1F40; full_index=123/232
# tx t=030.946s 10210040#0D00000000000000 note=RPM sweep progress indicator 52.8% full_index=123/232 target 53 kmh via confirmed 10210040 byte0=0x0D
(1780180665.255000) can0 102C0040#803C96B503
(1780180665.255000) can0 102CA040#000000001F400F00
(1780180665.255000) can0 10210040#0D00000000000000
