# cantool ipc-rpm-word-sweep TX/RX capture bitrate=33333.333 fclk=170000000 brp=255 prop=1 phase1=13 phase2=5 sjw=4
# rpm-word-sweep mode=interactive upper_half=false full_sweep=true full_candidates=232 active_candidates=232 first_full_index=1 active_period_ms=20 hold_ms=1500
# rpm-word-sweep progress_indicator id=10210040 period_ms=100 display=0-100kmh note=uses confirmed 10210040 speedometer feed
# mark keys: m/space=manual event, b=bad/restart/disruptive, n=skip, p=pause/resume, q=quit
# rpm-window-start t=016.966s full_index=1/232 upper_index=1/232 active=10220040#0C80000040080000 note=10220040 body/status speed-limiter-adjacent rpm-word offset 0: 800 rpm raw 0x0C80; full_index=1/232
# tx t=016.971s 100# note=rpm word sweep baseline SWCAN wake pulse
# tx t=016.971s 13FFE040# note=rpm word sweep baseline BCM/source 0x40 presence
# tx t=016.971s 621#0052000000000000 note=rpm word sweep baseline key-on 621 keepalive
# tx t=016.971s 102C0040#803C96B503 note=rpm word sweep baseline ignition/power-mode key-on context
# tx t=016.971s 102CC040#0000400000000000 note=rpm word sweep baseline confirmed speed-valid prerequisite
# tx t=016.972s 10220040#0C80000040080000 note=10220040 body/status speed-limiter-adjacent rpm-word offset 0: 800 rpm raw 0x0C80; full_index=1/232
# tx t=016.972s 10210040#0000000000000000 note=RPM sweep progress indicator 0.0% full_index=1/232 target 0 kmh via confirmed 10210040 byte0=0x00
(1780181219.638000) can0 100#
(1780181219.639000) can0 13FFE040#
(1780181219.639000) can0 621#0052000000000000
(1780181219.639000) can0 102C0040#803C96B503
(1780181219.640000) can0 102CC040#0000400000000000
(1780181219.643000) can0 10220040#0C80000040080000
# tx t=016.997s 10220040#0C80000040080000 note=10220040 body/status speed-limiter-adjacent rpm-word offset 0: 800 rpm raw 0x0C80; full_index=1/232
(1780181219.663000) can0 10210040#0000000000000000
(1780181219.663000) can0 10220040#0C80000040080000
(1780181219.663000) can0 10244060#02
(1780181219.669000) can0 103BC060#00
(1780181219.672000) can0 1045C060#40
(1780181219.676000) can0 10ACE060#1E00200000000000
(1780181219.679000) can0 10308060#000002
(1780181219.683000) can0 10AE8060#030E010104050000
(1780181219.686000) can0 103D6060#00
(1780181219.688000) can0 103DA060#00
(1780181219.691000) can0 10812060#00
# tx t=017.043s 10220040#0C80000040080000 note=10220040 body/status speed-limiter-adjacent rpm-word offset 0: 800 rpm raw 0x0C80; full_index=1/232
(1780181219.709000) can0 1084A060#00
(1780181219.709000) can0 13FFE060#
(1780181219.709000) can0 10220040#0C80000040080000
(1780181219.717000) can0 62C#0152000000000000
(1780181219.721000) can0 10AE8060#0016010800000000
# tx t=017.075s 102C0040#803C96B503 note=rpm word sweep baseline ignition/power-mode key-on context
# tx t=017.075s 10220040#0C80000040080000 note=10220040 body/status speed-limiter-adjacent rpm-word offset 0: 800 rpm raw 0x0C80; full_index=1/232
# tx t=017.075s 10210040#0000000000000000 note=RPM sweep progress indicator 0.0% full_index=1/232 target 0 kmh via confirmed 10210040 byte0=0x00
(1780181219.741000) can0 10424060#079964
(1780181219.741000) can0 102C0040#803C96B503
(1780181219.742000) can0 10220040#0C80000040080000
(1780181219.742000) can0 10210040#0000000000000000
# tx t=017.107s 10220040#0C80000040080000 note=10220040 body/status speed-limiter-adjacent rpm-word offset 0: 800 rpm raw 0x0C80; full_index=1/232
(1780181219.773000) can0 10220040#0C80000040080000
(1780181219.787000) can0 10ACE060#2B00000000000000
# tx t=017.138s 10220040#0C80000040080000 note=10220040 body/status speed-limiter-adjacent rpm-word offset 0: 800 rpm raw 0x0C80; full_index=1/232
(1780181219.804000) can0 10220040#0C80000040080000
(1780181219.807000) can0 10AFC060#38FFFFFFFFFFFF2B
# tx t=017.170s 102C0040#803C96B503 note=rpm word sweep baseline ignition/power-mode key-on context
# tx t=017.170s 10220040#0C80000040080000 note=10220040 body/status speed-limiter-adjacent rpm-word offset 0: 800 rpm raw 0x0C80; full_index=1/232
# tx t=017.170s 10210040#0000000000000000 note=RPM sweep progress indicator 0.0% full_index=1/232 target 0 kmh via confirmed 10210040 byte0=0x00
(1780181219.836000) can0 102C0040#803C96B503
(1780181219.837000) can0 10220040#0C80000040080000
(1780181219.837000) can0 10210040#0000000000000000
# tx t=017.202s 10220040#0C80000040080000 note=10220040 body/status speed-limiter-adjacent rpm-word offset 0: 800 rpm raw 0x0C80; full_index=1/232
(1780181219.868000) can0 10220040#0C80000040080000
# tx t=017.234s 102CC040#0000400000000000 note=rpm word sweep baseline confirmed speed-valid prerequisite
# tx t=017.234s 10220040#0C80000040080000 note=10220040 body/status speed-limiter-adjacent rpm-word offset 0: 800 rpm raw 0x0C80; full_index=1/232
(1780181219.900000) can0 102CC040#0000400000000000
(1780181219.900000) can0 10220040#0C80000040080000
# tx t=017.266s 102C0040#803C96B503 note=rpm word sweep baseline ignition/power-mode key-on context
# tx t=017.266s 10220040#0C80000040080000 note=10220040 body/status speed-limiter-adjacent rpm-word offset 0: 800 rpm raw 0x0C80; full_index=1/232
# tx t=017.266s 10210040#0000000000000000 note=RPM sweep progress indicator 0.0% full_index=1/232 target 0 kmh via confirmed 10210040 byte0=0x00
(1780181219.932000) can0 102C0040#803C96B503
(1780181219.932000) can0 10220040#0C80000040080000
(1780181219.933000) can0 10210040#0000000000000000
# tx t=017.298s 10220040#0C80000040080000 note=10220040 body/status speed-limiter-adjacent rpm-word offset 0: 800 rpm raw 0x0C80; full_index=1/232
(1780181219.964000) can0 10220040#0C80000040080000
(1780181219.967000) can0 10600060#0160B902005B00
# tx t=017.330s 10220040#0C80000040080000 note=10220040 body/status speed-limiter-adjacent rpm-word offset 0: 800 rpm raw 0x0C80; full_index=1/232
(1780181219.996000) can0 10220040#0C80000040080000
# tx t=017.362s 10220040#0C80000040080000 note=10220040 body/status speed-limiter-adjacent rpm-word offset 0: 800 rpm raw 0x0C80; full_index=1/232
(1780181220.028000) can0 10220040#0C80000040080000
# tx t=017.394s 102C0040#803C96B503 note=rpm word sweep baseline ignition/power-mode key-on context
# tx t=017.394s 10220040#0C80000040080000 note=10220040 body/status speed-limiter-adjacent rpm-word offset 0: 800 rpm raw 0x0C80; full_index=1/232
# tx t=017.395s 10210040#0000000000000000 note=RPM sweep progress indicator 0.0% full_index=1/232 target 0 kmh via confirmed 10210040 byte0=0x00
(1780181220.061000) can0 102C0040#803C96B503
(1780181220.061000) can0 10220040#0C80000040080000
(1780181220.061000) can0 10210040#0000000000000000
# tx t=017.426s 10220040#0C80000040080000 note=10220040 body/status speed-limiter-adjacent rpm-word offset 0: 800 rpm raw 0x0C80; full_index=1/232
(1780181220.092000) can0 10220040#0C80000040080000
# tx t=017.458s 10220040#0C80000040080000 note=10220040 body/status speed-limiter-adjacent rpm-word offset 0: 800 rpm raw 0x0C80; full_index=1/232
(1780181220.124000) can0 10220040#0C80000040080000
# tx t=017.490s 102C0040#803C96B503 note=rpm word sweep baseline ignition/power-mode key-on context
# tx t=017.490s 10242040#02 note=rpm word sweep baseline key second-turn sub-state
# tx t=017.491s 102CC040#0000400000000000 note=rpm word sweep baseline confirmed speed-valid prerequisite
# tx t=017.491s 10220040#0C80000040080000 note=10220040 body/status speed-limiter-adjacent rpm-word offset 0: 800 rpm raw 0x0C80; full_index=1/232
# tx t=017.491s 10210040#0000000000000000 note=RPM sweep progress indicator 0.0% full_index=1/232 target 0 kmh via confirmed 10210040 byte0=0x00
(1780181220.157000) can0 102C0040#803C96B503
(1780181220.157000) can0 10242040#02
(1780181220.157000) can0 102CC040#0000400000000000
(1780181220.159000) can0 10220040#0C80000040080000
(1780181220.162000) can0 10210040#0000000000000000
# tx t=017.522s 10220040#0C80000040080000 note=10220040 body/status speed-limiter-adjacent rpm-word offset 0: 800 rpm raw 0x0C80; full_index=1/232
(1780181220.188000) can0 10244060#02
(1780181220.189000) can0 10220040#0C80000040080000
# tx t=017.554s 10220040#0C80000040080000 note=10220040 body/status speed-limiter-adjacent rpm-word offset 0: 800 rpm raw 0x0C80; full_index=1/232
(1780181220.221000) can0 10220040#0C80000040080000
# tx t=017.586s 102C0040#803C96B503 note=rpm word sweep baseline ignition/power-mode key-on context
# tx t=017.586s 10754040#040400 note=rpm word sweep baseline key-present/key-on context
# tx t=017.587s 10220040#0C80000040080000 note=10220040 body/status speed-limiter-adjacent rpm-word offset 0: 800 rpm raw 0x0C80; full_index=1/232
# tx t=017.587s 10210040#0000000000000000 note=RPM sweep progress indicator 0.0% full_index=1/232 target 0 kmh via confirmed 10210040 byte0=0x00
(1780181220.253000) can0 102C0040#803C96B503
(1780181220.253000) can0 10754040#040400
(1780181220.253000) can0 10220040#0C80000040080000
(1780181220.255000) can0 10210040#0000000000000000
# tx t=017.618s 10220040#0C80000040080000 note=10220040 body/status speed-limiter-adjacent rpm-word offset 0: 800 rpm raw 0x0C80; full_index=1/232
(1780181220.284000) can0 10220040#0C80000040080000
(1780181220.285000) can0 10244060#02
# tx t=017.650s 10220040#0C80000040080000 note=10220040 body/status speed-limiter-adjacent rpm-word offset 0: 800 rpm raw 0x0C80; full_index=1/232
(1780181220.316000) can0 10220040#0C80000040080000
# tx t=017.682s 102C0040#803C96B503 note=rpm word sweep baseline ignition/power-mode key-on context
# tx t=017.683s 10220040#0C80000040080000 note=10220040 body/status speed-limiter-adjacent rpm-word offset 0: 800 rpm raw 0x0C80; full_index=1/232
# tx t=017.683s 10210040#0000000000000000 note=RPM sweep progress indicator 0.0% full_index=1/232 target 0 kmh via confirmed 10210040 byte0=0x00
(1780181220.349000) can0 102C0040#803C96B503
(1780181220.349000) can0 10220040#0C80000040080000
(1780181220.349000) can0 10210040#0000000000000000
# tx t=017.714s 10220040#0C80000040080000 note=10220040 body/status speed-limiter-adjacent rpm-word offset 0: 800 rpm raw 0x0C80; full_index=1/232
(1780181220.380000) can0 10220040#0C80000040080000
# tx t=017.746s 102CC040#0000400000000000 note=rpm word sweep baseline confirmed speed-valid prerequisite
# tx t=017.747s 10220040#0C80000040080000 note=10220040 body/status speed-limiter-adjacent rpm-word offset 0: 800 rpm raw 0x0C80; full_index=1/232
(1780181220.413000) can0 102CC040#0000400000000000
(1780181220.413000) can0 10220040#0C80000040080000
# tx t=017.777s 102C0040#803C96B503 note=rpm word sweep baseline ignition/power-mode key-on context
# tx t=017.778s 10220040#0C80000040080000 note=10220040 body/status speed-limiter-adjacent rpm-word offset 0: 800 rpm raw 0x0C80; full_index=1/232
# tx t=017.778s 10210040#0000000000000000 note=RPM sweep progress indicator 0.0% full_index=1/232 target 0 kmh via confirmed 10210040 byte0=0x00
(1780181220.444000) can0 102C0040#803C96B503
(1780181220.444000) can0 10220040#0C80000040080000
(1780181220.444000) can0 10210040#0000000000000000
# tx t=017.809s 10220040#0C80000040080000 note=10220040 body/status speed-limiter-adjacent rpm-word offset 0: 800 rpm raw 0x0C80; full_index=1/232
(1780181220.475000) can0 10220040#0C80000040080000
# tx t=017.841s 10220040#0C80000040080000 note=10220040 body/status speed-limiter-adjacent rpm-word offset 0: 800 rpm raw 0x0C80; full_index=1/232
(1780181220.507000) can0 10220040#0C80000040080000
# tx t=017.874s 102C0040#803C96B503 note=rpm word sweep baseline ignition/power-mode key-on context
# tx t=017.874s 10220040#0C80000040080000 note=10220040 body/status speed-limiter-adjacent rpm-word offset 0: 800 rpm raw 0x0C80; full_index=1/232
# tx t=017.874s 10210040#0000000000000000 note=RPM sweep progress indicator 0.0% full_index=1/232 target 0 kmh via confirmed 10210040 byte0=0x00
(1780181220.540000) can0 102C0040#803C96B503
(1780181220.540000) can0 10220040#0C80000040080000
(1780181220.540000) can0 10210040#0000000000000000
# tx t=017.905s 10220040#0C80000040080000 note=10220040 body/status speed-limiter-adjacent rpm-word offset 0: 800 rpm raw 0x0C80; full_index=1/232
(1780181220.571000) can0 10220040#0C80000040080000
# tx t=017.938s 10220040#0C80000040080000 note=10220040 body/status speed-limiter-adjacent rpm-word offset 0: 800 rpm raw 0x0C80; full_index=1/232
(1780181220.604000) can0 10220040#0C80000040080000
# tx t=017.970s 621#0052000000000000 note=rpm word sweep baseline key-on 621 keepalive
# tx t=017.970s 102C0040#803C96B503 note=rpm word sweep baseline ignition/power-mode key-on context
# tx t=017.970s 102CC040#0000400000000000 note=rpm word sweep baseline confirmed speed-valid prerequisite
# tx t=017.970s 10220040#0C80000040080000 note=10220040 body/status speed-limiter-adjacent rpm-word offset 0: 800 rpm raw 0x0C80; full_index=1/232
# tx t=017.970s 10210040#0000000000000000 note=RPM sweep progress indicator 0.0% full_index=1/232 target 0 kmh via confirmed 10210040 byte0=0x00
(1780181220.636000) can0 621#0052000000000000
(1780181220.636000) can0 102C0040#803C96B503
(1780181220.636000) can0 102CC040#0000400000000000
(1780181220.639000) can0 10220040#0C80000040080000
(1780181220.642000) can0 10210040#0000000000000000
# tx t=018.002s 10220040#0C80000040080000 note=10220040 body/status speed-limiter-adjacent rpm-word offset 0: 800 rpm raw 0x0C80; full_index=1/232
(1780181220.668000) can0 10220040#0C80000040080000
# tx t=018.034s 10220040#0C80000040080000 note=10220040 body/status speed-limiter-adjacent rpm-word offset 0: 800 rpm raw 0x0C80; full_index=1/232
(1780181220.699000) can0 10220040#0C80000040080000
# tx t=018.066s 102C0040#803C96B503 note=rpm word sweep baseline ignition/power-mode key-on context
# tx t=018.066s 10220040#0C80000040080000 note=10220040 body/status speed-limiter-adjacent rpm-word offset 0: 800 rpm raw 0x0C80; full_index=1/232
# tx t=018.066s 10210040#0000000000000000 note=RPM sweep progress indicator 0.0% full_index=1/232 target 0 kmh via confirmed 10210040 byte0=0x00
(1780181220.732000) can0 102C0040#803C96B503
(1780181220.732000) can0 10220040#0C80000040080000
(1780181220.732000) can0 10210040#0000000000000000
# tx t=018.098s 10220040#0C80000040080000 note=10220040 body/status speed-limiter-adjacent rpm-word offset 0: 800 rpm raw 0x0C80; full_index=1/232
(1780181220.764000) can0 10220040#0C80000040080000
# tx t=018.130s 10220040#0C80000040080000 note=10220040 body/status speed-limiter-adjacent rpm-word offset 0: 800 rpm raw 0x0C80; full_index=1/232
(1780181220.796000) can0 10220040#0C80000040080000
# tx t=018.162s 10220040#0C80000040080000 note=10220040 body/status speed-limiter-adjacent rpm-word offset 0: 800 rpm raw 0x0C80; full_index=1/232
(1780181220.828000) can0 10220040#0C80000040080000
# tx t=018.194s 13FFE040# note=rpm word sweep baseline BCM/source 0x40 presence
# tx t=018.194s 102C0040#803C96B503 note=rpm word sweep baseline ignition/power-mode key-on context
# tx t=018.194s 10220040#0C80000040080000 note=10220040 body/status speed-limiter-adjacent rpm-word offset 0: 800 rpm raw 0x0C80; full_index=1/232
# tx t=018.194s 10210040#0000000000000000 note=RPM sweep progress indicator 0.0% full_index=1/232 target 0 kmh via confirmed 10210040 byte0=0x00
(1780181220.860000) can0 13FFE060#
(1780181220.860000) can0 13FFE040#
(1780181220.861000) can0 102C0040#803C96B503
(1780181220.861000) can0 10220040#0C80000040080000
(1780181220.862000) can0 10210040#0000000000000000
# tx t=018.226s 102CC040#0000400000000000 note=rpm word sweep baseline confirmed speed-valid prerequisite
# tx t=018.226s 10220040#0C80000040080000 note=10220040 body/status speed-limiter-adjacent rpm-word offset 0: 800 rpm raw 0x0C80; full_index=1/232
(1780181220.892000) can0 102CC040#0000400000000000
(1780181220.892000) can0 10220040#0C80000040080000
# tx t=018.258s 10220040#0C80000040080000 note=10220040 body/status speed-limiter-adjacent rpm-word offset 0: 800 rpm raw 0x0C80; full_index=1/232
(1780181220.924000) can0 10220040#0C80000040080000
# tx t=018.290s 102C0040#803C96B503 note=rpm word sweep baseline ignition/power-mode key-on context
# tx t=018.290s 10220040#0C80000040080000 note=10220040 body/status speed-limiter-adjacent rpm-word offset 0: 800 rpm raw 0x0C80; full_index=1/232
# tx t=018.290s 10210040#0000000000000000 note=RPM sweep progress indicator 0.0% full_index=1/232 target 0 kmh via confirmed 10210040 byte0=0x00
(1780181220.956000) can0 102C0040#803C96B503
(1780181220.957000) can0 10220040#0C80000040080000
(1780181220.957000) can0 10210040#0000000000000000
# tx t=018.322s 10220040#0C80000040080000 note=10220040 body/status speed-limiter-adjacent rpm-word offset 0: 800 rpm raw 0x0C80; full_index=1/232
(1780181220.988000) can0 10220040#0C80000040080000
# tx t=018.354s 10220040#0C80000040080000 note=10220040 body/status speed-limiter-adjacent rpm-word offset 0: 800 rpm raw 0x0C80; full_index=1/232
(1780181221.020000) can0 10220040#0C80000040080000
# tx t=018.386s 102C0040#803C96B503 note=rpm word sweep baseline ignition/power-mode key-on context
# tx t=018.386s 10220040#0C80000040080000 note=10220040 body/status speed-limiter-adjacent rpm-word offset 0: 800 rpm raw 0x0C80; full_index=1/232
# tx t=018.386s 10210040#0000000000000000 note=RPM sweep progress indicator 0.0% full_index=1/232 target 0 kmh via confirmed 10210040 byte0=0x00
(1780181221.052000) can0 102C0040#803C96B503
(1780181221.052000) can0 10220040#0C80000040080000
(1780181221.052000) can0 10210040#0000000000000000
# tx t=018.418s 10220040#0C80000040080000 note=10220040 body/status speed-limiter-adjacent rpm-word offset 0: 800 rpm raw 0x0C80; full_index=1/232
(1780181221.084000) can0 10220040#0C80000040080000
# tx t=018.450s 10220040#0C80000040080000 note=10220040 body/status speed-limiter-adjacent rpm-word offset 0: 800 rpm raw 0x0C80; full_index=1/232
(1780181221.116000) can0 10220040#0C80000040080000
# tx t=018.482s 102C0040#803C96B503 note=rpm word sweep baseline ignition/power-mode key-on context
# tx t=018.482s 10242040#02 note=rpm word sweep baseline key second-turn sub-state
# tx t=018.482s 102CC040#0000400000000000 note=rpm word sweep baseline confirmed speed-valid prerequisite
# rpm-window-end t=018.483s full_index=1/232 upper_index=1/232 active=10220040#0C80000040080000 reason=completed
# rpm-window-start t=018.483s full_index=2/232 upper_index=2/232 active=10220040#12C0000040080000 note=10220040 body/status speed-limiter-adjacent rpm-word offset 0: 1200 rpm raw 0x12C0; full_index=2/232
# tx t=018.483s 10220040#12C0000040080000 note=10220040 body/status speed-limiter-adjacent rpm-word offset 0: 1200 rpm raw 0x12C0; full_index=2/232
# tx t=018.483s 10210040#0000000000000000 note=RPM sweep progress indicator 0.4% full_index=2/232 target 0 kmh via confirmed 10210040 byte0=0x00
(1780181221.149000) can0 102C0040#803C96B503
(1780181221.149000) can0 10242040#02
(1780181221.149000) can0 102CC040#0000400000000000
(1780181221.151000) can0 10220040#12C0000040080000
(1780181221.154000) can0 10210040#0000000000000000
# tx t=018.514s 10220040#12C0000040080000 note=10220040 body/status speed-limiter-adjacent rpm-word offset 0: 1200 rpm raw 0x12C0; full_index=2/232
(1780181221.180000) can0 10220040#12C0000040080000
# tx t=018.546s 10220040#12C0000040080000 note=10220040 body/status speed-limiter-adjacent rpm-word offset 0: 1200 rpm raw 0x12C0; full_index=2/232
(1780181221.212000) can0 10220040#12C0000040080000
# tx t=018.578s 102C0040#803C96B503 note=rpm word sweep baseline ignition/power-mode key-on context
# tx t=018.578s 10754040#040400 note=rpm word sweep baseline key-present/key-on context
# tx t=018.579s 10220040#12C0000040080000 note=10220040 body/status speed-limiter-adjacent rpm-word offset 0: 1200 rpm raw 0x12C0; full_index=2/232
# tx t=018.579s 10210040#0000000000000000 note=RPM sweep progress indicator 0.4% full_index=2/232 target 0 kmh via confirmed 10210040 byte0=0x00
(1780181221.245000) can0 102C0040#803C96B503
(1780181221.245000) can0 10754040#040400
(1780181221.245000) can0 10220040#12C0000040080000
(1780181221.247000) can0 10210040#0000000000000000
# tx t=018.610s 10220040#12C0000040080000 note=10220040 body/status speed-limiter-adjacent rpm-word offset 0: 1200 rpm raw 0x12C0; full_index=2/232
(1780181221.276000) can0 10220040#12C0000040080000
# tx t=018.642s 10220040#12C0000040080000 note=10220040 body/status speed-limiter-adjacent rpm-word offset 0: 1200 rpm raw 0x12C0; full_index=2/232
(1780181221.308000) can0 10220040#12C0000040080000
# tx t=018.673s 102C0040#803C96B503 note=rpm word sweep baseline ignition/power-mode key-on context
# tx t=018.673s 10220040#12C0000040080000 note=10220040 body/status speed-limiter-adjacent rpm-word offset 0: 1200 rpm raw 0x12C0; full_index=2/232
# tx t=018.674s 10210040#0000000000000000 note=RPM sweep progress indicator 0.4% full_index=2/232 target 0 kmh via confirmed 10210040 byte0=0x00
(1780181221.340000) can0 102C0040#803C96B503
(1780181221.340000) can0 10220040#12C0000040080000
(1780181221.340000) can0 10210040#0000000000000000
# tx t=018.704s 10220040#12C0000040080000 note=10220040 body/status speed-limiter-adjacent rpm-word offset 0: 1200 rpm raw 0x12C0; full_index=2/232
(1780181221.370000) can0 10220040#12C0000040080000
# tx t=018.736s 102CC040#0000400000000000 note=rpm word sweep baseline confirmed speed-valid prerequisite
# tx t=018.737s 10220040#12C0000040080000 note=10220040 body/status speed-limiter-adjacent rpm-word offset 0: 1200 rpm raw 0x12C0; full_index=2/232
(1780181221.402000) can0 102CC040#0000400000000000
(1780181221.403000) can0 10220040#12C0000040080000
# tx t=018.768s 102C0040#803C96B503 note=rpm word sweep baseline ignition/power-mode key-on context
# tx t=018.769s 10220040#12C0000040080000 note=10220040 body/status speed-limiter-adjacent rpm-word offset 0: 1200 rpm raw 0x12C0; full_index=2/232
# tx t=018.769s 10210040#0000000000000000 note=RPM sweep progress indicator 0.4% full_index=2/232 target 0 kmh via confirmed 10210040 byte0=0x00
(1780181221.435000) can0 102C0040#803C96B503
(1780181221.435000) can0 10220040#12C0000040080000
(1780181221.435000) can0 10210040#0000000000000000
# tx t=018.800s 10220040#12C0000040080000 note=10220040 body/status speed-limiter-adjacent rpm-word offset 0: 1200 rpm raw 0x12C0; full_index=2/232
(1780181221.466000) can0 10220040#12C0000040080000
# tx t=018.833s 10220040#12C0000040080000 note=10220040 body/status speed-limiter-adjacent rpm-word offset 0: 1200 rpm raw 0x12C0; full_index=2/232
(1780181221.498000) can0 10220040#12C0000040080000
# tx t=018.865s 10220040#12C0000040080000 note=10220040 body/status speed-limiter-adjacent rpm-word offset 0: 1200 rpm raw 0x12C0; full_index=2/232
(1780181221.531000) can0 10220040#12C0000040080000
# tx t=018.897s 102C0040#803C96B503 note=rpm word sweep baseline ignition/power-mode key-on context
# tx t=018.897s 10220040#12C0000040080000 note=10220040 body/status speed-limiter-adjacent rpm-word offset 0: 1200 rpm raw 0x12C0; full_index=2/232
# tx t=018.897s 10210040#0000000000000000 note=RPM sweep progress indicator 0.4% full_index=2/232 target 0 kmh via confirmed 10210040 byte0=0x00
(1780181221.563000) can0 102C0040#803C96B503
(1780181221.563000) can0 10220040#12C0000040080000
(1780181221.563000) can0 10210040#0000000000000000
# tx t=018.928s 10220040#12C0000040080000 note=10220040 body/status speed-limiter-adjacent rpm-word offset 0: 1200 rpm raw 0x12C0; full_index=2/232
(1780181221.594000) can0 10220040#12C0000040080000
# tx t=018.961s 10220040#12C0000040080000 note=10220040 body/status speed-limiter-adjacent rpm-word offset 0: 1200 rpm raw 0x12C0; full_index=2/232
(1780181221.627000) can0 10220040#12C0000040080000
# tx t=018.993s 621#0052000000000000 note=rpm word sweep baseline key-on 621 keepalive
# tx t=018.993s 102C0040#803C96B503 note=rpm word sweep baseline ignition/power-mode key-on context
# tx t=018.993s 102CC040#0000400000000000 note=rpm word sweep baseline confirmed speed-valid prerequisite
# tx t=018.993s 10220040#12C0000040080000 note=10220040 body/status speed-limiter-adjacent rpm-word offset 0: 1200 rpm raw 0x12C0; full_index=2/232
# tx t=018.993s 10210040#0000000000000000 note=RPM sweep progress indicator 0.4% full_index=2/232 target 0 kmh via confirmed 10210040 byte0=0x00
(1780181221.659000) can0 621#0052000000000000
(1780181221.659000) can0 102C0040#803C96B503
(1780181221.659000) can0 102CC040#0000400000000000
(1780181221.662000) can0 10220040#12C0000040080000
(1780181221.666000) can0 10210040#0000000000000000
# tx t=019.025s 10220040#12C0000040080000 note=10220040 body/status speed-limiter-adjacent rpm-word offset 0: 1200 rpm raw 0x12C0; full_index=2/232
(1780181221.691000) can0 10220040#12C0000040080000
# tx t=019.057s 10220040#12C0000040080000 note=10220040 body/status speed-limiter-adjacent rpm-word offset 0: 1200 rpm raw 0x12C0; full_index=2/232
(1780181221.723000) can0 10220040#12C0000040080000
# tx t=019.089s 102C0040#803C96B503 note=rpm word sweep baseline ignition/power-mode key-on context
# tx t=019.089s 10220040#12C0000040080000 note=10220040 body/status speed-limiter-adjacent rpm-word offset 0: 1200 rpm raw 0x12C0; full_index=2/232
# tx t=019.089s 10210040#0000000000000000 note=RPM sweep progress indicator 0.4% full_index=2/232 target 0 kmh via confirmed 10210040 byte0=0x00
(1780181221.755000) can0 102C0040#803C96B503
(1780181221.755000) can0 10220040#12C0000040080000
(1780181221.756000) can0 10210040#0000000000000000
# tx t=019.121s 10220040#12C0000040080000 note=10220040 body/status speed-limiter-adjacent rpm-word offset 0: 1200 rpm raw 0x12C0; full_index=2/232
(1780181221.787000) can0 10220040#12C0000040080000
# tx t=019.152s 10220040#12C0000040080000 note=10220040 body/status speed-limiter-adjacent rpm-word offset 0: 1200 rpm raw 0x12C0; full_index=2/232
(1780181221.818000) can0 10220040#12C0000040080000
# tx t=019.184s 102C0040#803C96B503 note=rpm word sweep baseline ignition/power-mode key-on context
# tx t=019.184s 10220040#12C0000040080000 note=10220040 body/status speed-limiter-adjacent rpm-word offset 0: 1200 rpm raw 0x12C0; full_index=2/232
# tx t=019.185s 10210040#0000000000000000 note=RPM sweep progress indicator 0.4% full_index=2/232 target 0 kmh via confirmed 10210040 byte0=0x00
(1780181221.850000) can0 102C0040#803C96B503
(1780181221.851000) can0 10220040#12C0000040080000
(1780181221.851000) can0 10210040#0000000000000000
# tx t=019.216s 102CC040#0000400000000000 note=rpm word sweep baseline confirmed speed-valid prerequisite
# tx t=019.216s 10220040#12C0000040080000 note=10220040 body/status speed-limiter-adjacent rpm-word offset 0: 1200 rpm raw 0x12C0; full_index=2/232
(1780181221.882000) can0 102CC040#0000400000000000
(1780181221.882000) can0 10220040#12C0000040080000
# tx t=019.248s 10220040#12C0000040080000 note=10220040 body/status speed-limiter-adjacent rpm-word offset 0: 1200 rpm raw 0x12C0; full_index=2/232
(1780181221.914000) can0 10220040#12C0000040080000
# tx t=019.280s 102C0040#803C96B503 note=rpm word sweep baseline ignition/power-mode key-on context
# tx t=019.280s 10220040#12C0000040080000 note=10220040 body/status speed-limiter-adjacent rpm-word offset 0: 1200 rpm raw 0x12C0; full_index=2/232
# tx t=019.280s 10210040#0000000000000000 note=RPM sweep progress indicator 0.4% full_index=2/232 target 0 kmh via confirmed 10210040 byte0=0x00
(1780181221.946000) can0 102C0040#803C96B503
(1780181221.946000) can0 10220040#12C0000040080000
(1780181221.946000) can0 10210040#0000000000000000
# tx t=019.312s 10220040#12C0000040080000 note=10220040 body/status speed-limiter-adjacent rpm-word offset 0: 1200 rpm raw 0x12C0; full_index=2/232
(1780181221.978000) can0 10220040#12C0000040080000
# tx t=019.343s 10220040#12C0000040080000 note=10220040 body/status speed-limiter-adjacent rpm-word offset 0: 1200 rpm raw 0x12C0; full_index=2/232
(1780181222.009000) can0 10220040#12C0000040080000
# tx t=019.375s 13FFE040# note=rpm word sweep baseline BCM/source 0x40 presence
# tx t=019.375s 102C0040#803C96B503 note=rpm word sweep baseline ignition/power-mode key-on context
# tx t=019.375s 10220040#12C0000040080000 note=10220040 body/status speed-limiter-adjacent rpm-word offset 0: 1200 rpm raw 0x12C0; full_index=2/232
# tx t=019.376s 10210040#0000000000000000 note=RPM sweep progress indicator 0.4% full_index=2/232 target 0 kmh via confirmed 10210040 byte0=0x00
(1780181222.041000) can0 13FFE040#
(1780181222.042000) can0 102C0040#803C96B503
(1780181222.042000) can0 10220040#12C0000040080000
(1780181222.043000) can0 10210040#0000000000000000
# tx t=019.407s 10220040#12C0000040080000 note=10220040 body/status speed-limiter-adjacent rpm-word offset 0: 1200 rpm raw 0x12C0; full_index=2/232
(1780181222.073000) can0 13FFE060#
(1780181222.073000) can0 10220040#12C0000040080000
# tx t=019.439s 10220040#12C0000040080000 note=10220040 body/status speed-limiter-adjacent rpm-word offset 0: 1200 rpm raw 0x12C0; full_index=2/232
(1780181222.105000) can0 10220040#12C0000040080000
# tx t=019.470s 102C0040#803C96B503 note=rpm word sweep baseline ignition/power-mode key-on context
# tx t=019.470s 10242040#02 note=rpm word sweep baseline key second-turn sub-state
# tx t=019.471s 102CC040#0000400000000000 note=rpm word sweep baseline confirmed speed-valid prerequisite
# tx t=019.471s 10220040#12C0000040080000 note=10220040 body/status speed-limiter-adjacent rpm-word offset 0: 1200 rpm raw 0x12C0; full_index=2/232
# tx t=019.471s 10210040#0000000000000000 note=RPM sweep progress indicator 0.4% full_index=2/232 target 0 kmh via confirmed 10210040 byte0=0x00
(1780181222.137000) can0 102C0040#803C96B503
(1780181222.137000) can0 10242040#02
(1780181222.137000) can0 102CC040#0000400000000000
(1780181222.139000) can0 10220040#12C0000040080000
(1780181222.142000) can0 10210040#0000000000000000
# tx t=019.502s 10220040#12C0000040080000 note=10220040 body/status speed-limiter-adjacent rpm-word offset 0: 1200 rpm raw 0x12C0; full_index=2/232
(1780181222.168000) can0 10220040#12C0000040080000
# tx t=019.533s 10220040#12C0000040080000 note=10220040 body/status speed-limiter-adjacent rpm-word offset 0: 1200 rpm raw 0x12C0; full_index=2/232
(1780181222.199000) can0 10220040#12C0000040080000
# tx t=019.565s 102C0040#803C96B503 note=rpm word sweep baseline ignition/power-mode key-on context
# tx t=019.565s 10754040#040400 note=rpm word sweep baseline key-present/key-on context
# tx t=019.565s 10220040#12C0000040080000 note=10220040 body/status speed-limiter-adjacent rpm-word offset 0: 1200 rpm raw 0x12C0; full_index=2/232
# tx t=019.566s 10210040#0000000000000000 note=RPM sweep progress indicator 0.4% full_index=2/232 target 0 kmh via confirmed 10210040 byte0=0x00
(1780181222.232000) can0 102C0040#803C96B503
(1780181222.232000) can0 10754040#040400
(1780181222.232000) can0 10220040#12C0000040080000
(1780181222.234000) can0 10210040#0000000000000000
# tx t=019.597s 10220040#12C0000040080000 note=10220040 body/status speed-limiter-adjacent rpm-word offset 0: 1200 rpm raw 0x12C0; full_index=2/232
(1780181222.263000) can0 10220040#12C0000040080000
# tx t=019.629s 10220040#12C0000040080000 note=10220040 body/status speed-limiter-adjacent rpm-word offset 0: 1200 rpm raw 0x12C0; full_index=2/232
(1780181222.295000) can0 10220040#12C0000040080000
# tx t=019.661s 10220040#12C0000040080000 note=10220040 body/status speed-limiter-adjacent rpm-word offset 0: 1200 rpm raw 0x12C0; full_index=2/232
(1780181222.327000) can0 10220040#12C0000040080000
# tx t=019.693s 102C0040#803C96B503 note=rpm word sweep baseline ignition/power-mode key-on context
# tx t=019.694s 10220040#12C0000040080000 note=10220040 body/status speed-limiter-adjacent rpm-word offset 0: 1200 rpm raw 0x12C0; full_index=2/232
# tx t=019.694s 10210040#0000000000000000 note=RPM sweep progress indicator 0.4% full_index=2/232 target 0 kmh via confirmed 10210040 byte0=0x00
(1780181222.360000) can0 102C0040#803C96B503
(1780181222.360000) can0 10220040#12C0000040080000
# tx t=019.709s 10220040#12C0000040080000 note=10220040 body/status speed-limiter-adjacent rpm-word offset 0: 1200 rpm raw 0x12C0; full_index=2/232
(1780181222.375000) can0 10220040#12C0000040080000
# tx t=019.742s 102CC040#0000400000000000 note=rpm word sweep baseline confirmed speed-valid prerequisite
# tx t=019.742s 10220040#12C0000040080000 note=10220040 body/status speed-limiter-adjacent rpm-word offset 0: 1200 rpm raw 0x12C0; full_index=2/232
(1780181222.408000) can0 102CC040#0000400000000000
(1780181222.408000) can0 10220040#12C0000040080000
# tx t=019.773s 102C0040#803C96B503 note=rpm word sweep baseline ignition/power-mode key-on context
# tx t=019.774s 10220040#12C0000040080000 note=10220040 body/status speed-limiter-adjacent rpm-word offset 0: 1200 rpm raw 0x12C0; full_index=2/232
# tx t=019.774s 10210040#0000000000000000 note=RPM sweep progress indicator 0.4% full_index=2/232 target 0 kmh via confirmed 10210040 byte0=0x00
(1780181222.440000) can0 102C0040#803C96B503
(1780181222.440000) can0 10220040#12C0000040080000
(1780181222.440000) can0 10210040#0000000000000000
# tx t=019.805s 10220040#12C0000040080000 note=10220040 body/status speed-limiter-adjacent rpm-word offset 0: 1200 rpm raw 0x12C0; full_index=2/232
(1780181222.471000) can0 10220040#12C0000040080000
# tx t=019.837s 10220040#12C0000040080000 note=10220040 body/status speed-limiter-adjacent rpm-word offset 0: 1200 rpm raw 0x12C0; full_index=2/232
(1780181222.503000) can0 10220040#12C0000040080000
# tx t=019.869s 102C0040#803C96B503 note=rpm word sweep baseline ignition/power-mode key-on context
# tx t=019.869s 10220040#12C0000040080000 note=10220040 body/status speed-limiter-adjacent rpm-word offset 0: 1200 rpm raw 0x12C0; full_index=2/232
# tx t=019.869s 10210040#0000000000000000 note=RPM sweep progress indicator 0.4% full_index=2/232 target 0 kmh via confirmed 10210040 byte0=0x00
(1780181222.535000) can0 102C0040#803C96B503
(1780181222.535000) can0 10220040#12C0000040080000
(1780181222.535000) can0 10210040#0000000000000000
# tx t=019.901s 10220040#12C0000040080000 note=10220040 body/status speed-limiter-adjacent rpm-word offset 0: 1200 rpm raw 0x12C0; full_index=2/232
(1780181222.567000) can0 10220040#12C0000040080000
# tx t=019.933s 10220040#12C0000040080000 note=10220040 body/status speed-limiter-adjacent rpm-word offset 0: 1200 rpm raw 0x12C0; full_index=2/232
(1780181222.599000) can0 10220040#12C0000040080000
# tx t=019.967s 621#0052000000000000 note=rpm word sweep baseline key-on 621 keepalive
# tx t=019.967s 102C0040#803C96B503 note=rpm word sweep baseline ignition/power-mode key-on context
# tx t=019.967s 102CC040#0000400000000000 note=rpm word sweep baseline confirmed speed-valid prerequisite
# tx t=019.967s 10220040#12C0000040080000 note=10220040 body/status speed-limiter-adjacent rpm-word offset 0: 1200 rpm raw 0x12C0; full_index=2/232
# tx t=019.967s 10210040#0000000000000000 note=RPM sweep progress indicator 0.4% full_index=2/232 target 0 kmh via confirmed 10210040 byte0=0x00
(1780181222.633000) can0 621#0052000000000000
(1780181222.633000) can0 102C0040#803C96B503
(1780181222.633000) can0 102CC040#0000400000000000
(1780181222.636000) can0 10220040#12C0000040080000
(1780181222.640000) can0 10210040#0000000000000000
# rpm-window-end t=019.997s full_index=2/232 upper_index=2/232 active=10220040#12C0000040080000 reason=completed
# rpm-window-start t=019.997s full_index=3/232 upper_index=3/232 active=10220040#1F40000040080000 note=10220040 body/status speed-limiter-adjacent rpm-word offset 0: 2000 rpm raw 0x1F40; full_index=3/232
# tx t=019.997s 10220040#1F40000040080000 note=10220040 body/status speed-limiter-adjacent rpm-word offset 0: 2000 rpm raw 0x1F40; full_index=3/232
(1780181222.663000) can0 10220040#1F40000040080000
# tx t=020.029s 10220040#1F40000040080000 note=10220040 body/status speed-limiter-adjacent rpm-word offset 0: 2000 rpm raw 0x1F40; full_index=3/232
(1780181222.695000) can0 10220040#1F40000040080000
# tx t=020.060s 10220040#1F40000040080000 note=10220040 body/status speed-limiter-adjacent rpm-word offset 0: 2000 rpm raw 0x1F40; full_index=3/232
(1780181222.726000) can0 62C#0040000000000000
(1780181222.726000) can0 10600060#0160C020007B00
(1780181222.726000) can0 10220040#1F40000040080000
# tx t=020.092s 102C0040#803C96B503 note=rpm word sweep baseline ignition/power-mode key-on context
# tx t=020.092s 10220040#1F40000040080000 note=10220040 body/status speed-limiter-adjacent rpm-word offset 0: 2000 rpm raw 0x1F40; full_index=3/232
# tx t=020.093s 10210040#0000000000000000 note=RPM sweep progress indicator 0.9% full_index=3/232 target 1 kmh via confirmed 10210040 byte0=0x00
(1780181222.759000) can0 102C0040#803C96B503
(1780181222.759000) can0 10220040#1F40000040080000
(1780181222.759000) can0 10210040#0000000000000000
# tx t=020.124s 10220040#1F40000040080000 note=10220040 body/status speed-limiter-adjacent rpm-word offset 0: 2000 rpm raw 0x1F40; full_index=3/232
(1780181222.790000) can0 10220040#1F40000040080000
# tx t=020.156s 10220040#1F40000040080000 note=10220040 body/status speed-limiter-adjacent rpm-word offset 0: 2000 rpm raw 0x1F40; full_index=3/232
(1780181222.822000) can0 10220040#1F40000040080000
# tx t=020.188s 102C0040#803C96B503 note=rpm word sweep baseline ignition/power-mode key-on context
# tx t=020.188s 10220040#1F40000040080000 note=10220040 body/status speed-limiter-adjacent rpm-word offset 0: 2000 rpm raw 0x1F40; full_index=3/232
# tx t=020.188s 10210040#0000000000000000 note=RPM sweep progress indicator 0.9% full_index=3/232 target 1 kmh via confirmed 10210040 byte0=0x00
(1780181222.854000) can0 102C0040#803C96B503
(1780181222.854000) can0 10220040#1F40000040080000
(1780181222.854000) can0 10210040#0000000000000000
# tx t=020.220s 102CC040#0000400000000000 note=rpm word sweep baseline confirmed speed-valid prerequisite
# tx t=020.220s 10220040#1F40000040080000 note=10220040 body/status speed-limiter-adjacent rpm-word offset 0: 2000 rpm raw 0x1F40; full_index=3/232
(1780181222.886000) can0 102CC040#0000400000000000
(1780181222.886000) can0 10220040#1F40000040080000
# tx t=020.252s 10220040#1F40000040080000 note=10220040 body/status speed-limiter-adjacent rpm-word offset 0: 2000 rpm raw 0x1F40; full_index=3/232
(1780181222.918000) can0 10220040#1F40000040080000
# tx t=020.284s 102C0040#803C96B503 note=rpm word sweep baseline ignition/power-mode key-on context
# tx t=020.284s 10220040#1F40000040080000 note=10220040 body/status speed-limiter-adjacent rpm-word offset 0: 2000 rpm raw 0x1F40; full_index=3/232
# tx t=020.284s 10210040#0000000000000000 note=RPM sweep progress indicator 0.9% full_index=3/232 target 1 kmh via confirmed 10210040 byte0=0x00
(1780181222.950000) can0 102C0040#803C96B503
(1780181222.950000) can0 10220040#1F40000040080000
(1780181222.950000) can0 10210040#0000000000000000
# tx t=020.315s 10220040#1F40000040080000 note=10220040 body/status speed-limiter-adjacent rpm-word offset 0: 2000 rpm raw 0x1F40; full_index=3/232
(1780181222.981000) can0 10220040#1F40000040080000
# tx t=020.346s 10220040#1F40000040080000 note=10220040 body/status speed-limiter-adjacent rpm-word offset 0: 2000 rpm raw 0x1F40; full_index=3/232
(1780181223.012000) can0 10220040#1F40000040080000
# tx t=020.378s 102C0040#803C96B503 note=rpm word sweep baseline ignition/power-mode key-on context
# tx t=020.378s 10220040#1F40000040080000 note=10220040 body/status speed-limiter-adjacent rpm-word offset 0: 2000 rpm raw 0x1F40; full_index=3/232
# tx t=020.378s 10210040#0000000000000000 note=RPM sweep progress indicator 0.9% full_index=3/232 target 1 kmh via confirmed 10210040 byte0=0x00
(1780181223.044000) can0 102C0040#803C96B503
(1780181223.044000) can0 10220040#1F40000040080000
(1780181223.044000) can0 10210040#0000000000000000
# tx t=020.410s 10220040#1F40000040080000 note=10220040 body/status speed-limiter-adjacent rpm-word offset 0: 2000 rpm raw 0x1F40; full_index=3/232
(1780181223.076000) can0 10220040#1F40000040080000
# tx t=020.442s 10220040#1F40000040080000 note=10220040 body/status speed-limiter-adjacent rpm-word offset 0: 2000 rpm raw 0x1F40; full_index=3/232
(1780181223.108000) can0 10220040#1F40000040080000
# tx t=020.474s 102C0040#803C96B503 note=rpm word sweep baseline ignition/power-mode key-on context
# tx t=020.474s 10242040#02 note=rpm word sweep baseline key second-turn sub-state
# tx t=020.474s 102CC040#0000400000000000 note=rpm word sweep baseline confirmed speed-valid prerequisite
# tx t=020.475s 10220040#1F40000040080000 note=10220040 body/status speed-limiter-adjacent rpm-word offset 0: 2000 rpm raw 0x1F40; full_index=3/232
# tx t=020.475s 10210040#0000000000000000 note=RPM sweep progress indicator 0.9% full_index=3/232 target 1 kmh via confirmed 10210040 byte0=0x00
(1780181223.141000) can0 102C0040#803C96B503
(1780181223.141000) can0 10242040#02
(1780181223.141000) can0 102CC040#0000400000000000
(1780181223.143000) can0 10220040#1F40000040080000
(1780181223.146000) can0 10210040#0000000000000000
# tx t=020.506s 10220040#1F40000040080000 note=10220040 body/status speed-limiter-adjacent rpm-word offset 0: 2000 rpm raw 0x1F40; full_index=3/232
(1780181223.172000) can0 10220040#1F40000040080000
# tx t=020.538s 10220040#1F40000040080000 note=10220040 body/status speed-limiter-adjacent rpm-word offset 0: 2000 rpm raw 0x1F40; full_index=3/232
(1780181223.204000) can0 10220040#1F40000040080000
# tx t=020.570s 13FFE040# note=rpm word sweep baseline BCM/source 0x40 presence
# tx t=020.570s 102C0040#803C96B503 note=rpm word sweep baseline ignition/power-mode key-on context
# tx t=020.570s 10754040#040400 note=rpm word sweep baseline key-present/key-on context
# tx t=020.570s 10220040#1F40000040080000 note=10220040 body/status speed-limiter-adjacent rpm-word offset 0: 2000 rpm raw 0x1F40; full_index=3/232
# tx t=020.570s 10210040#0000000000000000 note=RPM sweep progress indicator 0.9% full_index=3/232 target 1 kmh via confirmed 10210040 byte0=0x00
(1780181223.236000) can0 13FFE040#
(1780181223.236000) can0 102C0040#803C96B503
(1780181223.236000) can0 10754040#040400
(1780181223.238000) can0 10220040#1F40000040080000
(1780181223.241000) can0 10210040#0000000000000000
# tx t=020.602s 10220040#1F40000040080000 note=10220040 body/status speed-limiter-adjacent rpm-word offset 0: 2000 rpm raw 0x1F40; full_index=3/232
(1780181223.268000) can0 13FFE060#
(1780181223.268000) can0 10220040#1F40000040080000
# tx t=020.634s 10220040#1F40000040080000 note=10220040 body/status speed-limiter-adjacent rpm-word offset 0: 2000 rpm raw 0x1F40; full_index=3/232
(1780181223.300000) can0 10220040#1F40000040080000
# tx t=020.665s 102C0040#803C96B503 note=rpm word sweep baseline ignition/power-mode key-on context
# tx t=020.665s 10220040#1F40000040080000 note=10220040 body/status speed-limiter-adjacent rpm-word offset 0: 2000 rpm raw 0x1F40; full_index=3/232
# tx t=020.665s 10210040#0000000000000000 note=RPM sweep progress indicator 0.9% full_index=3/232 target 1 kmh via confirmed 10210040 byte0=0x00
(1780181223.331000) can0 102C0040#803C96B503
(1780181223.331000) can0 10220040#1F40000040080000
(1780181223.331000) can0 10210040#0000000000000000
# tx t=020.697s 10220040#1F40000040080000 note=10220040 body/status speed-limiter-adjacent rpm-word offset 0: 2000 rpm raw 0x1F40; full_index=3/232
(1780181223.363000) can0 10220040#1F40000040080000
# tx t=020.729s 102CC040#0000400000000000 note=rpm word sweep baseline confirmed speed-valid prerequisite
# tx t=020.729s 10220040#1F40000040080000 note=10220040 body/status speed-limiter-adjacent rpm-word offset 0: 2000 rpm raw 0x1F40; full_index=3/232
(1780181223.395000) can0 102CC040#0000400000000000
(1780181223.396000) can0 10220040#1F40000040080000
# tx t=020.760s 10220040#1F40000040080000 note=10220040 body/status speed-limiter-adjacent rpm-word offset 0: 2000 rpm raw 0x1F40; full_index=3/232
(1780181223.426000) can0 10220040#1F40000040080000
# tx t=020.793s 102C0040#803C96B503 note=rpm word sweep baseline ignition/power-mode key-on context
# tx t=020.793s 10220040#1F40000040080000 note=10220040 body/status speed-limiter-adjacent rpm-word offset 0: 2000 rpm raw 0x1F40; full_index=3/232
# tx t=020.793s 10210040#0000000000000000 note=RPM sweep progress indicator 0.9% full_index=3/232 target 1 kmh via confirmed 10210040 byte0=0x00
(1780181223.459000) can0 102C0040#803C96B503
(1780181223.459000) can0 10220040#1F40000040080000
(1780181223.459000) can0 10210040#0000000000000000
# tx t=020.824s 10220040#1F40000040080000 note=10220040 body/status speed-limiter-adjacent rpm-word offset 0: 2000 rpm raw 0x1F40; full_index=3/232
(1780181223.490000) can0 10220040#1F40000040080000
# tx t=020.857s 10220040#1F40000040080000 note=10220040 body/status speed-limiter-adjacent rpm-word offset 0: 2000 rpm raw 0x1F40; full_index=3/232
(1780181223.522000) can0 10220040#1F40000040080000
# tx t=020.887s 102C0040#803C96B503 note=rpm word sweep baseline ignition/power-mode key-on context
# tx t=020.887s 10220040#1F40000040080000 note=10220040 body/status speed-limiter-adjacent rpm-word offset 0: 2000 rpm raw 0x1F40; full_index=3/232
# tx t=020.887s 10210040#0000000000000000 note=RPM sweep progress indicator 0.9% full_index=3/232 target 1 kmh via confirmed 10210040 byte0=0x00
(1780181223.553000) can0 102C0040#803C96B503
(1780181223.553000) can0 10220040#1F40000040080000
(1780181223.553000) can0 10210040#0000000000000000
# tx t=020.919s 10220040#1F40000040080000 note=10220040 body/status speed-limiter-adjacent rpm-word offset 0: 2000 rpm raw 0x1F40; full_index=3/232
(1780181223.584000) can0 10220040#1F40000040080000
# tx t=020.951s 10220040#1F40000040080000 note=10220040 body/status speed-limiter-adjacent rpm-word offset 0: 2000 rpm raw 0x1F40; full_index=3/232
(1780181223.617000) can0 10220040#1F40000040080000
# tx t=020.983s 621#0052000000000000 note=rpm word sweep baseline key-on 621 keepalive
# tx t=020.983s 102C0040#803C96B503 note=rpm word sweep baseline ignition/power-mode key-on context
# tx t=020.983s 102CC040#0000400000000000 note=rpm word sweep baseline confirmed speed-valid prerequisite
# tx t=020.983s 10220040#1F40000040080000 note=10220040 body/status speed-limiter-adjacent rpm-word offset 0: 2000 rpm raw 0x1F40; full_index=3/232
# tx t=020.983s 10210040#0000000000000000 note=RPM sweep progress indicator 0.9% full_index=3/232 target 1 kmh via confirmed 10210040 byte0=0x00
(1780181223.649000) can0 621#0052000000000000
(1780181223.649000) can0 102C0040#803C96B503
(1780181223.649000) can0 102CC040#0000400000000000
(1780181223.652000) can0 10220040#1F40000040080000
(1780181223.656000) can0 10210040#0000000000000000
# tx t=021.015s 10220040#1F40000040080000 note=10220040 body/status speed-limiter-adjacent rpm-word offset 0: 2000 rpm raw 0x1F40; full_index=3/232
(1780181223.681000) can0 10220040#1F40000040080000
# tx t=021.047s 10220040#1F40000040080000 note=10220040 body/status speed-limiter-adjacent rpm-word offset 0: 2000 rpm raw 0x1F40; full_index=3/232
(1780181223.713000) can0 10220040#1F40000040080000
# tx t=021.079s 102C0040#803C96B503 note=rpm word sweep baseline ignition/power-mode key-on context
# tx t=021.079s 10220040#1F40000040080000 note=10220040 body/status speed-limiter-adjacent rpm-word offset 0: 2000 rpm raw 0x1F40; full_index=3/232
# tx t=021.079s 10210040#0000000000000000 note=RPM sweep progress indicator 0.9% full_index=3/232 target 1 kmh via confirmed 10210040 byte0=0x00
(1780181223.745000) can0 102C0040#803C96B503
(1780181223.745000) can0 10220040#1F40000040080000
(1780181223.745000) can0 10210040#0000000000000000
# tx t=021.111s 10220040#1F40000040080000 note=10220040 body/status speed-limiter-adjacent rpm-word offset 0: 2000 rpm raw 0x1F40; full_index=3/232
(1780181223.777000) can0 10220040#1F40000040080000
# tx t=021.143s 10220040#1F40000040080000 note=10220040 body/status speed-limiter-adjacent rpm-word offset 0: 2000 rpm raw 0x1F40; full_index=3/232
(1780181223.809000) can0 10220040#1F40000040080000
# tx t=021.175s 102C0040#803C96B503 note=rpm word sweep baseline ignition/power-mode key-on context
# tx t=021.175s 10220040#1F40000040080000 note=10220040 body/status speed-limiter-adjacent rpm-word offset 0: 2000 rpm raw 0x1F40; full_index=3/232
# tx t=021.175s 10210040#0000000000000000 note=RPM sweep progress indicator 0.9% full_index=3/232 target 1 kmh via confirmed 10210040 byte0=0x00
(1780181223.841000) can0 102C0040#803C96B503
(1780181223.841000) can0 10220040#1F40000040080000
(1780181223.841000) can0 10210040#0000000000000000
# tx t=021.207s 10220040#1F40000040080000 note=10220040 body/status speed-limiter-adjacent rpm-word offset 0: 2000 rpm raw 0x1F40; full_index=3/232
(1780181223.873000) can0 10220040#1F40000040080000
# tx t=021.239s 102CC040#0000400000000000 note=rpm word sweep baseline confirmed speed-valid prerequisite
# tx t=021.239s 10220040#1F40000040080000 note=10220040 body/status speed-limiter-adjacent rpm-word offset 0: 2000 rpm raw 0x1F40; full_index=3/232
(1780181223.905000) can0 102CC040#0000400000000000
(1780181223.905000) can0 10220040#1F40000040080000
# tx t=021.271s 102C0040#803C96B503 note=rpm word sweep baseline ignition/power-mode key-on context
# tx t=021.271s 10220040#1F40000040080000 note=10220040 body/status speed-limiter-adjacent rpm-word offset 0: 2000 rpm raw 0x1F40; full_index=3/232
# tx t=021.271s 10210040#0000000000000000 note=RPM sweep progress indicator 0.9% full_index=3/232 target 1 kmh via confirmed 10210040 byte0=0x00
(1780181223.937000) can0 102C0040#803C96B503
(1780181223.937000) can0 10220040#1F40000040080000
(1780181223.937000) can0 10210040#0000000000000000
# tx t=021.303s 10220040#1F40000040080000 note=10220040 body/status speed-limiter-adjacent rpm-word offset 0: 2000 rpm raw 0x1F40; full_index=3/232
(1780181223.969000) can0 10220040#1F40000040080000
# tx t=021.335s 10220040#1F40000040080000 note=10220040 body/status speed-limiter-adjacent rpm-word offset 0: 2000 rpm raw 0x1F40; full_index=3/232
(1780181224.001000) can0 10220040#1F40000040080000
# tx t=021.367s 102C0040#803C96B503 note=rpm word sweep baseline ignition/power-mode key-on context
# tx t=021.367s 10220040#1F40000040080000 note=10220040 body/status speed-limiter-adjacent rpm-word offset 0: 2000 rpm raw 0x1F40; full_index=3/232
# tx t=021.367s 10210040#0000000000000000 note=RPM sweep progress indicator 0.9% full_index=3/232 target 1 kmh via confirmed 10210040 byte0=0x00
(1780181224.033000) can0 102C0040#803C96B503
(1780181224.033000) can0 10220040#1F40000040080000
(1780181224.033000) can0 10210040#0000000000000000
# tx t=021.399s 10220040#1F40000040080000 note=10220040 body/status speed-limiter-adjacent rpm-word offset 0: 2000 rpm raw 0x1F40; full_index=3/232
(1780181224.065000) can0 10220040#1F40000040080000
# tx t=021.431s 10220040#1F40000040080000 note=10220040 body/status speed-limiter-adjacent rpm-word offset 0: 2000 rpm raw 0x1F40; full_index=3/232
(1780181224.097000) can0 10220040#1F40000040080000
# tx t=021.463s 10220040#1F40000040080000 note=10220040 body/status speed-limiter-adjacent rpm-word offset 0: 2000 rpm raw 0x1F40; full_index=3/232
(1780181224.129000) can0 10220040#1F40000040080000
# tx t=021.495s 102C0040#803C96B503 note=rpm word sweep baseline ignition/power-mode key-on context
# tx t=021.495s 10242040#02 note=rpm word sweep baseline key second-turn sub-state
# tx t=021.495s 102CC040#0000400000000000 note=rpm word sweep baseline confirmed speed-valid prerequisite
# tx t=021.496s 10220040#1F40000040080000 note=10220040 body/status speed-limiter-adjacent rpm-word offset 0: 2000 rpm raw 0x1F40; full_index=3/232
# tx t=021.496s 10210040#0000000000000000 note=RPM sweep progress indicator 0.9% full_index=3/232 target 1 kmh via confirmed 10210040 byte0=0x00
(1780181224.162000) can0 102C0040#803C96B503
(1780181224.162000) can0 10242040#02
(1780181224.162000) can0 102CC040#0000400000000000
(1780181224.164000) can0 10220040#1F40000040080000
(1780181224.167000) can0 10210040#0000000000000000
# rpm-window-end t=021.527s full_index=3/232 upper_index=3/232 active=10220040#1F40000040080000 reason=completed
# rpm-window-start t=021.527s full_index=4/232 upper_index=4/232 active=10220040#2EE0000040080000 note=10220040 body/status speed-limiter-adjacent rpm-word offset 0: 3000 rpm raw 0x2EE0; full_index=4/232
# tx t=021.527s 10220040#2EE0000040080000 note=10220040 body/status speed-limiter-adjacent rpm-word offset 0: 3000 rpm raw 0x2EE0; full_index=4/232
(1780181224.193000) can0 10220040#2EE0000040080000
# tx t=021.559s 10220040#2EE0000040080000 note=10220040 body/status speed-limiter-adjacent rpm-word offset 0: 3000 rpm raw 0x2EE0; full_index=4/232
(1780181224.225000) can0 10220040#2EE0000040080000
# tx t=021.591s 102C0040#803C96B503 note=rpm word sweep baseline ignition/power-mode key-on context
# tx t=021.591s 10754040#040400 note=rpm word sweep baseline key-present/key-on context
# tx t=021.592s 10220040#2EE0000040080000 note=10220040 body/status speed-limiter-adjacent rpm-word offset 0: 3000 rpm raw 0x2EE0; full_index=4/232
# tx t=021.592s 10210040#0000000000000000 note=RPM sweep progress indicator 1.3% full_index=4/232 target 1 kmh via confirmed 10210040 byte0=0x00
(1780181224.258000) can0 102C0040#803C96B503
(1780181224.258000) can0 10754040#040400
(1780181224.258000) can0 10220040#2EE0000040080000
(1780181224.260000) can0 10210040#0000000000000000
# tx t=021.623s 10220040#2EE0000040080000 note=10220040 body/status speed-limiter-adjacent rpm-word offset 0: 3000 rpm raw 0x2EE0; full_index=4/232
(1780181224.289000) can0 10220040#2EE0000040080000
# tx t=021.655s 10220040#2EE0000040080000 note=10220040 body/status speed-limiter-adjacent rpm-word offset 0: 3000 rpm raw 0x2EE0; full_index=4/232
(1780181224.321000) can0 10220040#2EE0000040080000
# tx t=021.687s 102C0040#803C96B503 note=rpm word sweep baseline ignition/power-mode key-on context
# tx t=021.687s 10220040#2EE0000040080000 note=10220040 body/status speed-limiter-adjacent rpm-word offset 0: 3000 rpm raw 0x2EE0; full_index=4/232
# tx t=021.687s 10210040#0000000000000000 note=RPM sweep progress indicator 1.3% full_index=4/232 target 1 kmh via confirmed 10210040 byte0=0x00
(1780181224.353000) can0 102C0040#803C96B503
(1780181224.353000) can0 10220040#2EE0000040080000
(1780181224.353000) can0 10210040#0000000000000000
# tx t=021.719s 102CC040#0000400000000000 note=rpm word sweep baseline confirmed speed-valid prerequisite
# tx t=021.719s 10220040#2EE0000040080000 note=10220040 body/status speed-limiter-adjacent rpm-word offset 0: 3000 rpm raw 0x2EE0; full_index=4/232
(1780181224.385000) can0 102CC040#0000400000000000
(1780181224.385000) can0 10220040#2EE0000040080000
# tx t=021.750s 10220040#2EE0000040080000 note=10220040 body/status speed-limiter-adjacent rpm-word offset 0: 3000 rpm raw 0x2EE0; full_index=4/232
(1780181224.416000) can0 10220040#2EE0000040080000
# tx t=021.782s 13FFE040# note=rpm word sweep baseline BCM/source 0x40 presence
# tx t=021.782s 102C0040#803C96B503 note=rpm word sweep baseline ignition/power-mode key-on context
# tx t=021.782s 10220040#2EE0000040080000 note=10220040 body/status speed-limiter-adjacent rpm-word offset 0: 3000 rpm raw 0x2EE0; full_index=4/232
# tx t=021.783s 10210040#0000000000000000 note=RPM sweep progress indicator 1.3% full_index=4/232 target 1 kmh via confirmed 10210040 byte0=0x00
(1780181224.448000) can0 13FFE040#
(1780181224.449000) can0 102C0040#803C96B503
(1780181224.449000) can0 10220040#2EE0000040080000
(1780181224.450000) can0 10210040#0000000000000000
# tx t=021.814s 10220040#2EE0000040080000 note=10220040 body/status speed-limiter-adjacent rpm-word offset 0: 3000 rpm raw 0x2EE0; full_index=4/232
(1780181224.480000) can0 13FFE060#
(1780181224.480000) can0 10220040#2EE0000040080000
# tx t=021.846s 10220040#2EE0000040080000 note=10220040 body/status speed-limiter-adjacent rpm-word offset 0: 3000 rpm raw 0x2EE0; full_index=4/232
(1780181224.511000) can0 10220040#2EE0000040080000
# tx t=021.878s 102C0040#803C96B503 note=rpm word sweep baseline ignition/power-mode key-on context
# tx t=021.878s 10220040#2EE0000040080000 note=10220040 body/status speed-limiter-adjacent rpm-word offset 0: 3000 rpm raw 0x2EE0; full_index=4/232
# tx t=021.878s 10210040#0000000000000000 note=RPM sweep progress indicator 1.3% full_index=4/232 target 1 kmh via confirmed 10210040 byte0=0x00
(1780181224.544000) can0 102C0040#803C96B503
(1780181224.544000) can0 10220040#2EE0000040080000
(1780181224.544000) can0 10210040#0000000000000000
# tx t=021.910s 10220040#2EE0000040080000 note=10220040 body/status speed-limiter-adjacent rpm-word offset 0: 3000 rpm raw 0x2EE0; full_index=4/232
(1780181224.575000) can0 10220040#2EE0000040080000
# tx t=021.942s 10220040#2EE0000040080000 note=10220040 body/status speed-limiter-adjacent rpm-word offset 0: 3000 rpm raw 0x2EE0; full_index=4/232
(1780181224.608000) can0 10220040#2EE0000040080000
# tx t=021.974s 621#0052000000000000 note=rpm word sweep baseline key-on 621 keepalive
# tx t=021.974s 102C0040#803C96B503 note=rpm word sweep baseline ignition/power-mode key-on context
# tx t=021.974s 102CC040#0000400000000000 note=rpm word sweep baseline confirmed speed-valid prerequisite
# tx t=021.974s 10220040#2EE0000040080000 note=10220040 body/status speed-limiter-adjacent rpm-word offset 0: 3000 rpm raw 0x2EE0; full_index=4/232
# tx t=021.974s 10210040#0000000000000000 note=RPM sweep progress indicator 1.3% full_index=4/232 target 1 kmh via confirmed 10210040 byte0=0x00
(1780181224.640000) can0 621#0052000000000000
(1780181224.640000) can0 102C0040#803C96B503
(1780181224.640000) can0 102CC040#0000400000000000
(1780181224.643000) can0 10220040#2EE0000040080000
(1780181224.646000) can0 10210040#0000000000000000
# tx t=022.006s 10220040#2EE0000040080000 note=10220040 body/status speed-limiter-adjacent rpm-word offset 0: 3000 rpm raw 0x2EE0; full_index=4/232
(1780181224.672000) can0 10244060#02
(1780181224.672000) can0 10220040#2EE0000040080000
# tx t=022.038s 10220040#2EE0000040080000 note=10220040 body/status speed-limiter-adjacent rpm-word offset 0: 3000 rpm raw 0x2EE0; full_index=4/232
(1780181224.704000) can0 10220040#2EE0000040080000
# tx t=022.070s 102C0040#803C96B503 note=rpm word sweep baseline ignition/power-mode key-on context
# tx t=022.070s 10220040#2EE0000040080000 note=10220040 body/status speed-limiter-adjacent rpm-word offset 0: 3000 rpm raw 0x2EE0; full_index=4/232
# tx t=022.070s 10210040#0000000000000000 note=RPM sweep progress indicator 1.3% full_index=4/232 target 1 kmh via confirmed 10210040 byte0=0x00
(1780181224.736000) can0 102C0040#803C96B503
(1780181224.736000) can0 10220040#2EE0000040080000
(1780181224.736000) can0 10210040#0000000000000000
# tx t=022.102s 10220040#2EE0000040080000 note=10220040 body/status speed-limiter-adjacent rpm-word offset 0: 3000 rpm raw 0x2EE0; full_index=4/232
(1780181224.768000) can0 10220040#2EE0000040080000
# tx t=022.134s 10220040#2EE0000040080000 note=10220040 body/status speed-limiter-adjacent rpm-word offset 0: 3000 rpm raw 0x2EE0; full_index=4/232
(1780181224.800000) can0 10220040#2EE0000040080000
# tx t=022.166s 102C0040#803C96B503 note=rpm word sweep baseline ignition/power-mode key-on context
# tx t=022.166s 10220040#2EE0000040080000 note=10220040 body/status speed-limiter-adjacent rpm-word offset 0: 3000 rpm raw 0x2EE0; full_index=4/232
# tx t=022.166s 10210040#0000000000000000 note=RPM sweep progress indicator 1.3% full_index=4/232 target 1 kmh via confirmed 10210040 byte0=0x00
(1780181224.832000) can0 102C0040#803C96B503
(1780181224.832000) can0 10220040#2EE0000040080000
(1780181224.832000) can0 10210040#0000000000000000
# tx t=022.198s 10220040#2EE0000040080000 note=10220040 body/status speed-limiter-adjacent rpm-word offset 0: 3000 rpm raw 0x2EE0; full_index=4/232
(1780181224.864000) can0 10220040#2EE0000040080000
# tx t=022.230s 102CC040#0000400000000000 note=rpm word sweep baseline confirmed speed-valid prerequisite
# tx t=022.230s 10220040#2EE0000040080000 note=10220040 body/status speed-limiter-adjacent rpm-word offset 0: 3000 rpm raw 0x2EE0; full_index=4/232
(1780181224.896000) can0 102CC040#0000400000000000
(1780181224.896000) can0 10220040#2EE0000040080000
# tx t=022.262s 10220040#2EE0000040080000 note=10220040 body/status speed-limiter-adjacent rpm-word offset 0: 3000 rpm raw 0x2EE0; full_index=4/232
(1780181224.928000) can0 10220040#2EE0000040080000
# tx t=022.294s 102C0040#803C96B503 note=rpm word sweep baseline ignition/power-mode key-on context
# tx t=022.294s 10220040#2EE0000040080000 note=10220040 body/status speed-limiter-adjacent rpm-word offset 0: 3000 rpm raw 0x2EE0; full_index=4/232
# tx t=022.294s 10210040#0000000000000000 note=RPM sweep progress indicator 1.3% full_index=4/232 target 1 kmh via confirmed 10210040 byte0=0x00
(1780181224.960000) can0 102C0040#803C96B503
(1780181224.960000) can0 10220040#2EE0000040080000
(1780181224.961000) can0 10210040#0000000000000000
# tx t=022.326s 10220040#2EE0000040080000 note=10220040 body/status speed-limiter-adjacent rpm-word offset 0: 3000 rpm raw 0x2EE0; full_index=4/232
(1780181224.992000) can0 10220040#2EE0000040080000
# tx t=022.358s 10220040#2EE0000040080000 note=10220040 body/status speed-limiter-adjacent rpm-word offset 0: 3000 rpm raw 0x2EE0; full_index=4/232
(1780181225.024000) can0 10220040#2EE0000040080000
# tx t=022.390s 102C0040#803C96B503 note=rpm word sweep baseline ignition/power-mode key-on context
# tx t=022.390s 10220040#2EE0000040080000 note=10220040 body/status speed-limiter-adjacent rpm-word offset 0: 3000 rpm raw 0x2EE0; full_index=4/232
# tx t=022.390s 10210040#0000000000000000 note=RPM sweep progress indicator 1.3% full_index=4/232 target 1 kmh via confirmed 10210040 byte0=0x00
(1780181225.056000) can0 102C0040#803C96B503
(1780181225.056000) can0 10220040#2EE0000040080000
(1780181225.056000) can0 10210040#0000000000000000
# tx t=022.422s 10220040#2EE0000040080000 note=10220040 body/status speed-limiter-adjacent rpm-word offset 0: 3000 rpm raw 0x2EE0; full_index=4/232
(1780181225.088000) can0 10220040#2EE0000040080000
# tx t=022.454s 10220040#2EE0000040080000 note=10220040 body/status speed-limiter-adjacent rpm-word offset 0: 3000 rpm raw 0x2EE0; full_index=4/232
(1780181225.120000) can0 10220040#2EE0000040080000
# tx t=022.486s 102C0040#803C96B503 note=rpm word sweep baseline ignition/power-mode key-on context
# tx t=022.486s 10242040#02 note=rpm word sweep baseline key second-turn sub-state
# tx t=022.486s 102CC040#0000400000000000 note=rpm word sweep baseline confirmed speed-valid prerequisite
# tx t=022.487s 10220040#2EE0000040080000 note=10220040 body/status speed-limiter-adjacent rpm-word offset 0: 3000 rpm raw 0x2EE0; full_index=4/232
# tx t=022.487s 10210040#0000000000000000 note=RPM sweep progress indicator 1.3% full_index=4/232 target 1 kmh via confirmed 10210040 byte0=0x00
(1780181225.153000) can0 102C0040#803C96B503
(1780181225.153000) can0 10242040#02
(1780181225.153000) can0 102CC040#0000400000000000
(1780181225.155000) can0 10220040#2EE0000040080000
(1780181225.158000) can0 10210040#0000000000000000
# tx t=022.518s 10220040#2EE0000040080000 note=10220040 body/status speed-limiter-adjacent rpm-word offset 0: 3000 rpm raw 0x2EE0; full_index=4/232
(1780181225.184000) can0 10220040#2EE0000040080000
# tx t=022.550s 10220040#2EE0000040080000 note=10220040 body/status speed-limiter-adjacent rpm-word offset 0: 3000 rpm raw 0x2EE0; full_index=4/232
(1780181225.216000) can0 10220040#2EE0000040080000
# tx t=022.582s 102C0040#803C96B503 note=rpm word sweep baseline ignition/power-mode key-on context
# tx t=022.582s 10754040#040400 note=rpm word sweep baseline key-present/key-on context
# tx t=022.583s 10220040#2EE0000040080000 note=10220040 body/status speed-limiter-adjacent rpm-word offset 0: 3000 rpm raw 0x2EE0; full_index=4/232
# tx t=022.583s 10210040#0000000000000000 note=RPM sweep progress indicator 1.3% full_index=4/232 target 1 kmh via confirmed 10210040 byte0=0x00
(1780181225.249000) can0 102C0040#803C96B503
(1780181225.249000) can0 10754040#040400
(1780181225.249000) can0 10220040#2EE0000040080000
(1780181225.251000) can0 10210040#0000000000000000
# tx t=022.614s 10220040#2EE0000040080000 note=10220040 body/status speed-limiter-adjacent rpm-word offset 0: 3000 rpm raw 0x2EE0; full_index=4/232
(1780181225.280000) can0 10220040#2EE0000040080000
# tx t=022.646s 10220040#2EE0000040080000 note=10220040 body/status speed-limiter-adjacent rpm-word offset 0: 3000 rpm raw 0x2EE0; full_index=4/232
(1780181225.312000) can0 10220040#2EE0000040080000
# tx t=022.678s 102C0040#803C96B503 note=rpm word sweep baseline ignition/power-mode key-on context
# tx t=022.679s 10220040#2EE0000040080000 note=10220040 body/status speed-limiter-adjacent rpm-word offset 0: 3000 rpm raw 0x2EE0; full_index=4/232
# tx t=022.679s 10210040#0000000000000000 note=RPM sweep progress indicator 1.3% full_index=4/232 target 1 kmh via confirmed 10210040 byte0=0x00
(1780181225.345000) can0 102C0040#803C96B503
(1780181225.345000) can0 10220040#2EE0000040080000
(1780181225.345000) can0 10210040#0000000000000000
# tx t=022.710s 10220040#2EE0000040080000 note=10220040 body/status speed-limiter-adjacent rpm-word offset 0: 3000 rpm raw 0x2EE0; full_index=4/232
(1780181225.376000) can0 10220040#2EE0000040080000
# tx t=022.742s 102CC040#0000400000000000 note=rpm word sweep baseline confirmed speed-valid prerequisite
# tx t=022.743s 10220040#2EE0000040080000 note=10220040 body/status speed-limiter-adjacent rpm-word offset 0: 3000 rpm raw 0x2EE0; full_index=4/232
(1780181225.409000) can0 102CC040#0000400000000000
(1780181225.409000) can0 10220040#2EE0000040080000
# tx t=022.774s 102C0040#803C96B503 note=rpm word sweep baseline ignition/power-mode key-on context
# tx t=022.775s 10220040#2EE0000040080000 note=10220040 body/status speed-limiter-adjacent rpm-word offset 0: 3000 rpm raw 0x2EE0; full_index=4/232
# tx t=022.775s 10210040#0000000000000000 note=RPM sweep progress indicator 1.3% full_index=4/232 target 1 kmh via confirmed 10210040 byte0=0x00
(1780181225.441000) can0 102C0040#803C96B503
(1780181225.441000) can0 10220040#2EE0000040080000
(1780181225.441000) can0 10210040#0000000000000000
# tx t=022.806s 10220040#2EE0000040080000 note=10220040 body/status speed-limiter-adjacent rpm-word offset 0: 3000 rpm raw 0x2EE0; full_index=4/232
(1780181225.472000) can0 10220040#2EE0000040080000
# tx t=022.838s 10220040#2EE0000040080000 note=10220040 body/status speed-limiter-adjacent rpm-word offset 0: 3000 rpm raw 0x2EE0; full_index=4/232
(1780181225.504000) can0 10220040#2EE0000040080000
# tx t=022.871s 102C0040#803C96B503 note=rpm word sweep baseline ignition/power-mode key-on context
# tx t=022.871s 10220040#2EE0000040080000 note=10220040 body/status speed-limiter-adjacent rpm-word offset 0: 3000 rpm raw 0x2EE0; full_index=4/232
# tx t=022.871s 10210040#0000000000000000 note=RPM sweep progress indicator 1.3% full_index=4/232 target 1 kmh via confirmed 10210040 byte0=0x00
(1780181225.537000) can0 102C0040#803C96B503
(1780181225.537000) can0 10220040#2EE0000040080000
(1780181225.537000) can0 10210040#0000000000000000
# tx t=022.902s 10220040#2EE0000040080000 note=10220040 body/status speed-limiter-adjacent rpm-word offset 0: 3000 rpm raw 0x2EE0; full_index=4/232
(1780181225.568000) can0 10220040#2EE0000040080000
# tx t=022.934s 10220040#2EE0000040080000 note=10220040 body/status speed-limiter-adjacent rpm-word offset 0: 3000 rpm raw 0x2EE0; full_index=4/232
(1780181225.600000) can0 10220040#2EE0000040080000
# tx t=022.967s 13FFE040# note=rpm word sweep baseline BCM/source 0x40 presence
# tx t=022.967s 621#0052000000000000 note=rpm word sweep baseline key-on 621 keepalive
# tx t=022.967s 102C0040#803C96B503 note=rpm word sweep baseline ignition/power-mode key-on context
# tx t=022.967s 102CC040#0000400000000000 note=rpm word sweep baseline confirmed speed-valid prerequisite
# tx t=022.967s 10220040#2EE0000040080000 note=10220040 body/status speed-limiter-adjacent rpm-word offset 0: 3000 rpm raw 0x2EE0; full_index=4/232
# tx t=022.967s 10210040#0000000000000000 note=RPM sweep progress indicator 1.3% full_index=4/232 target 1 kmh via confirmed 10210040 byte0=0x00
(1780181225.633000) can0 13FFE040#
(1780181225.633000) can0 621#0052000000000000
(1780181225.633000) can0 102C0040#803C96B503
(1780181225.635000) can0 102CC040#0000400000000000
(1780181225.638000) can0 10220040#2EE0000040080000
(1780181225.642000) can0 10210040#0000000000000000
# tx t=022.999s 10220040#2EE0000040080000 note=10220040 body/status speed-limiter-adjacent rpm-word offset 0: 3000 rpm raw 0x2EE0; full_index=4/232
(1780181225.665000) can0 13FFE060#
(1780181225.665000) can0 10220040#2EE0000040080000
# rpm-window-end t=023.031s full_index=4/232 upper_index=4/232 active=10220040#2EE0000040080000 reason=completed
# rpm-window-start t=023.031s full_index=5/232 upper_index=5/232 active=10220040#100C800040080000 note=10220040 body/status speed-limiter-adjacent rpm-word offset 1: 800 rpm raw 0x0C80; full_index=5/232
# tx t=023.031s 10220040#100C800040080000 note=10220040 body/status speed-limiter-adjacent rpm-word offset 1: 800 rpm raw 0x0C80; full_index=5/232
(1780181225.697000) can0 10220040#100C800040080000
# tx t=023.063s 10220040#100C800040080000 note=10220040 body/status speed-limiter-adjacent rpm-word offset 1: 800 rpm raw 0x0C80; full_index=5/232
(1780181225.729000) can0 62C#0040000000000000
(1780181225.729000) can0 10220040#100C800040080000
# tx t=023.095s 102C0040#803C96B503 note=rpm word sweep baseline ignition/power-mode key-on context
# tx t=023.095s 10220040#100C800040080000 note=10220040 body/status speed-limiter-adjacent rpm-word offset 1: 800 rpm raw 0x0C80; full_index=5/232
# tx t=023.095s 10210040#0000000000000000 note=RPM sweep progress indicator 1.7% full_index=5/232 target 2 kmh via confirmed 10210040 byte0=0x00
(1780181225.761000) can0 102C0040#803C96B503
(1780181225.761000) can0 10220040#100C800040080000
(1780181225.761000) can0 10210040#0000000000000000
# tx t=023.127s 10220040#100C800040080000 note=10220040 body/status speed-limiter-adjacent rpm-word offset 1: 800 rpm raw 0x0C80; full_index=5/232
(1780181225.793000) can0 10220040#100C800040080000
# tx t=023.159s 10220040#100C800040080000 note=10220040 body/status speed-limiter-adjacent rpm-word offset 1: 800 rpm raw 0x0C80; full_index=5/232
(1780181225.825000) can0 10220040#100C800040080000
# tx t=023.191s 102C0040#803C96B503 note=rpm word sweep baseline ignition/power-mode key-on context
# tx t=023.191s 10220040#100C800040080000 note=10220040 body/status speed-limiter-adjacent rpm-word offset 1: 800 rpm raw 0x0C80; full_index=5/232
# tx t=023.191s 10210040#0000000000000000 note=RPM sweep progress indicator 1.7% full_index=5/232 target 2 kmh via confirmed 10210040 byte0=0x00
(1780181225.857000) can0 102C0040#803C96B503
(1780181225.857000) can0 10220040#100C800040080000
(1780181225.857000) can0 10210040#0000000000000000
# tx t=023.223s 102CC040#0000400000000000 note=rpm word sweep baseline confirmed speed-valid prerequisite
# tx t=023.223s 10220040#100C800040080000 note=10220040 body/status speed-limiter-adjacent rpm-word offset 1: 800 rpm raw 0x0C80; full_index=5/232
(1780181225.889000) can0 102CC040#0000400000000000
(1780181225.889000) can0 10220040#100C800040080000
# tx t=023.255s 10220040#100C800040080000 note=10220040 body/status speed-limiter-adjacent rpm-word offset 1: 800 rpm raw 0x0C80; full_index=5/232
(1780181225.921000) can0 10220040#100C800040080000
# tx t=023.287s 102C0040#803C96B503 note=rpm word sweep baseline ignition/power-mode key-on context
# tx t=023.287s 10220040#100C800040080000 note=10220040 body/status speed-limiter-adjacent rpm-word offset 1: 800 rpm raw 0x0C80; full_index=5/232
# tx t=023.287s 10210040#0000000000000000 note=RPM sweep progress indicator 1.7% full_index=5/232 target 2 kmh via confirmed 10210040 byte0=0x00
(1780181225.953000) can0 102C0040#803C96B503
(1780181225.953000) can0 10220040#100C800040080000
(1780181225.953000) can0 10210040#0000000000000000
# tx t=023.319s 10220040#100C800040080000 note=10220040 body/status speed-limiter-adjacent rpm-word offset 1: 800 rpm raw 0x0C80; full_index=5/232
(1780181225.985000) can0 10220040#100C800040080000
# tx t=023.351s 10220040#100C800040080000 note=10220040 body/status speed-limiter-adjacent rpm-word offset 1: 800 rpm raw 0x0C80; full_index=5/232
(1780181226.017000) can0 10220040#100C800040080000
# tx t=023.383s 102C0040#803C96B503 note=rpm word sweep baseline ignition/power-mode key-on context
# tx t=023.383s 10220040#100C800040080000 note=10220040 body/status speed-limiter-adjacent rpm-word offset 1: 800 rpm raw 0x0C80; full_index=5/232
# tx t=023.383s 10210040#0000000000000000 note=RPM sweep progress indicator 1.7% full_index=5/232 target 2 kmh via confirmed 10210040 byte0=0x00
(1780181226.049000) can0 102C0040#803C96B503
(1780181226.049000) can0 10220040#100C800040080000
(1780181226.049000) can0 10210040#0000000000000000
# tx t=023.415s 10220040#100C800040080000 note=10220040 body/status speed-limiter-adjacent rpm-word offset 1: 800 rpm raw 0x0C80; full_index=5/232
(1780181226.081000) can0 10220040#100C800040080000
# tx t=023.447s 10220040#100C800040080000 note=10220040 body/status speed-limiter-adjacent rpm-word offset 1: 800 rpm raw 0x0C80; full_index=5/232
(1780181226.113000) can0 10220040#100C800040080000
# tx t=023.479s 102C0040#803C96B503 note=rpm word sweep baseline ignition/power-mode key-on context
# tx t=023.479s 10242040#02 note=rpm word sweep baseline key second-turn sub-state
# tx t=023.479s 102CC040#0000400000000000 note=rpm word sweep baseline confirmed speed-valid prerequisite
# tx t=023.480s 10220040#100C800040080000 note=10220040 body/status speed-limiter-adjacent rpm-word offset 1: 800 rpm raw 0x0C80; full_index=5/232
# tx t=023.480s 10210040#0000000000000000 note=RPM sweep progress indicator 1.7% full_index=5/232 target 2 kmh via confirmed 10210040 byte0=0x00
(1780181226.146000) can0 102C0040#803C96B503
(1780181226.146000) can0 10242040#02
(1780181226.146000) can0 102CC040#0000400000000000
(1780181226.148000) can0 10220040#100C800040080000
(1780181226.151000) can0 10210040#0000000000000000
# tx t=023.511s 10220040#100C800040080000 note=10220040 body/status speed-limiter-adjacent rpm-word offset 1: 800 rpm raw 0x0C80; full_index=5/232
(1780181226.177000) can0 10220040#100C800040080000
# tx t=023.543s 10220040#100C800040080000 note=10220040 body/status speed-limiter-adjacent rpm-word offset 1: 800 rpm raw 0x0C80; full_index=5/232
(1780181226.209000) can0 10220040#100C800040080000
# tx t=023.575s 102C0040#803C96B503 note=rpm word sweep baseline ignition/power-mode key-on context
# tx t=023.575s 10754040#040400 note=rpm word sweep baseline key-present/key-on context
# tx t=023.575s 10220040#100C800040080000 note=10220040 body/status speed-limiter-adjacent rpm-word offset 1: 800 rpm raw 0x0C80; full_index=5/232
# tx t=023.576s 10210040#0000000000000000 note=RPM sweep progress indicator 1.7% full_index=5/232 target 2 kmh via confirmed 10210040 byte0=0x00
(1780181226.242000) can0 102C0040#803C96B503
(1780181226.242000) can0 10754040#040400
(1780181226.242000) can0 10220040#100C800040080000
(1780181226.244000) can0 10210040#0000000000000000
# tx t=023.607s 10220040#100C800040080000 note=10220040 body/status speed-limiter-adjacent rpm-word offset 1: 800 rpm raw 0x0C80; full_index=5/232
(1780181226.273000) can0 10220040#100C800040080000
# tx t=023.639s 10220040#100C800040080000 note=10220040 body/status speed-limiter-adjacent rpm-word offset 1: 800 rpm raw 0x0C80; full_index=5/232
(1780181226.305000) can0 10220040#100C800040080000
# tx t=023.671s 102C0040#803C96B503 note=rpm word sweep baseline ignition/power-mode key-on context
# tx t=023.671s 10220040#100C800040080000 note=10220040 body/status speed-limiter-adjacent rpm-word offset 1: 800 rpm raw 0x0C80; full_index=5/232
# tx t=023.672s 10210040#0000000000000000 note=RPM sweep progress indicator 1.7% full_index=5/232 target 2 kmh via confirmed 10210040 byte0=0x00
(1780181226.338000) can0 102C0040#803C96B503
(1780181226.338000) can0 10220040#100C800040080000
(1780181226.338000) can0 10210040#0000000000000000
# tx t=023.703s 10220040#100C800040080000 note=10220040 body/status speed-limiter-adjacent rpm-word offset 1: 800 rpm raw 0x0C80; full_index=5/232
(1780181226.369000) can0 10220040#100C800040080000
# tx t=023.735s 102CC040#0000400000000000 note=rpm word sweep baseline confirmed speed-valid prerequisite
# tx t=023.735s 10220040#100C800040080000 note=10220040 body/status speed-limiter-adjacent rpm-word offset 1: 800 rpm raw 0x0C80; full_index=5/232
(1780181226.401000) can0 102CC040#0000400000000000
(1780181226.402000) can0 10220040#100C800040080000
# tx t=023.767s 102C0040#803C96B503 note=rpm word sweep baseline ignition/power-mode key-on context
# tx t=023.768s 10220040#100C800040080000 note=10220040 body/status speed-limiter-adjacent rpm-word offset 1: 800 rpm raw 0x0C80; full_index=5/232
# tx t=023.768s 10210040#0000000000000000 note=RPM sweep progress indicator 1.7% full_index=5/232 target 2 kmh via confirmed 10210040 byte0=0x00
(1780181226.434000) can0 102C0040#803C96B503
(1780181226.434000) can0 10220040#100C800040080000
(1780181226.434000) can0 10210040#0000000000000000
# tx t=023.799s 10220040#100C800040080000 note=10220040 body/status speed-limiter-adjacent rpm-word offset 1: 800 rpm raw 0x0C80; full_index=5/232
(1780181226.465000) can0 10220040#100C800040080000
# tx t=023.831s 10220040#100C800040080000 note=10220040 body/status speed-limiter-adjacent rpm-word offset 1: 800 rpm raw 0x0C80; full_index=5/232
(1780181226.497000) can0 10220040#100C800040080000
# tx t=023.864s 10220040#100C800040080000 note=10220040 body/status speed-limiter-adjacent rpm-word offset 1: 800 rpm raw 0x0C80; full_index=5/232
(1780181226.529000) can0 10220040#100C800040080000
# tx t=023.896s 102C0040#803C96B503 note=rpm word sweep baseline ignition/power-mode key-on context
# tx t=023.896s 10220040#100C800040080000 note=10220040 body/status speed-limiter-adjacent rpm-word offset 1: 800 rpm raw 0x0C80; full_index=5/232
# tx t=023.896s 10210040#0000000000000000 note=RPM sweep progress indicator 1.7% full_index=5/232 target 2 kmh via confirmed 10210040 byte0=0x00
(1780181226.562000) can0 102C0040#803C96B503
(1780181226.562000) can0 10220040#100C800040080000
(1780181226.562000) can0 10210040#0000000000000000
# tx t=023.928s 10220040#100C800040080000 note=10220040 body/status speed-limiter-adjacent rpm-word offset 1: 800 rpm raw 0x0C80; full_index=5/232
(1780181226.593000) can0 10220040#100C800040080000
# tx t=023.960s 10220040#100C800040080000 note=10220040 body/status speed-limiter-adjacent rpm-word offset 1: 800 rpm raw 0x0C80; full_index=5/232
(1780181226.626000) can0 10220040#100C800040080000
# tx t=023.992s 621#0052000000000000 note=rpm word sweep baseline key-on 621 keepalive
# tx t=023.992s 102C0040#803C96B503 note=rpm word sweep baseline ignition/power-mode key-on context
# tx t=023.992s 102CC040#0000400000000000 note=rpm word sweep baseline confirmed speed-valid prerequisite
# tx t=023.992s 10220040#100C800040080000 note=10220040 body/status speed-limiter-adjacent rpm-word offset 1: 800 rpm raw 0x0C80; full_index=5/232
# tx t=023.992s 10210040#0000000000000000 note=RPM sweep progress indicator 1.7% full_index=5/232 target 2 kmh via confirmed 10210040 byte0=0x00
(1780181226.658000) can0 621#0052000000000000
(1780181226.658000) can0 102C0040#803C96B503
(1780181226.658000) can0 102CC040#0000400000000000
(1780181226.661000) can0 10220040#100C800040080000
(1780181226.665000) can0 10210040#0000000000000000
# tx t=024.024s 10220040#100C800040080000 note=10220040 body/status speed-limiter-adjacent rpm-word offset 1: 800 rpm raw 0x0C80; full_index=5/232
(1780181226.690000) can0 10220040#100C800040080000
# tx t=024.056s 10220040#100C800040080000 note=10220040 body/status speed-limiter-adjacent rpm-word offset 1: 800 rpm raw 0x0C80; full_index=5/232
(1780181226.722000) can0 10220040#100C800040080000
# tx t=024.088s 102C0040#803C96B503 note=rpm word sweep baseline ignition/power-mode key-on context
# tx t=024.088s 10220040#100C800040080000 note=10220040 body/status speed-limiter-adjacent rpm-word offset 1: 800 rpm raw 0x0C80; full_index=5/232
# tx t=024.088s 10210040#0000000000000000 note=RPM sweep progress indicator 1.7% full_index=5/232 target 2 kmh via confirmed 10210040 byte0=0x00
(1780181226.754000) can0 102C0040#803C96B503
(1780181226.754000) can0 10220040#100C800040080000
(1780181226.754000) can0 10210040#0000000000000000
# tx t=024.120s 10220040#100C800040080000 note=10220040 body/status speed-limiter-adjacent rpm-word offset 1: 800 rpm raw 0x0C80; full_index=5/232
(1780181226.786000) can0 10220040#100C800040080000
# tx t=024.152s 10220040#100C800040080000 note=10220040 body/status speed-limiter-adjacent rpm-word offset 1: 800 rpm raw 0x0C80; full_index=5/232
(1780181226.818000) can0 10220040#100C800040080000
# tx t=024.184s 13FFE040# note=rpm word sweep baseline BCM/source 0x40 presence
# tx t=024.184s 102C0040#803C96B503 note=rpm word sweep baseline ignition/power-mode key-on context
# tx t=024.184s 10220040#100C800040080000 note=10220040 body/status speed-limiter-adjacent rpm-word offset 1: 800 rpm raw 0x0C80; full_index=5/232
# tx t=024.184s 10210040#0000000000000000 note=RPM sweep progress indicator 1.7% full_index=5/232 target 2 kmh via confirmed 10210040 byte0=0x00
(1780181226.850000) can0 13FFE040#
(1780181226.850000) can0 102C0040#803C96B503
(1780181226.850000) can0 10220040#100C800040080000
(1780181226.852000) can0 13FFE060#
(1780181226.854000) can0 10210040#0000000000000000
# tx t=024.216s 102CC040#0000400000000000 note=rpm word sweep baseline confirmed speed-valid prerequisite
# tx t=024.216s 10220040#100C800040080000 note=10220040 body/status speed-limiter-adjacent rpm-word offset 1: 800 rpm raw 0x0C80; full_index=5/232
(1780181226.882000) can0 102CC040#0000400000000000
(1780181226.882000) can0 10220040#100C800040080000
# tx t=024.247s 10220040#100C800040080000 note=10220040 body/status speed-limiter-adjacent rpm-word offset 1: 800 rpm raw 0x0C80; full_index=5/232
(1780181226.913000) can0 10220040#100C800040080000
# tx t=024.279s 102C0040#803C96B503 note=rpm word sweep baseline ignition/power-mode key-on context
# tx t=024.279s 10220040#100C800040080000 note=10220040 body/status speed-limiter-adjacent rpm-word offset 1: 800 rpm raw 0x0C80; full_index=5/232
# tx t=024.279s 10210040#0000000000000000 note=RPM sweep progress indicator 1.7% full_index=5/232 target 2 kmh via confirmed 10210040 byte0=0x00
(1780181226.945000) can0 102C0040#803C96B503
(1780181226.945000) can0 10220040#100C800040080000
(1780181226.945000) can0 10210040#0000000000000000
# tx t=024.311s 10220040#100C800040080000 note=10220040 body/status speed-limiter-adjacent rpm-word offset 1: 800 rpm raw 0x0C80; full_index=5/232
(1780181226.977000) can0 10220040#100C800040080000
# tx t=024.343s 10220040#100C800040080000 note=10220040 body/status speed-limiter-adjacent rpm-word offset 1: 800 rpm raw 0x0C80; full_index=5/232
(1780181227.009000) can0 10220040#100C800040080000
# tx t=024.375s 102C0040#803C96B503 note=rpm word sweep baseline ignition/power-mode key-on context
# tx t=024.375s 10220040#100C800040080000 note=10220040 body/status speed-limiter-adjacent rpm-word offset 1: 800 rpm raw 0x0C80; full_index=5/232
# tx t=024.375s 10210040#0000000000000000 note=RPM sweep progress indicator 1.7% full_index=5/232 target 2 kmh via confirmed 10210040 byte0=0x00
(1780181227.041000) can0 102C0040#803C96B503
(1780181227.042000) can0 10220040#100C800040080000
(1780181227.042000) can0 10210040#0000000000000000
# tx t=024.407s 10220040#100C800040080000 note=10220040 body/status speed-limiter-adjacent rpm-word offset 1: 800 rpm raw 0x0C80; full_index=5/232
(1780181227.073000) can0 10220040#100C800040080000
# tx t=024.438s 10220040#100C800040080000 note=10220040 body/status speed-limiter-adjacent rpm-word offset 1: 800 rpm raw 0x0C80; full_index=5/232
(1780181227.104000) can0 10220040#100C800040080000
# tx t=024.470s 102C0040#803C96B503 note=rpm word sweep baseline ignition/power-mode key-on context
# tx t=024.470s 10242040#02 note=rpm word sweep baseline key second-turn sub-state
# tx t=024.470s 102CC040#0000400000000000 note=rpm word sweep baseline confirmed speed-valid prerequisite
# tx t=024.471s 10220040#100C800040080000 note=10220040 body/status speed-limiter-adjacent rpm-word offset 1: 800 rpm raw 0x0C80; full_index=5/232
# tx t=024.471s 10210040#0000000000000000 note=RPM sweep progress indicator 1.7% full_index=5/232 target 2 kmh via confirmed 10210040 byte0=0x00
(1780181227.137000) can0 102C0040#803C96B503
(1780181227.137000) can0 10242040#02
(1780181227.137000) can0 102CC040#0000400000000000
(1780181227.139000) can0 10220040#100C800040080000
(1780181227.142000) can0 10210040#0000000000000000
# tx t=024.502s 10220040#100C800040080000 note=10220040 body/status speed-limiter-adjacent rpm-word offset 1: 800 rpm raw 0x0C80; full_index=5/232
(1780181227.168000) can0 10220040#100C800040080000
# rpm-window-end t=024.534s full_index=5/232 upper_index=5/232 active=10220040#100C800040080000 reason=completed
# rpm-window-start t=024.534s full_index=6/232 upper_index=6/232 active=10220040#1012C00040080000 note=10220040 body/status speed-limiter-adjacent rpm-word offset 1: 1200 rpm raw 0x12C0; full_index=6/232
# tx t=024.534s 10220040#1012C00040080000 note=10220040 body/status speed-limiter-adjacent rpm-word offset 1: 1200 rpm raw 0x12C0; full_index=6/232
(1780181227.200000) can0 10220040#1012C00040080000
# tx t=024.566s 102C0040#803C96B503 note=rpm word sweep baseline ignition/power-mode key-on context
# tx t=024.566s 10754040#040400 note=rpm word sweep baseline key-present/key-on context
# tx t=024.567s 10220040#1012C00040080000 note=10220040 body/status speed-limiter-adjacent rpm-word offset 1: 1200 rpm raw 0x12C0; full_index=6/232
# tx t=024.567s 10210040#0100000000000000 note=RPM sweep progress indicator 2.2% full_index=6/232 target 2 kmh via confirmed 10210040 byte0=0x01
(1780181227.233000) can0 102C0040#803C96B503
(1780181227.233000) can0 10754040#040400
(1780181227.233000) can0 10220040#1012C00040080000
(1780181227.235000) can0 10210040#0100000000000000
# tx t=024.598s 10220040#1012C00040080000 note=10220040 body/status speed-limiter-adjacent rpm-word offset 1: 1200 rpm raw 0x12C0; full_index=6/232
(1780181227.264000) can0 10220040#1012C00040080000
# tx t=024.630s 10220040#1012C00040080000 note=10220040 body/status speed-limiter-adjacent rpm-word offset 1: 1200 rpm raw 0x12C0; full_index=6/232
(1780181227.296000) can0 10220040#1012C00040080000
# tx t=024.662s 10220040#1012C00040080000 note=10220040 body/status speed-limiter-adjacent rpm-word offset 1: 1200 rpm raw 0x12C0; full_index=6/232
(1780181227.328000) can0 10220040#1012C00040080000
# tx t=024.694s 102C0040#803C96B503 note=rpm word sweep baseline ignition/power-mode key-on context
# tx t=024.695s 10220040#1012C00040080000 note=10220040 body/status speed-limiter-adjacent rpm-word offset 1: 1200 rpm raw 0x12C0; full_index=6/232
# tx t=024.695s 10210040#0100000000000000 note=RPM sweep progress indicator 2.2% full_index=6/232 target 2 kmh via confirmed 10210040 byte0=0x01
(1780181227.361000) can0 102C0040#803C96B503
(1780181227.361000) can0 10220040#1012C00040080000
(1780181227.361000) can0 10210040#0100000000000000
# tx t=024.726s 102CC040#0000400000000000 note=rpm word sweep baseline confirmed speed-valid prerequisite
# tx t=024.727s 10220040#1012C00040080000 note=10220040 body/status speed-limiter-adjacent rpm-word offset 1: 1200 rpm raw 0x12C0; full_index=6/232
(1780181227.392000) can0 102CC040#0000400000000000
(1780181227.393000) can0 10220040#1012C00040080000
# tx t=024.758s 10220040#1012C00040080000 note=10220040 body/status speed-limiter-adjacent rpm-word offset 1: 1200 rpm raw 0x12C0; full_index=6/232
(1780181227.424000) can0 10220040#1012C00040080000
# tx t=024.790s 102C0040#803C96B503 note=rpm word sweep baseline ignition/power-mode key-on context
# tx t=024.790s 10220040#1012C00040080000 note=10220040 body/status speed-limiter-adjacent rpm-word offset 1: 1200 rpm raw 0x12C0; full_index=6/232
# tx t=024.790s 10210040#0100000000000000 note=RPM sweep progress indicator 2.2% full_index=6/232 target 2 kmh via confirmed 10210040 byte0=0x01
(1780181227.456000) can0 102C0040#803C96B503
(1780181227.456000) can0 10220040#1012C00040080000
(1780181227.456000) can0 10210040#0100000000000000
(1780181227.471000) can0 10400060#866403FF58
# tx t=024.838s 10220040#1012C00040080000 note=10220040 body/status speed-limiter-adjacent rpm-word offset 1: 1200 rpm raw 0x12C0; full_index=6/232
(1780181227.504000) can0 10220040#1012C00040080000
# tx t=024.869s 102C0040#803C96B503 note=rpm word sweep baseline ignition/power-mode key-on context
# tx t=024.870s 10220040#1012C00040080000 note=10220040 body/status speed-limiter-adjacent rpm-word offset 1: 1200 rpm raw 0x12C0; full_index=6/232
# tx t=024.870s 10210040#0100000000000000 note=RPM sweep progress indicator 2.2% full_index=6/232 target 2 kmh via confirmed 10210040 byte0=0x01
(1780181227.536000) can0 102C0040#803C96B503
(1780181227.536000) can0 10220040#1012C00040080000
(1780181227.536000) can0 10210040#0100000000000000
# tx t=024.900s 10220040#1012C00040080000 note=10220040 body/status speed-limiter-adjacent rpm-word offset 1: 1200 rpm raw 0x12C0; full_index=6/232
(1780181227.567000) can0 10220040#1012C00040080000
# tx t=024.932s 10220040#1012C00040080000 note=10220040 body/status speed-limiter-adjacent rpm-word offset 1: 1200 rpm raw 0x12C0; full_index=6/232
(1780181227.598000) can0 10220040#1012C00040080000
# tx t=024.964s 10220040#1012C00040080000 note=10220040 body/status speed-limiter-adjacent rpm-word offset 1: 1200 rpm raw 0x12C0; full_index=6/232
(1780181227.630000) can0 10220040#1012C00040080000
# tx t=024.996s 621#0052000000000000 note=rpm word sweep baseline key-on 621 keepalive
# tx t=024.996s 102C0040#803C96B503 note=rpm word sweep baseline ignition/power-mode key-on context
# tx t=024.996s 102CC040#0000400000000000 note=rpm word sweep baseline confirmed speed-valid prerequisite
# tx t=024.996s 10220040#1012C00040080000 note=10220040 body/status speed-limiter-adjacent rpm-word offset 1: 1200 rpm raw 0x12C0; full_index=6/232
# tx t=024.996s 10210040#0100000000000000 note=RPM sweep progress indicator 2.2% full_index=6/232 target 2 kmh via confirmed 10210040 byte0=0x01
(1780181227.662000) can0 621#0052000000000000
(1780181227.662000) can0 102C0040#803C96B503
(1780181227.662000) can0 102CC040#0000400000000000
(1780181227.665000) can0 10220040#1012C00040080000
(1780181227.668000) can0 10210040#0100000000000000
# tx t=025.028s 10220040#1012C00040080000 note=10220040 body/status speed-limiter-adjacent rpm-word offset 1: 1200 rpm raw 0x12C0; full_index=6/232
(1780181227.694000) can0 10220040#1012C00040080000
# tx t=025.060s 10220040#1012C00040080000 note=10220040 body/status speed-limiter-adjacent rpm-word offset 1: 1200 rpm raw 0x12C0; full_index=6/232
(1780181227.726000) can0 10220040#1012C00040080000
# tx t=025.092s 102C0040#803C96B503 note=rpm word sweep baseline ignition/power-mode key-on context
# tx t=025.092s 10220040#1012C00040080000 note=10220040 body/status speed-limiter-adjacent rpm-word offset 1: 1200 rpm raw 0x12C0; full_index=6/232
# tx t=025.092s 10210040#0100000000000000 note=RPM sweep progress indicator 2.2% full_index=6/232 target 2 kmh via confirmed 10210040 byte0=0x01
(1780181227.758000) can0 102C0040#803C96B503
(1780181227.758000) can0 10220040#1012C00040080000
(1780181227.758000) can0 10210040#0100000000000000
# tx t=025.124s 10220040#1012C00040080000 note=10220040 body/status speed-limiter-adjacent rpm-word offset 1: 1200 rpm raw 0x12C0; full_index=6/232
(1780181227.790000) can0 10220040#1012C00040080000
# tx t=025.156s 10220040#1012C00040080000 note=10220040 body/status speed-limiter-adjacent rpm-word offset 1: 1200 rpm raw 0x12C0; full_index=6/232
(1780181227.822000) can0 10220040#1012C00040080000
# tx t=025.188s 102C0040#803C96B503 note=rpm word sweep baseline ignition/power-mode key-on context
# tx t=025.188s 10220040#1012C00040080000 note=10220040 body/status speed-limiter-adjacent rpm-word offset 1: 1200 rpm raw 0x12C0; full_index=6/232
# tx t=025.188s 10210040#0100000000000000 note=RPM sweep progress indicator 2.2% full_index=6/232 target 2 kmh via confirmed 10210040 byte0=0x01
(1780181227.854000) can0 102C0040#803C96B503
(1780181227.854000) can0 10220040#1012C00040080000
(1780181227.854000) can0 10210040#0100000000000000
# tx t=025.220s 102CC040#0000400000000000 note=rpm word sweep baseline confirmed speed-valid prerequisite
# tx t=025.220s 10220040#1012C00040080000 note=10220040 body/status speed-limiter-adjacent rpm-word offset 1: 1200 rpm raw 0x12C0; full_index=6/232
(1780181227.886000) can0 102CC040#0000400000000000
(1780181227.886000) can0 10220040#1012C00040080000
# tx t=025.252s 10220040#1012C00040080000 note=10220040 body/status speed-limiter-adjacent rpm-word offset 1: 1200 rpm raw 0x12C0; full_index=6/232
(1780181227.918000) can0 10220040#1012C00040080000
# tx t=025.284s 102C0040#803C96B503 note=rpm word sweep baseline ignition/power-mode key-on context
# tx t=025.284s 10220040#1012C00040080000 note=10220040 body/status speed-limiter-adjacent rpm-word offset 1: 1200 rpm raw 0x12C0; full_index=6/232
# tx t=025.284s 10210040#0100000000000000 note=RPM sweep progress indicator 2.2% full_index=6/232 target 2 kmh via confirmed 10210040 byte0=0x01
(1780181227.950000) can0 102C0040#803C96B503
(1780181227.951000) can0 10220040#1012C00040080000
(1780181227.951000) can0 10210040#0100000000000000
# tx t=025.316s 10220040#1012C00040080000 note=10220040 body/status speed-limiter-adjacent rpm-word offset 1: 1200 rpm raw 0x12C0; full_index=6/232
(1780181227.982000) can0 10220040#1012C00040080000
# tx t=025.348s 10220040#1012C00040080000 note=10220040 body/status speed-limiter-adjacent rpm-word offset 1: 1200 rpm raw 0x12C0; full_index=6/232
(1780181228.014000) can0 10220040#1012C00040080000
# tx t=025.380s 13FFE040# note=rpm word sweep baseline BCM/source 0x40 presence
# tx t=025.380s 102C0040#803C96B503 note=rpm word sweep baseline ignition/power-mode key-on context
# tx t=025.380s 10220040#1012C00040080000 note=10220040 body/status speed-limiter-adjacent rpm-word offset 1: 1200 rpm raw 0x12C0; full_index=6/232
# tx t=025.381s 10210040#0100000000000000 note=RPM sweep progress indicator 2.2% full_index=6/232 target 2 kmh via confirmed 10210040 byte0=0x01
(1780181228.046000) can0 13FFE040#
(1780181228.047000) can0 102C0040#803C96B503
(1780181228.047000) can0 10220040#1012C00040080000
(1780181228.048000) can0 10210040#0100000000000000
# tx t=025.412s 10220040#1012C00040080000 note=10220040 body/status speed-limiter-adjacent rpm-word offset 1: 1200 rpm raw 0x12C0; full_index=6/232
(1780181228.078000) can0 13FFE060#
(1780181228.078000) can0 10220040#1012C00040080000
# tx t=025.444s 10220040#1012C00040080000 note=10220040 body/status speed-limiter-adjacent rpm-word offset 1: 1200 rpm raw 0x12C0; full_index=6/232
(1780181228.110000) can0 10220040#1012C00040080000
# tx t=025.476s 102C0040#803C96B503 note=rpm word sweep baseline ignition/power-mode key-on context
# tx t=025.476s 10242040#02 note=rpm word sweep baseline key second-turn sub-state
# tx t=025.477s 102CC040#0000400000000000 note=rpm word sweep baseline confirmed speed-valid prerequisite
# tx t=025.477s 10220040#1012C00040080000 note=10220040 body/status speed-limiter-adjacent rpm-word offset 1: 1200 rpm raw 0x12C0; full_index=6/232
# tx t=025.477s 10210040#0100000000000000 note=RPM sweep progress indicator 2.2% full_index=6/232 target 2 kmh via confirmed 10210040 byte0=0x01
(1780181228.143000) can0 102C0040#803C96B503
(1780181228.143000) can0 10242040#02
(1780181228.143000) can0 102CC040#0000400000000000
(1780181228.145000) can0 10220040#1012C00040080000
(1780181228.148000) can0 10210040#0100000000000000
# tx t=025.508s 10220040#1012C00040080000 note=10220040 body/status speed-limiter-adjacent rpm-word offset 1: 1200 rpm raw 0x12C0; full_index=6/232
(1780181228.174000) can0 10220040#1012C00040080000
# tx t=025.540s 10220040#1012C00040080000 note=10220040 body/status speed-limiter-adjacent rpm-word offset 1: 1200 rpm raw 0x12C0; full_index=6/232
(1780181228.206000) can0 10220040#1012C00040080000
# tx t=025.572s 102C0040#803C96B503 note=rpm word sweep baseline ignition/power-mode key-on context
# tx t=025.572s 10754040#040400 note=rpm word sweep baseline key-present/key-on context
# tx t=025.573s 10220040#1012C00040080000 note=10220040 body/status speed-limiter-adjacent rpm-word offset 1: 1200 rpm raw 0x12C0; full_index=6/232
# tx t=025.573s 10210040#0100000000000000 note=RPM sweep progress indicator 2.2% full_index=6/232 target 2 kmh via confirmed 10210040 byte0=0x01
(1780181228.239000) can0 102C0040#803C96B503
(1780181228.239000) can0 10754040#040400
(1780181228.239000) can0 10220040#1012C00040080000
(1780181228.241000) can0 10210040#0100000000000000
# tx t=025.604s 10220040#1012C00040080000 note=10220040 body/status speed-limiter-adjacent rpm-word offset 1: 1200 rpm raw 0x12C0; full_index=6/232
(1780181228.270000) can0 10220040#1012C00040080000
# tx t=025.636s 10220040#1012C00040080000 note=10220040 body/status speed-limiter-adjacent rpm-word offset 1: 1200 rpm raw 0x12C0; full_index=6/232
(1780181228.302000) can0 10220040#1012C00040080000
# tx t=025.668s 102C0040#803C96B503 note=rpm word sweep baseline ignition/power-mode key-on context
# tx t=025.669s 10220040#1012C00040080000 note=10220040 body/status speed-limiter-adjacent rpm-word offset 1: 1200 rpm raw 0x12C0; full_index=6/232
# tx t=025.669s 10210040#0100000000000000 note=RPM sweep progress indicator 2.2% full_index=6/232 target 2 kmh via confirmed 10210040 byte0=0x01
(1780181228.335000) can0 102C0040#803C96B503
(1780181228.335000) can0 10220040#1012C00040080000
(1780181228.335000) can0 10210040#0100000000000000
# tx t=025.700s 10220040#1012C00040080000 note=10220040 body/status speed-limiter-adjacent rpm-word offset 1: 1200 rpm raw 0x12C0; full_index=6/232
(1780181228.366000) can0 10220040#1012C00040080000
# tx t=025.732s 102CC040#0000400000000000 note=rpm word sweep baseline confirmed speed-valid prerequisite
# tx t=025.733s 10220040#1012C00040080000 note=10220040 body/status speed-limiter-adjacent rpm-word offset 1: 1200 rpm raw 0x12C0; full_index=6/232
(1780181228.398000) can0 102CC040#0000400000000000
(1780181228.399000) can0 10220040#1012C00040080000
# tx t=025.764s 10220040#1012C00040080000 note=10220040 body/status speed-limiter-adjacent rpm-word offset 1: 1200 rpm raw 0x12C0; full_index=6/232
(1780181228.430000) can0 10220040#1012C00040080000
# tx t=025.796s 102C0040#803C96B503 note=rpm word sweep baseline ignition/power-mode key-on context
# tx t=025.797s 10220040#1012C00040080000 note=10220040 body/status speed-limiter-adjacent rpm-word offset 1: 1200 rpm raw 0x12C0; full_index=6/232
# tx t=025.797s 10210040#0100000000000000 note=RPM sweep progress indicator 2.2% full_index=6/232 target 2 kmh via confirmed 10210040 byte0=0x01
(1780181228.463000) can0 102C0040#803C96B503
(1780181228.463000) can0 10220040#1012C00040080000
(1780181228.463000) can0 10210040#0100000000000000
# tx t=025.829s 10220040#1012C00040080000 note=10220040 body/status speed-limiter-adjacent rpm-word offset 1: 1200 rpm raw 0x12C0; full_index=6/232
(1780181228.495000) can0 10220040#1012C00040080000
# tx t=025.861s 10220040#1012C00040080000 note=10220040 body/status speed-limiter-adjacent rpm-word offset 1: 1200 rpm raw 0x12C0; full_index=6/232
(1780181228.527000) can0 10220040#1012C00040080000
# tx t=025.892s 102C0040#803C96B503 note=rpm word sweep baseline ignition/power-mode key-on context
# tx t=025.893s 10220040#1012C00040080000 note=10220040 body/status speed-limiter-adjacent rpm-word offset 1: 1200 rpm raw 0x12C0; full_index=6/232
# tx t=025.893s 10210040#0100000000000000 note=RPM sweep progress indicator 2.2% full_index=6/232 target 2 kmh via confirmed 10210040 byte0=0x01
(1780181228.559000) can0 102C0040#803C96B503
(1780181228.559000) can0 10220040#1012C00040080000
(1780181228.559000) can0 10210040#0100000000000000
