# cantool live-reload TX/RX capture bitrate=33333.333 fclk=170000000 brp=255 prop=1 phase1=13 phase2=5 sjw=4
# live-reload file=E:\Projects\opel_corsa_e\send_profile.can
# live-reload loaded rows=124 active=2 file=E:\Projects\opel_corsa_e\send_profile.can
# tx t=008.297s 10210040#0F08484848484848 note=live speed_60_kmh_candidate - shows 66 kmh
# tx t=008.299s 102CC040#EEEEEEEEEEEEEEEE note=live speed valid prerequisite confirmed, and rest just in case
(1780172651.093000) can0 10210040#0F08484848484848
(1780172651.093000) can0 102CC040#EEEEEEEEEEEEEEEE
(1780172651.120000) can0 10244060#02
# tx t=008.399s 10210040#0F08484848484848 note=live speed_60_kmh_candidate - shows 66 kmh
(1780172651.193000) can0 10210040#0F08484848484848
(1780172651.271000) can0 62C#0040000000000000
# tx t=008.495s 10210040#0F08484848484848 note=live speed_60_kmh_candidate - shows 66 kmh
(1780172651.289000) can0 10210040#0F08484848484848
# tx t=008.543s 102CC040#EEEEEEEEEEEEEEEE note=live speed valid prerequisite confirmed, and rest just in case
(1780172651.337000) can0 102CC040#EEEEEEEEEEEEEEEE
# tx t=008.607s 10210040#0F08484848484848 note=live speed_60_kmh_candidate - shows 66 kmh
(1780172651.400000) can0 10210040#0F08484848484848
# tx t=008.703s 10210040#0F08484848484848 note=live speed_60_kmh_candidate - shows 66 kmh
(1780172651.496000) can0 10210040#0F08484848484848
# tx t=008.799s 10210040#0F08484848484848 note=live speed_60_kmh_candidate - shows 66 kmh
# tx t=008.799s 102CC040#EEEEEEEEEEEEEEEE note=live speed valid prerequisite confirmed, and rest just in case
(1780172651.593000) can0 10210040#0F08484848484848
(1780172651.593000) can0 102CC040#EEEEEEEEEEEEEEEE
# tx t=008.895s 10210040#0F08484848484848 note=live speed_60_kmh_candidate - shows 66 kmh
(1780172651.688000) can0 10210040#0F08484848484848
# tx t=009.007s 10210040#0F08484848484848 note=live speed_60_kmh_candidate - shows 66 kmh
(1780172651.800000) can0 10210040#0F08484848484848
# tx t=009.055s 102CC040#EEEEEEEEEEEEEEEE note=live speed valid prerequisite confirmed, and rest just in case
(1780172651.849000) can0 102CC040#EEEEEEEEEEEEEEEE
# tx t=009.103s 10210040#0F08484848484848 note=live speed_60_kmh_candidate - shows 66 kmh
(1780172651.897000) can0 10210040#0F08484848484848
# tx t=009.199s 10210040#0F08484848484848 note=live speed_60_kmh_candidate - shows 66 kmh
(1780172651.993000) can0 10210040#0F08484848484848
# tx t=009.294s 10210040#0F08484848484848 note=live speed_60_kmh_candidate - shows 66 kmh
# tx t=009.294s 102CC040#EEEEEEEEEEEEEEEE note=live speed valid prerequisite confirmed, and rest just in case
(1780172652.088000) can0 10210040#0F08484848484848
(1780172652.088000) can0 102CC040#EEEEEEEEEEEEEEEE
# tx t=009.405s 10210040#0F08484848484848 note=live speed_60_kmh_candidate - shows 66 kmh
(1780172652.199000) can0 10210040#0F08484848484848
(1780172652.263000) can0 13FFE060#
# tx t=009.501s 10210040#0F08484848484848 note=live speed_60_kmh_candidate - shows 66 kmh
(1780172652.295000) can0 10210040#0F08484848484848
# tx t=009.549s 102CC040#EEEEEEEEEEEEEEEE note=live speed valid prerequisite confirmed, and rest just in case
(1780172652.343000) can0 102CC040#EEEEEEEEEEEEEEEE
# tx t=009.598s 10210040#0F08484848484848 note=live speed_60_kmh_candidate - shows 66 kmh
(1780172652.391000) can0 10210040#0F08484848484848
# tx t=009.693s 10210040#0F08484848484848 note=live speed_60_kmh_candidate - shows 66 kmh
(1780172652.486000) can0 10210040#0F08484848484848
# tx t=009.805s 10210040#0F08484848484848 note=live speed_60_kmh_candidate - shows 66 kmh
# tx t=009.805s 102CC040#EEEEEEEEEEEEEEEE note=live speed valid prerequisite confirmed, and rest just in case
(1780172652.598000) can0 10210040#0F08484848484848
(1780172652.598000) can0 102CC040#EEEEEEEEEEEEEEEE
# tx t=009.900s 10210040#0F08484848484848 note=live speed_60_kmh_candidate - shows 66 kmh
(1780172652.693000) can0 10210040#0F08484848484848
# tx t=009.995s 10210040#0F08484848484848 note=live speed_60_kmh_candidate - shows 66 kmh
(1780172652.788000) can0 10210040#0F08484848484848
# tx t=010.058s 102CC040#EEEEEEEEEEEEEEEE note=live speed valid prerequisite confirmed, and rest just in case
(1780172652.851000) can0 102CC040#EEEEEEEEEEEEEEEE
# tx t=010.106s 10210040#0F08484848484848 note=live speed_60_kmh_candidate - shows 66 kmh
(1780172652.900000) can0 10210040#0F08484848484848
(1780172652.979000) can0 10244060#02
# tx t=010.202s 10210040#0F08484848484848 note=live speed_60_kmh_candidate - shows 66 kmh
(1780172652.996000) can0 10210040#0F08484848484848
# tx t=010.298s 10210040#0F08484848484848 note=live speed_60_kmh_candidate - shows 66 kmh
# tx t=010.298s 102CC040#EEEEEEEEEEEEEEEE note=live speed valid prerequisite confirmed, and rest just in case
(1780172653.092000) can0 10210040#0F08484848484848
(1780172653.092000) can0 102CC040#EEEEEEEEEEEEEEEE
# tx t=010.393s 10210040#0F08484848484848 note=live speed_60_kmh_candidate - shows 66 kmh
(1780172653.187000) can0 10210040#0F08484848484848
# tx t=010.505s 10210040#0F08484848484848 note=live speed_60_kmh_candidate - shows 66 kmh
(1780172653.299000) can0 10210040#0F08484848484848
# tx t=010.552s 102CC040#EEEEEEEEEEEEEEEE note=live speed valid prerequisite confirmed, and rest just in case
(1780172653.346000) can0 102CC040#EEEEEEEEEEEEEEEE
# tx t=010.600s 10210040#0F08484848484848 note=live speed_60_kmh_candidate - shows 66 kmh
(1780172653.393000) can0 10210040#0F08484848484848
(1780172653.456000) can0 13FFE060#
# tx t=010.695s 10210040#0F08484848484848 note=live speed_60_kmh_candidate - shows 66 kmh
(1780172653.488000) can0 10210040#0F08484848484848
# tx t=010.805s 10210040#0F08484848484848 note=live speed_60_kmh_candidate - shows 66 kmh
# tx t=010.805s 102CC040#EEEEEEEEEEEEEEEE note=live speed valid prerequisite confirmed, and rest just in case
(1780172653.599000) can0 10210040#0F08484848484848
(1780172653.599000) can0 102CC040#EEEEEEEEEEEEEEEE
# tx t=010.898s 10210040#0F08484848484848 note=live speed_60_kmh_candidate - shows 66 kmh
(1780172653.691000) can0 10210040#0F08484848484848
# tx t=010.994s 10210040#0F08484848484848 note=live speed_60_kmh_candidate - shows 66 kmh
(1780172653.787000) can0 10210040#0F08484848484848
# tx t=011.058s 102CC040#EEEEEEEEEEEEEEEE note=live speed valid prerequisite confirmed, and rest just in case
(1780172653.851000) can0 102CC040#EEEEEEEEEEEEEEEE
# tx t=011.106s 10210040#0F08484848484848 note=live speed_60_kmh_candidate - shows 66 kmh
(1780172653.899000) can0 10210040#0F08484848484848
# tx t=011.201s 10210040#0F08484848484848 note=live speed_60_kmh_candidate - shows 66 kmh
(1780172653.994000) can0 10210040#0F08484848484848
# tx t=011.297s 10210040#0F08484848484848 note=live speed_60_kmh_candidate - shows 66 kmh
# tx t=011.297s 102CC040#EEEEEEEEEEEEEEEE note=live speed valid prerequisite confirmed, and rest just in case
(1780172654.090000) can0 10210040#0F08484848484848
(1780172654.090000) can0 102CC040#EEEEEEEEEEEEEEEE
# tx t=011.392s 10210040#0F08484848484848 note=live speed_60_kmh_candidate - shows 66 kmh
(1780172654.186000) can0 10210040#0F08484848484848
(1780172654.281000) can0 62C#0040000000000000
# tx t=011.504s 10210040#0F08484848484848 note=live speed_60_kmh_candidate - shows 66 kmh
(1780172654.297000) can0 10210040#0F08484848484848
# tx t=011.552s 102CC040#EEEEEEEEEEEEEEEE note=live speed valid prerequisite confirmed, and rest just in case
(1780172654.345000) can0 102CC040#EEEEEEEEEEEEEEEE
# tx t=011.599s 10210040#0F08484848484848 note=live speed_60_kmh_candidate - shows 66 kmh
(1780172654.393000) can0 10210040#0F08484848484848
# tx t=011.694s 10210040#0F08484848484848 note=live speed_60_kmh_candidate - shows 66 kmh
(1780172654.487000) can0 10210040#0F08484848484848
# tx t=011.805s 10210040#0F08484848484848 note=live speed_60_kmh_candidate - shows 66 kmh
# tx t=011.805s 102CC040#EEEEEEEEEEEEEEEE note=live speed valid prerequisite confirmed, and rest just in case
(1780172654.599000) can0 10210040#0F08484848484848
(1780172654.599000) can0 102CC040#EEEEEEEEEEEEEEEE
(1780172654.662000) can0 13FFE060#
# tx t=011.901s 10210040#0F08484848484848 note=live speed_60_kmh_candidate - shows 66 kmh
(1780172654.694000) can0 10210040#0F08484848484848
# tx t=011.996s 10210040#0F08484848484848 note=live speed_60_kmh_candidate - shows 66 kmh
(1780172654.790000) can0 10210040#0F08484848484848
# tx t=012.059s 102CC040#EEEEEEEEEEEEEEEE note=live speed valid prerequisite confirmed, and rest just in case
(1780172654.853000) can0 102CC040#EEEEEEEEEEEEEEEE
# tx t=012.107s 10210040#0F08484848484848 note=live speed_60_kmh_candidate - shows 66 kmh
(1780172654.900000) can0 10210040#0F08484848484848
# tx t=012.202s 10210040#0F08484848484848 note=live speed_60_kmh_candidate - shows 66 kmh
(1780172654.996000) can0 10210040#0F08484848484848
# tx t=012.295s 10210040#0F08484848484848 note=live speed_60_kmh_candidate - shows 66 kmh
# tx t=012.296s 102CC040#EEEEEEEEEEEEEEEE note=live speed valid prerequisite confirmed, and rest just in case
(1780172655.089000) can0 10210040#0F08484848484848
(1780172655.089000) can0 102CC040#EEEEEEEEEEEEEEEE
# tx t=012.407s 10210040#0F08484848484848 note=live speed_60_kmh_candidate - shows 66 kmh
(1780172655.201000) can0 10210040#0F08484848484848
# tx t=012.503s 10210040#0F08484848484848 note=live speed_60_kmh_candidate - shows 66 kmh
(1780172655.296000) can0 10210040#0F08484848484848
# tx t=012.550s 102CC040#EEEEEEEEEEEEEEEE note=live speed valid prerequisite confirmed, and rest just in case
(1780172655.343000) can0 102CC040#EEEEEEEEEEEEEEEE
# tx t=012.597s 10210040#0F08484848484848 note=live speed_60_kmh_candidate - shows 66 kmh
(1780172655.391000) can0 10210040#0F08484848484848
# tx t=012.708s 10210040#0F08484848484848 note=live speed_60_kmh_candidate - shows 66 kmh
(1780172655.501000) can0 10210040#0F08484848484848
# tx t=012.803s 10210040#0F08484848484848 note=live speed_60_kmh_candidate - shows 66 kmh
# tx t=012.803s 102CC040#EEEEEEEEEEEEEEEE note=live speed valid prerequisite confirmed, and rest just in case
(1780172655.597000) can0 10210040#0F08484848484848
(1780172655.597000) can0 102CC040#EEEEEEEEEEEEEEEE
# tx t=012.899s 10210040#0F08484848484848 note=live speed_60_kmh_candidate - shows 66 kmh
(1780172655.692000) can0 10210040#0F08484848484848
# tx t=012.993s 10210040#0F08484848484848 note=live speed_60_kmh_candidate - shows 66 kmh
(1780172655.787000) can0 10210040#0F08484848484848
# tx t=013.057s 102CC040#EEEEEEEEEEEEEEEE note=live speed valid prerequisite confirmed, and rest just in case
(1780172655.851000) can0 13FFE060#
(1780172655.851000) can0 102CC040#EEEEEEEEEEEEEEEE
# tx t=013.105s 10210040#0F08484848484848 note=live speed_60_kmh_candidate - shows 66 kmh
(1780172655.898000) can0 10210040#0F08484848484848
# tx t=013.200s 10210040#0F08484848484848 note=live speed_60_kmh_candidate - shows 66 kmh
(1780172655.994000) can0 10210040#0F08484848484848
# tx t=013.296s 10210040#0F08484848484848 note=live speed_60_kmh_candidate - shows 66 kmh
# tx t=013.296s 102CC040#EEEEEEEEEEEEEEEE note=live speed valid prerequisite confirmed, and rest just in case
(1780172656.089000) can0 10210040#0F08484848484848
(1780172656.089000) can0 102CC040#EEEEEEEEEEEEEEEE
# tx t=013.407s 10210040#0F08484848484848 note=live speed_60_kmh_candidate - shows 66 kmh
(1780172656.201000) can0 10210040#0F08484848484848
# tx t=013.501s 10210040#0F08484848484848 note=live speed_60_kmh_candidate - shows 66 kmh
(1780172656.294000) can0 10210040#0F08484848484848
# tx t=013.549s 102CC040#EEEEEEEEEEEEEEEE note=live speed valid prerequisite confirmed, and rest just in case
(1780172656.342000) can0 102CC040#EEEEEEEEEEEEEEEE
# tx t=013.596s 10210040#0F08484848484848 note=live speed_60_kmh_candidate - shows 66 kmh
(1780172656.390000) can0 10210040#0F08484848484848
# tx t=013.692s 10210040#0F08484848484848 note=live speed_60_kmh_candidate - shows 66 kmh
(1780172656.485000) can0 10210040#0F08484848484848
# live-reload loaded rows=124 active=3 file=E:\Projects\opel_corsa_e\send_profile.can
# tx t=013.805s 10210040#0F08484848484848 note=live speed_60_kmh_candidate - shows 66 kmh
(1780172656.598000) can0 10210040#0F08484848484848
# tx t=013.820s 102CC040#EEEEEEEEEEEEEEEE note=live speed valid prerequisite confirmed, and rest just in case
# tx t=013.820s 13FFE040#EEEEEEEEEEEEEEEE note=live --
(1780172656.614000) can0 102CC040#EEEEEEEEEEEEEEEE
(1780172656.614000) can0 13FFE040#EEEEEEEEEEEEEEEE
# tx t=013.915s 10210040#0F08484848484848 note=live speed_60_kmh_candidate - shows 66 kmh
(1780172656.709000) can0 10210040#0F08484848484848
# tx t=014.011s 10210040#0F08484848484848 note=live speed_60_kmh_candidate - shows 66 kmh
(1780172656.804000) can0 10210040#0F08484848484848
# tx t=014.059s 102CC040#EEEEEEEEEEEEEEEE note=live speed valid prerequisite confirmed, and rest just in case
(1780172656.852000) can0 102CC040#EEEEEEEEEEEEEEEE
# tx t=014.106s 10210040#0F08484848484848 note=live speed_60_kmh_candidate - shows 66 kmh
(1780172656.900000) can0 10210040#0F08484848484848
# tx t=014.217s 10210040#0F08484848484848 note=live speed_60_kmh_candidate - shows 66 kmh
(1780172657.010000) can0 10210040#0F08484848484848
(1780172657.047000) can0 13FFE060#
# tx t=014.312s 10210040#0F08484848484848 note=live speed_60_kmh_candidate - shows 66 kmh
# tx t=014.312s 102CC040#EEEEEEEEEEEEEEEE note=live speed valid prerequisite confirmed, and rest just in case
(1780172657.106000) can0 10210040#0F08484848484848
(1780172657.106000) can0 102CC040#EEEEEEEEEEEEEEEE
# tx t=014.408s 10210040#0F08484848484848 note=live speed_60_kmh_candidate - shows 66 kmh
(1780172657.201000) can0 10210040#0F08484848484848
(1780172657.268000) can0 62C#0040000000000000
# tx t=014.519s 10210040#0F08484848484848 note=live speed_60_kmh_candidate - shows 66 kmh
(1780172657.313000) can0 10210040#0F08484848484848
# tx t=014.567s 102CC040#EEEEEEEEEEEEEEEE note=live speed valid prerequisite confirmed, and rest just in case
(1780172657.360000) can0 102CC040#EEEEEEEEEEEEEEEE
# tx t=014.615s 10210040#0F08484848484848 note=live speed_60_kmh_candidate - shows 66 kmh
(1780172657.408000) can0 10210040#0F08484848484848
# tx t=014.709s 10210040#0F08484848484848 note=live speed_60_kmh_candidate - shows 66 kmh
(1780172657.503000) can0 10210040#0F08484848484848
# tx t=014.805s 10210040#0F08484848484848 note=live speed_60_kmh_candidate - shows 66 kmh
(1780172657.598000) can0 10210040#0F08484848484848
# tx t=014.821s 102CC040#EEEEEEEEEEEEEEEE note=live speed valid prerequisite confirmed, and rest just in case
(1780172657.614000) can0 102CC040#EEEEEEEEEEEEEEEE
# tx t=014.916s 10210040#0F08484848484848 note=live speed_60_kmh_candidate - shows 66 kmh
(1780172657.710000) can0 10210040#0F08484848484848
# tx t=015.012s 10210040#0F08484848484848 note=live speed_60_kmh_candidate - shows 66 kmh
# tx t=015.012s 13FFE040#EEEEEEEEEEEEEEEE note=live --
(1780172657.805000) can0 10210040#0F08484848484848
(1780172657.805000) can0 13FFE040#EEEEEEEEEEEEEEEE
# tx t=015.060s 102CC040#EEEEEEEEEEEEEEEE note=live speed valid prerequisite confirmed, and rest just in case
(1780172657.853000) can0 102CC040#EEEEEEEEEEEEEEEE
# tx t=015.107s 10210040#0F08484848484848 note=live speed_60_kmh_candidate - shows 66 kmh
(1780172657.901000) can0 10210040#0F08484848484848
(1780172657.977000) can0 10244060#02
# tx t=015.219s 10210040#0F08484848484848 note=live speed_60_kmh_candidate - shows 66 kmh
(1780172658.012000) can0 10210040#0F08484848484848
# tx t=015.314s 10210040#0F08484848484848 note=live speed_60_kmh_candidate - shows 66 kmh
# tx t=015.314s 102CC040#EEEEEEEEEEEEEEEE note=live speed valid prerequisite confirmed, and rest just in case
(1780172658.108000) can0 10210040#0F08484848484848
(1780172658.108000) can0 102CC040#EEEEEEEEEEEEEEEE
# tx t=015.410s 10210040#0F08484848484848 note=live speed_60_kmh_candidate - shows 66 kmh
(1780172658.203000) can0 10210040#0F08484848484848
(1780172658.246000) can0 13FFE060#
# tx t=015.505s 10210040#0F08484848484848 note=live speed_60_kmh_candidate - shows 66 kmh
(1780172658.299000) can0 10210040#0F08484848484848
# tx t=015.569s 102CC040#EEEEEEEEEEEEEEEE note=live speed valid prerequisite confirmed, and rest just in case
(1780172658.363000) can0 102CC040#EEEEEEEEEEEEEEEE
# tx t=015.618s 10210040#0F08484848484848 note=live speed_60_kmh_candidate - shows 66 kmh
(1780172658.411000) can0 10210040#0F08484848484848
# tx t=015.713s 10210040#0F08484848484848 note=live speed_60_kmh_candidate - shows 66 kmh
(1780172658.507000) can0 10210040#0F08484848484848
# tx t=015.809s 10210040#0F08484848484848 note=live speed_60_kmh_candidate - shows 66 kmh
# tx t=015.810s 102CC040#EEEEEEEEEEEEEEEE note=live speed valid prerequisite confirmed, and rest just in case
(1780172658.603000) can0 10210040#0F08484848484848
(1780172658.603000) can0 102CC040#EEEEEEEEEEEEEEEE
# tx t=015.905s 10210040#0F08484848484848 note=live speed_60_kmh_candidate - shows 66 kmh
(1780172658.699000) can0 10210040#0F08484848484848
# tx t=016.018s 10210040#0F08484848484848 note=live speed_60_kmh_candidate - shows 66 kmh
(1780172658.811000) can0 10210040#0F08484848484848
# tx t=016.066s 102CC040#EEEEEEEEEEEEEEEE note=live speed valid prerequisite confirmed, and rest just in case
(1780172658.859000) can0 102CC040#EEEEEEEEEEEEEEEE
# tx t=016.114s 10210040#0F08484848484848 note=live speed_60_kmh_candidate - shows 66 kmh
(1780172658.907000) can0 10210040#0F08484848484848
# tx t=016.208s 10210040#0F08484848484848 note=live speed_60_kmh_candidate - shows 66 kmh
(1780172659.002000) can0 10210040#0F08484848484848
# tx t=016.224s 13FFE040#EEEEEEEEEEEEEEEE note=live --
(1780172659.018000) can0 13FFE040#EEEEEEEEEEEEEEEE
# tx t=016.320s 10210040#0F08484848484848 note=live speed_60_kmh_candidate - shows 66 kmh
# tx t=016.320s 102CC040#EEEEEEEEEEEEEEEE note=live speed valid prerequisite confirmed, and rest just in case
(1780172659.113000) can0 10210040#0F08484848484848
(1780172659.114000) can0 102CC040#EEEEEEEEEEEEEEEE
# tx t=016.415s 10210040#0F08484848484848 note=live speed_60_kmh_candidate - shows 66 kmh
(1780172659.209000) can0 10210040#0F08484848484848
# tx t=016.512s 10210040#0F08484848484848 note=live speed_60_kmh_candidate - shows 66 kmh
(1780172659.305000) can0 10210040#0F08484848484848
# tx t=016.560s 102CC040#EEEEEEEEEEEEEEEE note=live speed valid prerequisite confirmed, and rest just in case
(1780172659.353000) can0 102CC040#EEEEEEEEEEEEEEEE
# tx t=016.607s 10210040#0F08484848484848 note=live speed_60_kmh_candidate - shows 66 kmh
(1780172659.401000) can0 10210040#0F08484848484848
(1780172659.446000) can0 13FFE060#
# live-reload loaded rows=124 active=3 file=E:\Projects\opel_corsa_e\send_profile.can
# tx t=016.671s 10210040#0F08484848484848 note=live speed_60_kmh_candidate - shows 66 kmh
(1780172659.465000) can0 10210040#0F08484848484848
# tx t=016.687s 102CC040#EEEEEEEEEEEEEEEE note=live speed valid prerequisite confirmed, and rest just in case
# tx t=016.687s 621#EEEEEEEEEEEEEEEE note=live --
(1780172659.480000) can0 102CC040#EEEEEEEEEEEEEEEE
(1780172659.481000) can0 621#EEEEEEEEEEEEEEEE
(1780172659.512000) can0 100#
(1780172659.512000) can0 10244060#02
(1780172659.512000) can0 103BC060#00
(1780172659.513000) can0 1045C060#40
(1780172659.513000) can0 10ACE060#1E01200000000000
(1780172659.513000) can0 10AE8060#030E010104050000
(1780172659.514000) can0 13FFE060#
(1780172659.526000) can0 103D6060#00
(1780172659.544000) can0 103DA060#00
(1780172659.544000) can0 10812060#00
(1780172659.544000) can0 1084A060#00
(1780172659.544000) can0 10AE8060#0016010800000000
# tx t=016.782s 10210040#0F08484848484848 note=live speed_60_kmh_candidate - shows 66 kmh
(1780172659.576000) can0 62C#0122000000000000
(1780172659.576000) can0 10210040#0F08484848484848
(1780172659.576000) can0 13FFE060#
(1780172659.607000) can0 10244060#02
(1780172659.618000) can0 10ACE060#2B00000000000000
(1780172659.639000) can0 10AFC060#38FFFFFFFFFFFF2B
# tx t=016.878s 10210040#0F08484848484848 note=live speed_60_kmh_candidate - shows 66 kmh
(1780172659.671000) can0 10210040#0F08484848484848
(1780172659.678000) can0 10424060#079964
(1780172659.716000) can0 10244060#02
# tx t=016.926s 102CC040#EEEEEEEEEEEEEEEE note=live speed valid prerequisite confirmed, and rest just in case
(1780172659.719000) can0 102CC040#EEEEEEEEEEEEEEEE
# tx t=016.973s 10210040#0F08484848484848 note=live speed_60_kmh_candidate - shows 66 kmh
(1780172659.767000) can0 10210040#0F08484848484848
# tx t=017.083s 10210040#0F08484848484848 note=live speed_60_kmh_candidate - shows 66 kmh
(1780172659.876000) can0 10210040#0F08484848484848
# tx t=017.177s 10210040#0F08484848484848 note=live speed_60_kmh_candidate - shows 66 kmh
# tx t=017.177s 102CC040#EEEEEEEEEEEEEEEE note=live speed valid prerequisite confirmed, and rest just in case
(1780172659.971000) can0 10210040#0F08484848484848
(1780172659.971000) can0 102CC040#EEEEEEEEEEEEEEEE
# tx t=017.273s 10210040#0F08484848484848 note=live speed_60_kmh_candidate - shows 66 kmh
(1780172660.066000) can0 10210040#0F08484848484848
# tx t=017.384s 10210040#0F08484848484848 note=live speed_60_kmh_candidate - shows 66 kmh
(1780172660.178000) can0 10210040#0F08484848484848
# tx t=017.432s 102CC040#EEEEEEEEEEEEEEEE note=live speed valid prerequisite confirmed, and rest just in case
(1780172660.226000) can0 102CC040#EEEEEEEEEEEEEEEE
# tx t=017.480s 10210040#0F08484848484848 note=live speed_60_kmh_candidate - shows 66 kmh
(1780172660.273000) can0 10210040#0F08484848484848
# tx t=017.575s 10210040#0F08484848484848 note=live speed_60_kmh_candidate - shows 66 kmh
(1780172660.369000) can0 10210040#0F08484848484848
# tx t=017.687s 10210040#0F08484848484848 note=live speed_60_kmh_candidate - shows 66 kmh
# tx t=017.687s 102CC040#EEEEEEEEEEEEEEEE note=live speed valid prerequisite confirmed, and rest just in case
# tx t=017.687s 621#EEEEEEEEEEEEEEEE note=live --
(1780172660.481000) can0 10210040#0F08484848484848
(1780172660.481000) can0 102CC040#EEEEEEEEEEEEEEEE
(1780172660.481000) can0 621#EEEEEEEEEEEEEEEE
# tx t=017.780s 10210040#0F08484848484848 note=live speed_60_kmh_candidate - shows 66 kmh
(1780172660.574000) can0 10210040#0F08484848484848
# tx t=017.876s 10210040#0F08484848484848 note=live speed_60_kmh_candidate - shows 66 kmh
(1780172660.669000) can0 10210040#0F08484848484848
# tx t=017.924s 102CC040#EEEEEEEEEEEEEEEE note=live speed valid prerequisite confirmed, and rest just in case
(1780172660.717000) can0 102CC040#EEEEEEEEEEEEEEEE
# tx t=017.971s 10210040#0F08484848484848 note=live speed_60_kmh_candidate - shows 66 kmh
(1780172660.765000) can0 10210040#0F08484848484848
(1780172660.775000) can0 13FFE060#
# tx t=018.083s 10210040#0F08484848484848 note=live speed_60_kmh_candidate - shows 66 kmh
(1780172660.876000) can0 10210040#0F08484848484848
# tx t=018.178s 10210040#0F08484848484848 note=live speed_60_kmh_candidate - shows 66 kmh
# tx t=018.179s 102CC040#EEEEEEEEEEEEEEEE note=live speed valid prerequisite confirmed, and rest just in case
(1780172660.972000) can0 10210040#0F08484848484848
(1780172660.972000) can0 102CC040#EEEEEEEEEEEEEEEE
# tx t=018.274s 10210040#0F08484848484848 note=live speed_60_kmh_candidate - shows 66 kmh
(1780172661.067000) can0 10210040#0F08484848484848
# tx t=018.385s 10210040#0F08484848484848 note=live speed_60_kmh_candidate - shows 66 kmh
(1780172661.179000) can0 10210040#0F08484848484848
# tx t=018.433s 102CC040#EEEEEEEEEEEEEEEE note=live speed valid prerequisite confirmed, and rest just in case
(1780172661.227000) can0 102CC040#EEEEEEEEEEEEEEEE
# tx t=018.480s 10210040#0F08484848484848 note=live speed_60_kmh_candidate - shows 66 kmh
(1780172661.273000) can0 10210040#0F08484848484848
# tx t=018.574s 10210040#0F08484848484848 note=live speed_60_kmh_candidate - shows 66 kmh
(1780172661.368000) can0 10210040#0F08484848484848
# tx t=018.686s 10210040#0F08484848484848 note=live speed_60_kmh_candidate - shows 66 kmh
# tx t=018.686s 102CC040#EEEEEEEEEEEEEEEE note=live speed valid prerequisite confirmed, and rest just in case
# tx t=018.686s 621#EEEEEEEEEEEEEEEE note=live --
(1780172661.480000) can0 10210040#0F08484848484848
(1780172661.480000) can0 102CC040#EEEEEEEEEEEEEEEE
(1780172661.480000) can0 621#EEEEEEEEEEEEEEEE
# tx t=018.781s 10210040#0F08484848484848 note=live speed_60_kmh_candidate - shows 66 kmh
(1780172661.575000) can0 10210040#0F08484848484848
# tx t=018.877s 10210040#0F08484848484848 note=live speed_60_kmh_candidate - shows 66 kmh
(1780172661.670000) can0 10210040#0F08484848484848
# tx t=018.925s 102CC040#EEEEEEEEEEEEEEEE note=live speed valid prerequisite confirmed, and rest just in case
(1780172661.718000) can0 102CC040#EEEEEEEEEEEEEEEE
# tx t=018.972s 10210040#0F08484848484848 note=live speed_60_kmh_candidate - shows 66 kmh
(1780172661.766000) can0 10210040#0F08484848484848
# tx t=019.084s 10210040#0F08484848484848 note=live speed_60_kmh_candidate - shows 66 kmh
(1780172661.877000) can0 10210040#0F08484848484848
# tx t=019.180s 10210040#0F08484848484848 note=live speed_60_kmh_candidate - shows 66 kmh
# tx t=019.180s 102CC040#EEEEEEEEEEEEEEEE note=live speed valid prerequisite confirmed, and rest just in case
(1780172661.974000) can0 10210040#0F08484848484848
(1780172661.974000) can0 102CC040#EEEEEEEEEEEEEEEE
(1780172661.975000) can0 13FFE060#
# tx t=019.276s 10210040#0F08484848484848 note=live speed_60_kmh_candidate - shows 66 kmh
(1780172662.069000) can0 10210040#0F08484848484848
# tx t=019.371s 10210040#0F08484848484848 note=live speed_60_kmh_candidate - shows 66 kmh
(1780172662.165000) can0 10210040#0F08484848484848
# tx t=019.435s 102CC040#EEEEEEEEEEEEEEEE note=live speed valid prerequisite confirmed, and rest just in case
(1780172662.229000) can0 102CC040#EEEEEEEEEEEEEEEE
# tx t=019.483s 10210040#0F08484848484848 note=live speed_60_kmh_candidate - shows 66 kmh
(1780172662.276000) can0 10210040#0F08484848484848
# tx t=019.578s 10210040#0F08484848484848 note=live speed_60_kmh_candidate - shows 66 kmh
(1780172662.372000) can0 10210040#0F08484848484848
# tx t=019.674s 10210040#0F08484848484848 note=live speed_60_kmh_candidate - shows 66 kmh
# tx t=019.674s 102CC040#EEEEEEEEEEEEEEEE note=live speed valid prerequisite confirmed, and rest just in case
(1780172662.468000) can0 10210040#0F08484848484848
(1780172662.468000) can0 102CC040#EEEEEEEEEEEEEEEE
# tx t=019.690s 621#EEEEEEEEEEEEEEEE note=live --
(1780172662.483000) can0 621#EEEEEEEEEEEEEEEE
# tx t=019.785s 10210040#0F08484848484848 note=live speed_60_kmh_candidate - shows 66 kmh
(1780172662.579000) can0 62C#0040000000000000
(1780172662.579000) can0 10210040#0F08484848484848
(1780172662.587000) can0 10600060#0160C020007B00
# tx t=019.882s 10210040#0F08484848484848 note=live speed_60_kmh_candidate - shows 66 kmh
(1780172662.675000) can0 10210040#0F08484848484848
# tx t=019.930s 102CC040#EEEEEEEEEEEEEEEE note=live speed valid prerequisite confirmed, and rest just in case
(1780172662.723000) can0 102CC040#EEEEEEEEEEEEEEEE
# tx t=019.977s 10210040#0F08484848484848 note=live speed_60_kmh_candidate - shows 66 kmh
(1780172662.771000) can0 10210040#0F08484848484848
# tx t=020.072s 10210040#0F08484848484848 note=live speed_60_kmh_candidate - shows 66 kmh
(1780172662.866000) can0 10210040#0F08484848484848
# tx t=020.182s 10210040#0F08484848484848 note=live speed_60_kmh_candidate - shows 66 kmh
# tx t=020.182s 102CC040#EEEEEEEEEEEEEEEE note=live speed valid prerequisite confirmed, and rest just in case
(1780172662.976000) can0 10210040#0F08484848484848
(1780172662.976000) can0 102CC040#EEEEEEEEEEEEEEEE
# tx t=020.277s 10210040#0F08484848484848 note=live speed_60_kmh_candidate - shows 66 kmh
(1780172663.071000) can0 10210040#0F08484848484848
# tx t=020.373s 10210040#0F08484848484848 note=live speed_60_kmh_candidate - shows 66 kmh
(1780172663.167000) can0 10210040#0F08484848484848
(1780172663.174000) can0 13FFE060#
# tx t=020.437s 102CC040#EEEEEEEEEEEEEEEE note=live speed valid prerequisite confirmed, and rest just in case
(1780172663.231000) can0 102CC040#EEEEEEEEEEEEEEEE
# tx t=020.485s 10210040#0F08484848484848 note=live speed_60_kmh_candidate - shows 66 kmh
(1780172663.278000) can0 10210040#0F08484848484848
# live-reload loaded rows=124 active=3 file=E:\Projects\opel_corsa_e\send_profile.can
# tx t=020.581s 10210040#0F08484848484848 note=live speed_60_kmh_candidate - shows 66 kmh
(1780172663.375000) can0 10210040#0F08484848484848
# tx t=020.597s 102CC040#EEEEEEEEEEEEEEEE note=live speed valid prerequisite confirmed, and rest just in case
# tx t=020.597s 102C0040#EEEEEEEEEEEEEEEE note=live --
(1780172663.390000) can0 102CC040#EEEEEEEEEEEEEEEE
(1780172663.391000) can0 102C0040#EEEEEEEEEEEEEEEE
(1780172663.422000) can0 10308060#000002
# tx t=020.692s 10210040#0F08484848484848 note=live speed_60_kmh_candidate - shows 66 kmh
# tx t=020.692s 102C0040#EEEEEEEEEEEEEEEE note=live --
(1780172663.486000) can0 10210040#0F08484848484848
(1780172663.486000) can0 102C0040#EEEEEEEEEEEEEEEE
# tx t=020.788s 10210040#0F08484848484848 note=live speed_60_kmh_candidate - shows 66 kmh
# tx t=020.788s 102C0040#EEEEEEEEEEEEEEEE note=live --
(1780172663.581000) can0 10210040#0F08484848484848
(1780172663.582000) can0 102C0040#EEEEEEEEEEEEEEEE
# tx t=020.836s 102CC040#EEEEEEEEEEEEEEEE note=live speed valid prerequisite confirmed, and rest just in case
(1780172663.629000) can0 102CC040#EEEEEEEEEEEEEEEE
# tx t=020.883s 10210040#0F08484848484848 note=live speed_60_kmh_candidate - shows 66 kmh
(1780172663.677000) can0 10210040#0F08484848484848
# tx t=020.899s 102C0040#EEEEEEEEEEEEEEEE note=live --
(1780172663.693000) can0 102C0040#EEEEEEEEEEEEEEEE
# tx t=020.995s 10210040#0F08484848484848 note=live speed_60_kmh_candidate - shows 66 kmh
# tx t=020.995s 102C0040#EEEEEEEEEEEEEEEE note=live --
(1780172663.789000) can0 10210040#0F08484848484848
(1780172663.789000) can0 102C0040#EEEEEEEEEEEEEEEE
# tx t=021.090s 10210040#0F08484848484848 note=live speed_60_kmh_candidate - shows 66 kmh
# tx t=021.090s 102CC040#EEEEEEEEEEEEEEEE note=live speed valid prerequisite confirmed, and rest just in case
# tx t=021.090s 102C0040#EEEEEEEEEEEEEEEE note=live --
(1780172663.884000) can0 10210040#0F08484848484848
(1780172663.884000) can0 102CC040#EEEEEEEEEEEEEEEE
(1780172663.884000) can0 102C0040#EEEEEEEEEEEEEEEE
# tx t=021.183s 10210040#0F08484848484848 note=live speed_60_kmh_candidate - shows 66 kmh
(1780172663.977000) can0 10210040#0F08484848484848
# tx t=021.199s 102C0040#EEEEEEEEEEEEEEEE note=live --
(1780172663.993000) can0 102C0040#EEEEEEEEEEEEEEEE
# tx t=021.295s 10210040#0F08484848484848 note=live speed_60_kmh_candidate - shows 66 kmh
# tx t=021.295s 102C0040#EEEEEEEEEEEEEEEE note=live --
(1780172664.088000) can0 10210040#0F08484848484848
(1780172664.089000) can0 102C0040#EEEEEEEEEEEEEEEE
# tx t=021.343s 102CC040#EEEEEEEEEEEEEEEE note=live speed valid prerequisite confirmed, and rest just in case
(1780172664.137000) can0 102CC040#EEEEEEEEEEEEEEEE
# tx t=021.391s 10210040#0F08484848484848 note=live speed_60_kmh_candidate - shows 66 kmh
# tx t=021.391s 102C0040#EEEEEEEEEEEEEEEE note=live --
(1780172664.184000) can0 10210040#0F08484848484848
(1780172664.184000) can0 102C0040#EEEEEEEEEEEEEEEE
# tx t=021.486s 10210040#0F08484848484848 note=live speed_60_kmh_candidate - shows 66 kmh
# tx t=021.486s 102C0040#EEEEEEEEEEEEEEEE note=live --
(1780172664.280000) can0 10210040#0F08484848484848
(1780172664.280000) can0 102C0040#EEEEEEEEEEEEEEEE
# tx t=021.582s 10210040#0F08484848484848 note=live speed_60_kmh_candidate - shows 66 kmh
(1780172664.376000) can0 13FFE060#
(1780172664.376000) can0 10210040#0F08484848484848
# tx t=021.598s 102CC040#EEEEEEEEEEEEEEEE note=live speed valid prerequisite confirmed, and rest just in case
# tx t=021.599s 102C0040#EEEEEEEEEEEEEEEE note=live --
(1780172664.392000) can0 102CC040#EEEEEEEEEEEEEEEE
(1780172664.392000) can0 102C0040#EEEEEEEEEEEEEEEE
# tx t=021.694s 10210040#0F08484848484848 note=live speed_60_kmh_candidate - shows 66 kmh
# tx t=021.695s 102C0040#EEEEEEEEEEEEEEEE note=live --
(1780172664.488000) can0 10210040#0F08484848484848
(1780172664.488000) can0 102C0040#EEEEEEEEEEEEEEEE
(1780172664.494000) can0 10244060#02
# tx t=021.790s 10210040#0F08484848484848 note=live speed_60_kmh_candidate - shows 66 kmh
# tx t=021.791s 102C0040#EEEEEEEEEEEEEEEE note=live --
(1780172664.584000) can0 10210040#0F08484848484848
(1780172664.584000) can0 102C0040#EEEEEEEEEEEEEEEE
# tx t=021.838s 102CC040#EEEEEEEEEEEEEEEE note=live speed valid prerequisite confirmed, and rest just in case
(1780172664.632000) can0 102CC040#EEEEEEEEEEEEEEEE
# tx t=021.886s 10210040#0F08484848484848 note=live speed_60_kmh_candidate - shows 66 kmh
# tx t=021.887s 102C0040#EEEEEEEEEEEEEEEE note=live --
(1780172664.680000) can0 10210040#0F08484848484848
(1780172664.680000) can0 102C0040#EEEEEEEEEEEEEEEE
# tx t=021.997s 10210040#0F08484848484848 note=live speed_60_kmh_candidate - shows 66 kmh
# tx t=021.997s 102C0040#EEEEEEEEEEEEEEEE note=live --
(1780172664.790000) can0 10210040#0F08484848484848
(1780172664.791000) can0 102C0040#EEEEEEEEEEEEEEEE
# tx t=022.092s 10210040#0F08484848484848 note=live speed_60_kmh_candidate - shows 66 kmh
# tx t=022.093s 102CC040#EEEEEEEEEEEEEEEE note=live speed valid prerequisite confirmed, and rest just in case
# tx t=022.093s 102C0040#EEEEEEEEEEEEEEEE note=live --
(1780172664.886000) can0 10210040#0F08484848484848
(1780172664.886000) can0 102CC040#EEEEEEEEEEEEEEEE
(1780172664.886000) can0 102C0040#EEEEEEEEEEEEEEEE
# tx t=022.187s 10210040#0F08484848484848 note=live speed_60_kmh_candidate - shows 66 kmh
# tx t=022.187s 102C0040#EEEEEEEEEEEEEEEE note=live --
(1780172664.980000) can0 10210040#0F08484848484848
(1780172664.980000) can0 102C0040#EEEEEEEEEEEEEEEE
# tx t=022.282s 10210040#0F08484848484848 note=live speed_60_kmh_candidate - shows 66 kmh
(1780172665.076000) can0 10210040#0F08484848484848
# tx t=022.298s 102C0040#EEEEEEEEEEEEEEEE note=live --
(1780172665.092000) can0 102C0040#EEEEEEEEEEEEEEEE
# tx t=022.346s 102CC040#EEEEEEEEEEEEEEEE note=live speed valid prerequisite confirmed, and rest just in case
(1780172665.140000) can0 102CC040#EEEEEEEEEEEEEEEE
# tx t=022.394s 10210040#0F08484848484848 note=live speed_60_kmh_candidate - shows 66 kmh
# tx t=022.394s 102C0040#EEEEEEEEEEEEEEEE note=live --
(1780172665.187000) can0 10210040#0F08484848484848
(1780172665.188000) can0 102C0040#EEEEEEEEEEEEEEEE
# tx t=022.489s 10210040#0F08484848484848 note=live speed_60_kmh_candidate - shows 66 kmh
# tx t=022.489s 102C0040#EEEEEEEEEEEEEEEE note=live --
(1780172665.283000) can0 10210040#0F08484848484848
(1780172665.283000) can0 102C0040#EEEEEEEEEEEEEEEE
# tx t=022.585s 10210040#0F08484848484848 note=live speed_60_kmh_candidate - shows 66 kmh
# tx t=022.585s 102CC040#EEEEEEEEEEEEEEEE note=live speed valid prerequisite confirmed, and rest just in case
(1780172665.378000) can0 10210040#0F08484848484848
(1780172665.378000) can0 102CC040#EEEEEEEEEEEEEEEE
# tx t=022.601s 102C0040#EEEEEEEEEEEEEEEE note=live --
(1780172665.395000) can0 102C0040#EEEEEEEEEEEEEEEE
# tx t=022.681s 10210040#0F08484848484848 note=live speed_60_kmh_candidate - shows 66 kmh
(1780172665.475000) can0 10210040#0F08484848484848
# tx t=022.697s 102C0040#EEEEEEEEEEEEEEEE note=live --
(1780172665.491000) can0 102C0040#EEEEEEEEEEEEEEEE
(1780172665.564000) can0 62C#0040000000000000
# tx t=022.793s 10210040#0F08484848484848 note=live speed_60_kmh_candidate - shows 66 kmh
# tx t=022.793s 102C0040#EEEEEEEEEEEEEEEE note=live --
(1780172665.586000) can0 13FFE060#
(1780172665.586000) can0 10210040#0F08484848484848
(1780172665.587000) can0 102C0040#EEEEEEEEEEEEEEEE
# tx t=022.839s 102CC040#EEEEEEEEEEEEEEEE note=live speed valid prerequisite confirmed, and rest just in case
(1780172665.632000) can0 102CC040#EEEEEEEEEEEEEEEE
# tx t=022.885s 10210040#0F08484848484848 note=live speed_60_kmh_candidate - shows 66 kmh
# tx t=022.886s 102C0040#EEEEEEEEEEEEEEEE note=live --
(1780172665.679000) can0 10210040#0F08484848484848
(1780172665.679000) can0 102C0040#EEEEEEEEEEEEEEEE
# tx t=022.996s 10210040#0F08484848484848 note=live speed_60_kmh_candidate - shows 66 kmh
# tx t=022.997s 102C0040#EEEEEEEEEEEEEEEE note=live --
(1780172665.790000) can0 10210040#0F08484848484848
(1780172665.790000) can0 102C0040#EEEEEEEEEEEEEEEE
# tx t=023.091s 10210040#0F08484848484848 note=live speed_60_kmh_candidate - shows 66 kmh
# tx t=023.091s 102CC040#EEEEEEEEEEEEEEEE note=live speed valid prerequisite confirmed, and rest just in case
# tx t=023.091s 102C0040#EEEEEEEEEEEEEEEE note=live --
(1780172665.885000) can0 10210040#0F08484848484848
(1780172665.885000) can0 102CC040#EEEEEEEEEEEEEEEE
(1780172665.885000) can0 102C0040#EEEEEEEEEEEEEEEE
# tx t=023.185s 10210040#0F08484848484848 note=live speed_60_kmh_candidate - shows 66 kmh
# tx t=023.186s 102C0040#EEEEEEEEEEEEEEEE note=live --
(1780172665.979000) can0 10210040#0F08484848484848
(1780172665.979000) can0 102C0040#EEEEEEEEEEEEEEEE
# tx t=023.297s 10210040#0F08484848484848 note=live speed_60_kmh_candidate - shows 66 kmh
# tx t=023.297s 102C0040#EEEEEEEEEEEEEEEE note=live --
(1780172666.091000) can0 10210040#0F08484848484848
(1780172666.091000) can0 102C0040#EEEEEEEEEEEEEEEE
# tx t=023.343s 102CC040#EEEEEEEEEEEEEEEE note=live speed valid prerequisite confirmed, and rest just in case
(1780172666.137000) can0 102CC040#EEEEEEEEEEEEEEEE
# tx t=023.391s 10210040#0F08484848484848 note=live speed_60_kmh_candidate - shows 66 kmh
# tx t=023.391s 102C0040#EEEEEEEEEEEEEEEE note=live --
(1780172666.184000) can0 10210040#0F08484848484848
(1780172666.184000) can0 102C0040#EEEEEEEEEEEEEEEE
# tx t=023.486s 10210040#0F08484848484848 note=live speed_60_kmh_candidate - shows 66 kmh
# tx t=023.486s 102C0040#EEEEEEEEEEEEEEEE note=live --
(1780172666.280000) can0 10210040#0F08484848484848
(1780172666.280000) can0 102C0040#EEEEEEEEEEEEEEEE
# tx t=023.582s 10210040#0F08484848484848 note=live speed_60_kmh_candidate - shows 66 kmh
(1780172666.375000) can0 10210040#0F08484848484848
# tx t=023.598s 102CC040#EEEEEEEEEEEEEEEE note=live speed valid prerequisite confirmed, and rest just in case
# tx t=023.598s 102C0040#EEEEEEEEEEEEEEEE note=live --
(1780172666.391000) can0 102CC040#EEEEEEEEEEEEEEEE
(1780172666.391000) can0 102C0040#EEEEEEEEEEEEEEEE
# tx t=023.692s 10210040#0F08484848484848 note=live speed_60_kmh_candidate - shows 66 kmh
# tx t=023.693s 102C0040#EEEEEEEEEEEEEEEE note=live --
(1780172666.486000) can0 10210040#0F08484848484848
(1780172666.487000) can0 102C0040#EEEEEEEEEEEEEEEE
# tx t=023.786s 10210040#0F08484848484848 note=live speed_60_kmh_candidate - shows 66 kmh
# tx t=023.787s 102C0040#EEEEEEEEEEEEEEEE note=live --
(1780172666.580000) can0 10210040#0F08484848484848
(1780172666.580000) can0 102C0040#EEEEEEEEEEEEEEEE
# tx t=023.834s 102CC040#EEEEEEEEEEEEEEEE note=live speed valid prerequisite confirmed, and rest just in case
(1780172666.627000) can0 102CC040#EEEEEEEEEEEEEEEE
# tx t=023.897s 10210040#0F08484848484848 note=live speed_60_kmh_candidate - shows 66 kmh
# tx t=023.897s 102C0040#EEEEEEEEEEEEEEEE note=live --
(1780172666.690000) can0 10210040#0F08484848484848
(1780172666.691000) can0 102C0040#EEEEEEEEEEEEEEEE
# live-reload loaded rows=124 active=3 file=E:\Projects\opel_corsa_e\send_profile.can
# tx t=023.961s 10210040#0F08484848484848 note=live speed_60_kmh_candidate - shows 66 kmh
(1780172666.755000) can0 10210040#0F08484848484848
# tx t=023.976s 102CC040#EEEEEEEEEEEEEEEE note=live speed valid prerequisite confirmed, and rest just in case
# tx t=023.976s 10242040#EEEEEEEEEEEEEEEE note=live --
(1780172666.770000) can0 102CC040#EEEEEEEEEEEEEEEE
(1780172666.770000) can0 10242040#EEEEEEEEEEEEEEEE
(1780172666.780000) can0 13FFE060#
# tx t=024.070s 10210040#0F08484848484848 note=live speed_60_kmh_candidate - shows 66 kmh
(1780172666.864000) can0 10210040#0F08484848484848
# tx t=024.164s 10210040#0F08484848484848 note=live speed_60_kmh_candidate - shows 66 kmh
(1780172666.958000) can0 10210040#0F08484848484848
# tx t=024.228s 102CC040#EEEEEEEEEEEEEEEE note=live speed valid prerequisite confirmed, and rest just in case
(1780172667.022000) can0 102CC040#EEEEEEEEEEEEEEEE
# tx t=024.276s 10210040#0F08484848484848 note=live speed_60_kmh_candidate - shows 66 kmh
(1780172667.069000) can0 10210040#0F08484848484848
# tx t=024.371s 10210040#0F08484848484848 note=live speed_60_kmh_candidate - shows 66 kmh
(1780172667.164000) can0 10210040#0F08484848484848
# tx t=024.465s 10210040#0F08484848484848 note=live speed_60_kmh_candidate - shows 66 kmh
# tx t=024.465s 102CC040#EEEEEEEEEEEEEEEE note=live speed valid prerequisite confirmed, and rest just in case
(1780172667.259000) can0 10210040#0F08484848484848
(1780172667.259000) can0 102CC040#EEEEEEEEEEEEEEEE
# tx t=024.576s 10210040#0F08484848484848 note=live speed_60_kmh_candidate - shows 66 kmh
(1780172667.370000) can0 10210040#0F08484848484848
# tx t=024.671s 10210040#0F08484848484848 note=live speed_60_kmh_candidate - shows 66 kmh
(1780172667.465000) can0 10210040#0F08484848484848
# tx t=024.720s 102CC040#EEEEEEEEEEEEEEEE note=live speed valid prerequisite confirmed, and rest just in case
(1780172667.513000) can0 102CC040#EEEEEEEEEEEEEEEE
# tx t=024.767s 10210040#0F08484848484848 note=live speed_60_kmh_candidate - shows 66 kmh
(1780172667.561000) can0 10210040#0F08484848484848
# tx t=024.863s 10210040#0F08484848484848 note=live speed_60_kmh_candidate - shows 66 kmh
(1780172667.656000) can0 10210040#0F08484848484848
# tx t=024.972s 10210040#0F08484848484848 note=live speed_60_kmh_candidate - shows 66 kmh
# tx t=024.972s 102CC040#EEEEEEEEEEEEEEEE note=live speed valid prerequisite confirmed, and rest just in case
# tx t=024.972s 10242040#EEEEEEEEEEEEEEEE note=live --
(1780172667.766000) can0 10210040#0F08484848484848
(1780172667.766000) can0 102CC040#EEEEEEEEEEEEEEEE
(1780172667.766000) can0 10242040#EEEEEEEEEEEEEEEE
# tx t=025.067s 10210040#0F08484848484848 note=live speed_60_kmh_candidate - shows 66 kmh
(1780172667.860000) can0 10210040#0F08484848484848
# tx t=025.163s 10210040#0F08484848484848 note=live speed_60_kmh_candidate - shows 66 kmh
(1780172667.957000) can0 10210040#0F08484848484848
(1780172667.988000) can0 13FFE060#
# tx t=025.227s 102CC040#EEEEEEEEEEEEEEEE note=live speed valid prerequisite confirmed, and rest just in case
(1780172668.020000) can0 102CC040#EEEEEEEEEEEEEEEE
# tx t=025.274s 10210040#0F08484848484848 note=live speed_60_kmh_candidate - shows 66 kmh
(1780172668.068000) can0 10210040#0F08484848484848
# tx t=025.370s 10210040#0F08484848484848 note=live speed_60_kmh_candidate - shows 66 kmh
(1780172668.163000) can0 10210040#0F08484848484848
# tx t=025.466s 10210040#0F08484848484848 note=live speed_60_kmh_candidate - shows 66 kmh
# tx t=025.466s 102CC040#EEEEEEEEEEEEEEEE note=live speed valid prerequisite confirmed, and rest just in case
(1780172668.259000) can0 10210040#0F08484848484848
(1780172668.259000) can0 102CC040#EEEEEEEEEEEEEEEE
# tx t=025.562s 10210040#0F08484848484848 note=live speed_60_kmh_candidate - shows 66 kmh
(1780172668.355000) can0 10210040#0F08484848484848
# tx t=025.674s 10210040#0F08484848484848 note=live speed_60_kmh_candidate - shows 66 kmh
(1780172668.467000) can0 10210040#0F08484848484848
# tx t=025.721s 102CC040#EEEEEEEEEEEEEEEE note=live speed valid prerequisite confirmed, and rest just in case
(1780172668.515000) can0 102CC040#EEEEEEEEEEEEEEEE
# tx t=025.769s 10210040#0F08484848484848 note=live speed_60_kmh_candidate - shows 66 kmh
(1780172668.563000) can0 10210040#0F08484848484848
(1780172668.563000) can0 62C#0040000000000000
# tx t=025.865s 10210040#0F08484848484848 note=live speed_60_kmh_candidate - shows 66 kmh
(1780172668.658000) can0 10210040#0F08484848484848
# tx t=025.976s 10210040#0F08484848484848 note=live speed_60_kmh_candidate - shows 66 kmh
# tx t=025.976s 102CC040#EEEEEEEEEEEEEEEE note=live speed valid prerequisite confirmed, and rest just in case
# tx t=025.976s 10242040#EEEEEEEEEEEEEEEE note=live --
(1780172668.770000) can0 10210040#0F08484848484848
(1780172668.770000) can0 102CC040#EEEEEEEEEEEEEEEE
(1780172668.770000) can0 10242040#EEEEEEEEEEEEEEEE
# tx t=026.068s 10210040#0F08484848484848 note=live speed_60_kmh_candidate - shows 66 kmh
(1780172668.862000) can0 10210040#0F08484848484848
# tx t=026.164s 10210040#0F08484848484848 note=live speed_60_kmh_candidate - shows 66 kmh
(1780172668.958000) can0 10210040#0F08484848484848
# tx t=026.228s 102CC040#EEEEEEEEEEEEEEEE note=live speed valid prerequisite confirmed, and rest just in case
(1780172669.021000) can0 102CC040#EEEEEEEEEEEEEEEE
# tx t=026.275s 10210040#0F08484848484848 note=live speed_60_kmh_candidate - shows 66 kmh
(1780172669.069000) can0 10210040#0F08484848484848
# tx t=026.371s 10210040#0F08484848484848 note=live speed_60_kmh_candidate - shows 66 kmh
(1780172669.164000) can0 10210040#0F08484848484848
(1780172669.171000) can0 13FFE060#
# tx t=026.467s 10210040#0F08484848484848 note=live speed_60_kmh_candidate - shows 66 kmh
# tx t=026.467s 102CC040#EEEEEEEEEEEEEEEE note=live speed valid prerequisite confirmed, and rest just in case
(1780172669.260000) can0 10210040#0F08484848484848
(1780172669.261000) can0 102CC040#EEEEEEEEEEEEEEEE
# tx t=026.562s 10210040#0F08484848484848 note=live speed_60_kmh_candidate - shows 66 kmh
(1780172669.356000) can0 10210040#0F08484848484848
# tx t=026.673s 10210040#0F08484848484848 note=live speed_60_kmh_candidate - shows 66 kmh
(1780172669.467000) can0 10210040#0F08484848484848
(1780172669.498000) can0 10244060#02
# tx t=026.721s 102CC040#EEEEEEEEEEEEEEEE note=live speed valid prerequisite confirmed, and rest just in case
(1780172669.515000) can0 102CC040#EEEEEEEEEEEEEEEE
# tx t=026.769s 10210040#0F08484848484848 note=live speed_60_kmh_candidate - shows 66 kmh
(1780172669.562000) can0 10210040#0F08484848484848
# tx t=026.864s 10210040#0F08484848484848 note=live speed_60_kmh_candidate - shows 66 kmh
(1780172669.658000) can0 10210040#0F08484848484848
# tx t=026.976s 10210040#0F08484848484848 note=live speed_60_kmh_candidate - shows 66 kmh
# tx t=026.976s 102CC040#EEEEEEEEEEEEEEEE note=live speed valid prerequisite confirmed, and rest just in case
# tx t=026.976s 10242040#EEEEEEEEEEEEEEEE note=live --
(1780172669.769000) can0 10210040#0F08484848484848
(1780172669.769000) can0 102CC040#EEEEEEEEEEEEEEEE
(1780172669.770000) can0 10242040#EEEEEEEEEEEEEEEE
# tx t=027.068s 10210040#0F08484848484848 note=live speed_60_kmh_candidate - shows 66 kmh
(1780172669.862000) can0 10210040#0F08484848484848
# tx t=027.163s 10210040#0F08484848484848 note=live speed_60_kmh_candidate - shows 66 kmh
(1780172669.957000) can0 10210040#0F08484848484848
# tx t=027.227s 102CC040#EEEEEEEEEEEEEEEE note=live speed valid prerequisite confirmed, and rest just in case
(1780172670.021000) can0 102CC040#EEEEEEEEEEEEEEEE
# tx t=027.275s 10210040#0F08484848484848 note=live speed_60_kmh_candidate - shows 66 kmh
(1780172670.068000) can0 10210040#0F08484848484848
# tx t=027.370s 10210040#0F08484848484848 note=live speed_60_kmh_candidate - shows 66 kmh
(1780172670.164000) can0 10210040#0F08484848484848
# tx t=027.466s 10210040#0F08484848484848 note=live speed_60_kmh_candidate - shows 66 kmh
# tx t=027.466s 102CC040#EEEEEEEEEEEEEEEE note=live speed valid prerequisite confirmed, and rest just in case
(1780172670.260000) can0 10210040#0F08484848484848
(1780172670.260000) can0 102CC040#EEEEEEEEEEEEEEEE
# tx t=027.561s 10210040#0F08484848484848 note=live speed_60_kmh_candidate - shows 66 kmh
(1780172670.355000) can0 10210040#0F08484848484848
# live-reload loaded rows=124 active=3 file=E:\Projects\opel_corsa_e\send_profile.can
# tx t=027.593s 10210040#0F08484848484848 note=live speed_60_kmh_candidate - shows 66 kmh
(1780172670.387000) can0 13FFE060#
(1780172670.387000) can0 10210040#0F08484848484848
# tx t=027.609s 102CC040#EEEEEEEEEEEEEEEE note=live speed valid prerequisite confirmed, and rest just in case
# tx t=027.609s 10754040#EEEEEEEEEEEEEEEE note=live --
(1780172670.402000) can0 102CC040#EEEEEEEEEEEEEEEE
(1780172670.403000) can0 10754040#EEEEEEEEEEEEEEEE
# tx t=027.703s 10210040#0F08484848484848 note=live speed_60_kmh_candidate - shows 66 kmh
(1780172670.497000) can0 10210040#0F08484848484848
# tx t=027.798s 10210040#0F08484848484848 note=live speed_60_kmh_candidate - shows 66 kmh
(1780172670.592000) can0 10210040#0F08484848484848
# tx t=027.847s 102CC040#EEEEEEEEEEEEEEEE note=live speed valid prerequisite confirmed, and rest just in case
(1780172670.640000) can0 102CC040#EEEEEEEEEEEEEEEE
# tx t=027.894s 10210040#0F08484848484848 note=live speed_60_kmh_candidate - shows 66 kmh
(1780172670.688000) can0 10210040#0F08484848484848
# tx t=028.006s 10210040#0F08484848484848 note=live speed_60_kmh_candidate - shows 66 kmh
(1780172670.799000) can0 10210040#0F08484848484848
# tx t=028.101s 10210040#0F08484848484848 note=live speed_60_kmh_candidate - shows 66 kmh
# tx t=028.101s 102CC040#EEEEEEEEEEEEEEEE note=live speed valid prerequisite confirmed, and rest just in case
(1780172670.894000) can0 10210040#0F08484848484848
(1780172670.894000) can0 102CC040#EEEEEEEEEEEEEEEE
# tx t=028.196s 10210040#0F08484848484848 note=live speed_60_kmh_candidate - shows 66 kmh
(1780172670.990000) can0 10210040#0F08484848484848
# tx t=028.308s 10210040#0F08484848484848 note=live speed_60_kmh_candidate - shows 66 kmh
(1780172671.101000) can0 10210040#0F08484848484848
# tx t=028.356s 102CC040#EEEEEEEEEEEEEEEE note=live speed valid prerequisite confirmed, and rest just in case
(1780172671.149000) can0 102CC040#EEEEEEEEEEEEEEEE
# tx t=028.403s 10210040#0F08484848484848 note=live speed_60_kmh_candidate - shows 66 kmh
(1780172671.197000) can0 10210040#0F08484848484848
# tx t=028.498s 10210040#0F08484848484848 note=live speed_60_kmh_candidate - shows 66 kmh
(1780172671.291000) can0 10210040#0F08484848484848
# tx t=028.609s 10210040#0F08484848484848 note=live speed_60_kmh_candidate - shows 66 kmh
# tx t=028.609s 102CC040#EEEEEEEEEEEEEEEE note=live speed valid prerequisite confirmed, and rest just in case
# tx t=028.609s 10754040#EEEEEEEEEEEEEEEE note=live --
(1780172671.403000) can0 10210040#0F08484848484848
(1780172671.403000) can0 102CC040#EEEEEEEEEEEEEEEE
(1780172671.403000) can0 10754040#EEEEEEEEEEEEEEEE
