# cantool TX/RX capture bitrate=33333.333 fclk=170000000 brp=255 prop=1 phase1=13 phase2=5 sjw=4
# tx t=018.301s 100# note=rpm word sweep SWCAN wake pulse
# tx t=018.303s 13FFE040# note=rpm word sweep BCM/source 0x40 presence seed
# tx t=018.303s 102C0040#803C96B503 note=rpm word sweep ignition/power-mode key-on context
# tx t=018.304s 10210040#0000800000008000 note=rpm word sweep zero speed/status baseline
# tx t=018.304s 102CC040#0000400000000000 note=rpm word sweep confirmed speed-valid prerequisite
(1780179524.378000) can0 100#
(1780179524.378000) can0 13FFE040#
(1780179524.379000) can0 102C0040#803C96B503
(1780179524.379000) can0 10210040#0000800000008000
(1780179524.379000) can0 102CC040#0000400000000000
(1780179524.404000) can0 10308060#000002
(1780179524.436000) can0 10ACE060#1E00200000000000
(1780179524.451000) can0 13FFE060#
# tx t=018.409s 621#0052000000000000 note=rpm word sweep key-on 621 seed
# tx t=018.409s 102C0040#803C96B503 note=rpm word sweep ignition/power-mode key-on context
# tx t=018.410s 10210040#0000800000008000 note=rpm word sweep zero speed/status baseline
(1780179524.483000) can0 621#0052000000000000
(1780179524.483000) can0 102C0040#803C96B503
(1780179524.483000) can0 10210040#0000800000008000
(1780179524.498000) can0 62C#0112000000000000
(1780179524.500000) can0 10244060#02
(1780179524.502000) can0 103BC060#00
(1780179524.505000) can0 1045C060#40
(1780179524.509000) can0 10AE8060#030E010104050000
(1780179524.511000) can0 13FFE060#
(1780179524.529000) can0 103D6060#00
(1780179524.530000) can0 103DA060#00
(1780179524.530000) can0 10812060#00
(1780179524.530000) can0 1084A060#00
(1780179524.545000) can0 10ACE060#1E00200000000000
(1780179524.549000) can0 10AE8060#0016010800000000
# tx t=018.502s 102C0040#803C96B503 note=rpm word sweep ignition/power-mode key-on context
# tx t=018.503s 10210040#0000800000008000 note=rpm word sweep zero speed/status baseline
(1780179524.576000) can0 10424060#079964
(1780179524.576000) can0 102C0040#803C96B503
(1780179524.576000) can0 10210040#0000800000008000
# tx t=018.551s 102CC040#0000400000000000 note=rpm word sweep confirmed speed-valid prerequisite
(1780179524.624000) can0 102CC040#0000400000000000
(1780179524.655000) can0 10ACE060#2B00000000000000
(1780179524.673000) can0 10AFC060#38FFFFFFFFFFFF2B
(1780179524.683000) can0 10600060#0160B902005B00
# tx t=018.615s 102C0040#803C96B503 note=rpm word sweep ignition/power-mode key-on context
# tx t=018.615s 10210040#0000800000008000 note=rpm word sweep zero speed/status baseline
(1780179524.689000) can0 102C0040#803C96B503
(1780179524.689000) can0 10210040#0000800000008000
# tx t=018.711s 102C0040#803C96B503 note=rpm word sweep ignition/power-mode key-on context
# tx t=018.711s 10210040#0000800000008000 note=rpm word sweep zero speed/status baseline
(1780179524.784000) can0 102C0040#803C96B503
(1780179524.784000) can0 10210040#0000800000008000
# tx t=018.807s 102C0040#803C96B503 note=rpm word sweep ignition/power-mode key-on context
# tx t=018.807s 10242040#02 note=rpm word sweep second-turn/key-on sub-state
# tx t=018.807s 10210040#0000800000008000 note=rpm word sweep zero speed/status baseline
# tx t=018.807s 102CC040#0000400000000000 note=rpm word sweep confirmed speed-valid prerequisite
(1780179524.881000) can0 102C0040#803C96B503
(1780179524.881000) can0 10242040#02
(1780179524.881000) can0 10210040#0000800000008000
(1780179524.883000) can0 102CC040#0000400000000000
(1780179524.912000) can0 10244060#02
# tx t=018.903s 102C0040#803C96B503 note=rpm word sweep ignition/power-mode key-on context
# tx t=018.903s 10754040#040400 note=rpm word sweep key-present/key-on context
# tx t=018.903s 10210040#0000800000008000 note=rpm word sweep zero speed/status baseline
(1780179524.977000) can0 102C0040#803C96B503
(1780179524.977000) can0 10754040#040400
(1780179524.977000) can0 10210040#0000800000008000
(1780179525.021000) can0 10244060#02
# tx t=019.015s 102C0040#803C96B503 note=rpm word sweep ignition/power-mode key-on context
# tx t=019.015s 10210040#0000800000008000 note=rpm word sweep zero speed/status baseline
(1780179525.089000) can0 102C0040#803C96B503
(1780179525.089000) can0 10210040#0000800000008000
# tx t=019.063s 102CC040#0000400000000000 note=rpm word sweep confirmed speed-valid prerequisite
(1780179525.137000) can0 102CC040#0000400000000000
# tx t=019.111s 102C0040#803C96B503 note=rpm word sweep ignition/power-mode key-on context
# tx t=019.111s 10210040#0000800000008000 note=rpm word sweep zero speed/status baseline
(1780179525.185000) can0 102C0040#803C96B503
(1780179525.185000) can0 10210040#0000800000008000
# tx t=019.207s 102C0040#803C96B503 note=rpm word sweep ignition/power-mode key-on context
# tx t=019.207s 10210040#0000800000008000 note=rpm word sweep zero speed/status baseline
(1780179525.280000) can0 102C0040#803C96B503
(1780179525.281000) can0 10210040#0000800000008000
# tx t=019.303s 621#0052000000000000 note=rpm word sweep key-on 621 keepalive
# tx t=019.303s 102C0040#803C96B503 note=rpm word sweep ignition/power-mode key-on context
# tx t=019.304s 10210040#0000800000008000 note=rpm word sweep zero speed/status baseline
# tx t=019.304s 102CC040#0000400000000000 note=rpm word sweep confirmed speed-valid prerequisite
(1780179525.377000) can0 621#0052000000000000
(1780179525.377000) can0 102C0040#803C96B503
(1780179525.377000) can0 10210040#0000800000008000
(1780179525.380000) can0 102CC040#0000400000000000
# tx t=019.414s 102C0040#803C96B503 note=rpm word sweep ignition/power-mode key-on context
# tx t=019.415s 10210040#0000800000008000 note=rpm word sweep zero speed/status baseline
(1780179525.488000) can0 102C0040#803C96B503
(1780179525.488000) can0 10210040#0000800000008000
# tx t=019.510s 13FFE040# note=rpm word sweep BCM/source 0x40 presence
# tx t=019.511s 102C0040#803C96B503 note=rpm word sweep ignition/power-mode key-on context
# tx t=019.511s 10210040#0000800000008000 note=rpm word sweep zero speed/status baseline
(1780179525.584000) can0 13FFE040#
(1780179525.584000) can0 102C0040#803C96B503
(1780179525.584000) can0 10210040#0000800000008000
# tx t=019.559s 102CC040#0000400000000000 note=rpm word sweep confirmed speed-valid prerequisite
(1780179525.632000) can0 102CC040#0000400000000000
# tx t=019.607s 102C0040#803C96B503 note=rpm word sweep ignition/power-mode key-on context
# tx t=019.607s 10210040#0000800000008000 note=rpm word sweep zero speed/status baseline
(1780179525.680000) can0 102C0040#803C96B503
(1780179525.680000) can0 10210040#0000800000008000
(1780179525.691000) can0 13FFE060#
# tx t=019.702s 102C0040#803C96B503 note=rpm word sweep ignition/power-mode key-on context
# tx t=019.703s 10210040#0000800000008000 note=rpm word sweep zero speed/status baseline
(1780179525.776000) can0 102C0040#803C96B503
(1780179525.776000) can0 10210040#0000800000008000
# tx t=019.815s 102C0040#803C96B503 note=rpm word sweep ignition/power-mode key-on context
# tx t=019.815s 10242040#02 note=rpm word sweep second-turn/key-on sub-state
# tx t=019.815s 10210040#0000800000008000 note=rpm word sweep zero speed/status baseline
# tx t=019.815s 102CC040#0000400000000000 note=rpm word sweep confirmed speed-valid prerequisite
(1780179525.888000) can0 102C0040#803C96B503
(1780179525.888000) can0 10242040#02
(1780179525.889000) can0 10210040#0000800000008000
(1780179525.891000) can0 102CC040#0000400000000000
# tx t=019.911s 102C0040#803C96B503 note=rpm word sweep ignition/power-mode key-on context
# tx t=019.911s 10754040#040400 note=rpm word sweep key-present/key-on context
# tx t=019.911s 10210040#0000800000008000 note=rpm word sweep zero speed/status baseline
(1780179525.984000) can0 102C0040#803C96B503
(1780179525.984000) can0 10754040#040400
(1780179525.984000) can0 10210040#0000800000008000
# tx t=020.024s 102C0040#803C96B503 note=rpm word sweep ignition/power-mode key-on context
# tx t=020.024s 10210040#0000800000008000 note=rpm word sweep zero speed/status baseline
(1780179526.098000) can0 102C0040#803C96B503
(1780179526.098000) can0 10210040#0000800000008000
# tx t=020.055s 102CC040#0000400000000000 note=rpm word sweep confirmed speed-valid prerequisite
(1780179526.128000) can0 102CC040#0000400000000000
# tx t=020.103s 102C0040#803C96B503 note=rpm word sweep ignition/power-mode key-on context
# tx t=020.103s 10210040#0000800000008000 note=rpm word sweep zero speed/status baseline
(1780179526.176000) can0 102C0040#803C96B503
(1780179526.177000) can0 10210040#0000800000008000
# tx t=020.215s 102C0040#803C96B503 note=rpm word sweep ignition/power-mode key-on context
# tx t=020.215s 10210040#0000800000008000 note=rpm word sweep zero speed/status baseline
(1780179526.289000) can0 102C0040#803C96B503
(1780179526.289000) can0 10210040#0000800000008000
# tx t=020.311s 621#0052000000000000 note=rpm word sweep key-on 621 keepalive
# tx t=020.311s 102C0040#803C96B503 note=rpm word sweep ignition/power-mode key-on context
# tx t=020.311s 10210040#0000800000008000 note=rpm word sweep zero speed/status baseline
# tx t=020.312s 102CC040#0000400000000000 note=rpm word sweep confirmed speed-valid prerequisite
(1780179526.385000) can0 621#0052000000000000
(1780179526.385000) can0 102C0040#803C96B503
(1780179526.385000) can0 10210040#0000800000008000
(1780179526.388000) can0 102CC040#0000400000000000
# tx t=020.407s 102C0040#803C96B503 note=rpm word sweep ignition/power-mode key-on context
# tx t=020.407s 10210040#0000800000008000 note=rpm word sweep zero speed/status baseline
(1780179526.480000) can0 102C0040#803C96B503
(1780179526.481000) can0 10210040#0000800000008000
# tx t=020.503s 102C0040#803C96B503 note=rpm word sweep ignition/power-mode key-on context
# tx t=020.503s 10210040#0000800000008000 note=rpm word sweep zero speed/status baseline
(1780179526.577000) can0 102C0040#803C96B503
(1780179526.577000) can0 10210040#0000800000008000
# tx t=020.552s 102CC040#0000400000000000 note=rpm word sweep confirmed speed-valid prerequisite
(1780179526.625000) can0 102CC040#0000400000000000
# tx t=020.600s 102C0040#803C96B503 note=rpm word sweep ignition/power-mode key-on context
# tx t=020.600s 10210040#0000800000008000 note=rpm word sweep zero speed/status baseline
(1780179526.673000) can0 102C0040#803C96B503
(1780179526.673000) can0 10210040#0000800000008000
# tx t=020.711s 13FFE040# note=rpm word sweep BCM/source 0x40 presence
# tx t=020.711s 102C0040#803C96B503 note=rpm word sweep ignition/power-mode key-on context
# tx t=020.711s 10210040#0000800000008000 note=rpm word sweep zero speed/status baseline
(1780179526.784000) can0 13FFE040#
(1780179526.784000) can0 102C0040#803C96B503
(1780179526.784000) can0 10210040#0000800000008000
# tx t=020.807s 102C0040#803C96B503 note=rpm word sweep ignition/power-mode key-on context
# tx t=020.807s 10242040#02 note=rpm word sweep second-turn/key-on sub-state
# tx t=020.807s 10210040#0000800000008000 note=rpm word sweep zero speed/status baseline
# tx t=020.807s 102CC040#0000400000000000 note=rpm word sweep confirmed speed-valid prerequisite
(1780179526.880000) can0 102C0040#803C96B503
(1780179526.880000) can0 10242040#02
(1780179526.881000) can0 10210040#0000800000008000
(1780179526.883000) can0 102CC040#0000400000000000
(1780179526.912000) can0 13FFE060#
# tx t=020.902s 102C0040#803C96B503 note=rpm word sweep ignition/power-mode key-on context
# tx t=020.902s 10754040#040400 note=rpm word sweep key-present/key-on context
# tx t=020.902s 10210040#0000800000008000 note=rpm word sweep zero speed/status baseline
(1780179526.976000) can0 102C0040#803C96B503
(1780179526.976000) can0 10754040#040400
(1780179526.976000) can0 10210040#0000800000008000
# tx t=021.014s 102C0040#803C96B503 note=rpm word sweep ignition/power-mode key-on context
# tx t=021.014s 10210040#0000800000008000 note=rpm word sweep zero speed/status baseline
(1780179527.087000) can0 102C0040#803C96B503
(1780179527.087000) can0 10210040#0000800000008000
# tx t=021.061s 102CC040#0000400000000000 note=rpm word sweep confirmed speed-valid prerequisite
(1780179527.134000) can0 102CC040#0000400000000000
# tx t=021.109s 102C0040#803C96B503 note=rpm word sweep ignition/power-mode key-on context
# tx t=021.109s 10210040#0000800000008000 note=rpm word sweep zero speed/status baseline
(1780179527.183000) can0 102C0040#803C96B503
(1780179527.183000) can0 10210040#0000800000008000
# tx t=021.205s 102C0040#803C96B503 note=rpm word sweep ignition/power-mode key-on context
# tx t=021.205s 10210040#0000800000008000 note=rpm word sweep zero speed/status baseline
(1780179527.279000) can0 102C0040#803C96B503
(1780179527.279000) can0 10210040#0000800000008000
# tx t=021.301s 621#0052000000000000 note=rpm word sweep key-on 621 keepalive
# tx t=021.301s 102C0040#803C96B503 note=rpm word sweep ignition/power-mode key-on context
# tx t=021.301s 10210040#0000800000008000 note=rpm word sweep zero speed/status baseline
# tx t=021.301s 102CC040#0000400000000000 note=rpm word sweep confirmed speed-valid prerequisite
(1780179527.375000) can0 621#0052000000000000
(1780179527.375000) can0 102C0040#803C96B503
(1780179527.375000) can0 10210040#0000800000008000
(1780179527.378000) can0 102CC040#0000400000000000
# tx t=021.413s 102C0040#803C96B503 note=rpm word sweep ignition/power-mode key-on context
# tx t=021.414s 10210040#0000800000008000 note=rpm word sweep zero speed/status baseline
(1780179527.487000) can0 102C0040#803C96B503
(1780179527.487000) can0 10210040#0000800000008000
(1780179527.498000) can0 62C#0040000000000000
(1780179527.521000) can0 10600060#0160C020007B00
# tx t=021.509s 102C0040#803C96B503 note=rpm word sweep ignition/power-mode key-on context
# tx t=021.509s 10210040#0000800000008000 note=rpm word sweep zero speed/status baseline
(1780179527.582000) can0 102C0040#803C96B503
(1780179527.582000) can0 10210040#0000800000008000
# tx t=021.556s 102CC040#0000400000000000 note=rpm word sweep confirmed speed-valid prerequisite
(1780179527.630000) can0 102CC040#0000400000000000
# tx t=021.604s 102C0040#803C96B503 note=rpm word sweep ignition/power-mode key-on context
# tx t=021.605s 10210040#0000800000008000 note=rpm word sweep zero speed/status baseline
(1780179527.678000) can0 102C0040#803C96B503
(1780179527.678000) can0 10210040#0000800000008000
# tx t=021.699s 102C0040#803C96B503 note=rpm word sweep ignition/power-mode key-on context
# tx t=021.700s 10210040#0000800000008000 note=rpm word sweep zero speed/status baseline
(1780179527.773000) can0 102C0040#803C96B503
(1780179527.773000) can0 10210040#0000800000008000
# tx t=021.810s 102C0040#803C96B503 note=rpm word sweep ignition/power-mode key-on context
# tx t=021.810s 10242040#02 note=rpm word sweep second-turn/key-on sub-state
# tx t=021.811s 10210040#0000800000008000 note=rpm word sweep zero speed/status baseline
# tx t=021.811s 102CC040#0000400000000000 note=rpm word sweep confirmed speed-valid prerequisite
(1780179527.884000) can0 102C0040#803C96B503
(1780179527.884000) can0 10242040#02
(1780179527.884000) can0 10210040#0000800000008000
(1780179527.887000) can0 102CC040#0000400000000000
# tx t=021.905s 13FFE040# note=rpm word sweep BCM/source 0x40 presence
# tx t=021.906s 102C0040#803C96B503 note=rpm word sweep ignition/power-mode key-on context
# tx t=021.906s 10754040#040400 note=rpm word sweep key-present/key-on context
# tx t=021.906s 10210040#0000800000008000 note=rpm word sweep zero speed/status baseline
(1780179527.979000) can0 13FFE040#
(1780179527.979000) can0 102C0040#803C96B503
(1780179527.980000) can0 10754040#040400
(1780179527.981000) can0 10210040#0000800000008000
# tx t=022.001s 102C0040#803C96B503 note=rpm word sweep ignition/power-mode key-on context
# tx t=022.001s 10210040#0000800000008000 note=rpm word sweep zero speed/status baseline
(1780179528.074000) can0 102C0040#803C96B503
(1780179528.074000) can0 10210040#0000800000008000
(1780179528.089000) can0 13FFE060#
# tx t=022.062s 102CC040#0000400000000000 note=rpm word sweep confirmed speed-valid prerequisite
(1780179528.136000) can0 102CC040#0000400000000000
# tx t=022.110s 102C0040#803C96B503 note=rpm word sweep ignition/power-mode key-on context
# tx t=022.111s 10210040#0000800000008000 note=rpm word sweep zero speed/status baseline
(1780179528.184000) can0 102C0040#803C96B503
(1780179528.184000) can0 10210040#0000800000008000
# tx t=022.206s 102C0040#803C96B503 note=rpm word sweep ignition/power-mode key-on context
# tx t=022.207s 10210040#0000800000008000 note=rpm word sweep zero speed/status baseline
(1780179528.280000) can0 102C0040#803C96B503
(1780179528.280000) can0 10210040#0000800000008000
# tx t=022.302s 621#0052000000000000 note=rpm word sweep key-on 621 keepalive
# tx t=022.302s 102C0040#803C96B503 note=rpm word sweep ignition/power-mode key-on context
# tx t=022.302s 10210040#0000800000008000 note=rpm word sweep zero speed/status baseline
# tx t=022.302s 102CC040#0000400000000000 note=rpm word sweep confirmed speed-valid prerequisite
(1780179528.375000) can0 621#0052000000000000
(1780179528.376000) can0 102C0040#803C96B503
(1780179528.376000) can0 10210040#0000800000008000
(1780179528.378000) can0 102CC040#0000400000000000
# tx t=022.413s 102C0040#803C96B503 note=rpm word sweep ignition/power-mode key-on context
# tx t=022.414s 10210040#0000800000008000 note=rpm word sweep zero speed/status baseline
(1780179528.487000) can0 102C0040#803C96B503
(1780179528.487000) can0 10210040#0000800000008000
# tx t=022.509s 102C0040#803C96B503 note=rpm word sweep ignition/power-mode key-on context
# tx t=022.510s 10210040#0000800000008000 note=rpm word sweep zero speed/status baseline
(1780179528.583000) can0 102C0040#803C96B503
(1780179528.583000) can0 10210040#0000800000008000
# tx t=022.558s 102CC040#0000400000000000 note=rpm word sweep confirmed speed-valid prerequisite
(1780179528.631000) can0 102CC040#0000400000000000
# tx t=022.606s 102C0040#803C96B503 note=rpm word sweep ignition/power-mode key-on context
# tx t=022.606s 10210040#0000800000008000 note=rpm word sweep zero speed/status baseline
(1780179528.679000) can0 102C0040#803C96B503
(1780179528.679000) can0 10210040#0000800000008000
# tx t=022.701s 102C0040#803C96B503 note=rpm word sweep ignition/power-mode key-on context
# tx t=022.702s 10210040#0000800000008000 note=rpm word sweep zero speed/status baseline
(1780179528.775000) can0 102C0040#803C96B503
(1780179528.775000) can0 10210040#0000800000008000
# tx t=022.814s 102C0040#803C96B503 note=rpm word sweep ignition/power-mode key-on context
# tx t=022.814s 10242040#02 note=rpm word sweep second-turn/key-on sub-state
# tx t=022.814s 10210040#0000800000008000 note=rpm word sweep zero speed/status baseline
# tx t=022.814s 102CC040#0000400000000000 note=rpm word sweep confirmed speed-valid prerequisite
(1780179528.887000) can0 102C0040#803C96B503
(1780179528.887000) can0 10242040#02
(1780179528.888000) can0 10210040#0000800000008000
(1780179528.890000) can0 102CC040#0000400000000000
# tx t=022.910s 102C0040#803C96B503 note=rpm word sweep ignition/power-mode key-on context
# tx t=022.910s 10754040#040400 note=rpm word sweep key-present/key-on context
# tx t=022.910s 10210040#0000800000008000 note=rpm word sweep zero speed/status baseline
(1780179528.983000) can0 102C0040#803C96B503
(1780179528.983000) can0 10754040#040400
(1780179528.984000) can0 10210040#0000800000008000
# tx t=023.006s 102C0040#803C96B503 note=rpm word sweep ignition/power-mode key-on context
# tx t=023.006s 10210040#0000800000008000 note=rpm word sweep zero speed/status baseline
(1780179529.079000) can0 102C0040#803C96B503
(1780179529.079000) can0 10210040#0000800000008000
# tx t=023.054s 102CC040#0000400000000000 note=rpm word sweep confirmed speed-valid prerequisite
(1780179529.127000) can0 102CC040#0000400000000000
# tx t=023.102s 13FFE040# note=rpm word sweep BCM/source 0x40 presence
# tx t=023.102s 102C0040#803C96B503 note=rpm word sweep ignition/power-mode key-on context
# tx t=023.102s 10210040#0000800000008000 note=rpm word sweep zero speed/status baseline
(1780179529.176000) can0 13FFE040#
(1780179529.176000) can0 102C0040#803C96B503
(1780179529.176000) can0 10210040#0000800000008000
# tx t=023.214s 102C0040#803C96B503 note=rpm word sweep ignition/power-mode key-on context
# tx t=023.214s 10210040#0000800000008000 note=rpm word sweep zero speed/status baseline
(1780179529.288000) can0 102C0040#803C96B503
(1780179529.288000) can0 10210040#0000800000008000
(1780179529.289000) can0 13FFE060#
# tx t=023.310s 621#0052000000000000 note=rpm word sweep key-on 621 keepalive
# tx t=023.310s 102C0040#803C96B503 note=rpm word sweep ignition/power-mode key-on context
# tx t=023.310s 10210040#0000800000008000 note=rpm word sweep zero speed/status baseline
# tx t=023.311s 102CC040#0000400000000000 note=rpm word sweep confirmed speed-valid prerequisite
# tx t=023.311s 10220040#0C80000040080000 note=10220040 body/status speed-limiter-adjacent rpm-word offset 0: 800 rpm raw 0x0C80
(1780179529.384000) can0 621#0052000000000000
(1780179529.384000) can0 102C0040#803C96B503
(1780179529.384000) can0 10210040#0000800000008000
(1780179529.387000) can0 102CC040#0000400000000000
(1780179529.390000) can0 10220040#0C80000040080000
# tx t=023.326s 10220040#0C80000040080000 note=10220040 body/status speed-limiter-adjacent rpm-word offset 0: 800 rpm raw 0x0C80
(1780179529.399000) can0 10220040#0C80000040080000
# tx t=023.342s 10220040#0C80000040080000 note=10220040 body/status speed-limiter-adjacent rpm-word offset 0: 800 rpm raw 0x0C80
(1780179529.415000) can0 10220040#0C80000040080000
# tx t=023.374s 10220040#0C80000040080000 note=10220040 body/status speed-limiter-adjacent rpm-word offset 0: 800 rpm raw 0x0C80
(1780179529.448000) can0 10220040#0C80000040080000
# tx t=023.390s 10220040#0C80000040080000 note=10220040 body/status speed-limiter-adjacent rpm-word offset 0: 800 rpm raw 0x0C80
(1780179529.464000) can0 10220040#0C80000040080000
# tx t=023.406s 102C0040#803C96B503 note=rpm word sweep ignition/power-mode key-on context
# tx t=023.406s 10210040#0000800000008000 note=rpm word sweep zero speed/status baseline
# tx t=023.407s 10220040#0C80000040080000 note=10220040 body/status speed-limiter-adjacent rpm-word offset 0: 800 rpm raw 0x0C80
(1780179529.480000) can0 102C0040#803C96B503
(1780179529.480000) can0 10210040#0000800000008000
(1780179529.480000) can0 10220040#0C80000040080000
(1780179529.494000) can0 10244060#02
# tx t=023.422s 10220040#0C80000040080000 note=10220040 body/status speed-limiter-adjacent rpm-word offset 0: 800 rpm raw 0x0C80
(1780179529.495000) can0 10220040#0C80000040080000
# tx t=023.454s 10220040#0C80000040080000 note=10220040 body/status speed-limiter-adjacent rpm-word offset 0: 800 rpm raw 0x0C80
(1780179529.528000) can0 10220040#0C80000040080000
# tx t=023.470s 10220040#0C80000040080000 note=10220040 body/status speed-limiter-adjacent rpm-word offset 0: 800 rpm raw 0x0C80
(1780179529.544000) can0 10220040#0C80000040080000
# tx t=023.486s 10220040#0C80000040080000 note=10220040 body/status speed-limiter-adjacent rpm-word offset 0: 800 rpm raw 0x0C80
(1780179529.560000) can0 10220040#0C80000040080000
# tx t=023.502s 102C0040#803C96B503 note=rpm word sweep ignition/power-mode key-on context
# tx t=023.503s 10210040#0000800000008000 note=rpm word sweep zero speed/status baseline
# tx t=023.503s 10220040#0C80000040080000 note=10220040 body/status speed-limiter-adjacent rpm-word offset 0: 800 rpm raw 0x0C80
(1780179529.576000) can0 102C0040#803C96B503
(1780179529.576000) can0 10210040#0000800000008000
(1780179529.576000) can0 10220040#0C80000040080000
# tx t=023.534s 10220040#0C80000040080000 note=10220040 body/status speed-limiter-adjacent rpm-word offset 0: 800 rpm raw 0x0C80
(1780179529.608000) can0 10220040#0C80000040080000
# tx t=023.551s 102CC040#0000400000000000 note=rpm word sweep confirmed speed-valid prerequisite
# tx t=023.551s 10220040#0C80000040080000 note=10220040 body/status speed-limiter-adjacent rpm-word offset 0: 800 rpm raw 0x0C80
(1780179529.624000) can0 102CC040#0000400000000000
(1780179529.624000) can0 10220040#0C80000040080000
# tx t=023.566s 10220040#0C80000040080000 note=10220040 body/status speed-limiter-adjacent rpm-word offset 0: 800 rpm raw 0x0C80
(1780179529.640000) can0 10220040#0C80000040080000
# tx t=023.582s 10220040#0C80000040080000 note=10220040 body/status speed-limiter-adjacent rpm-word offset 0: 800 rpm raw 0x0C80
(1780179529.656000) can0 10220040#0C80000040080000
# tx t=023.615s 102C0040#803C96B503 note=rpm word sweep ignition/power-mode key-on context
# tx t=023.615s 10210040#0000800000008000 note=rpm word sweep zero speed/status baseline
# tx t=023.615s 10220040#0C80000040080000 note=10220040 body/status speed-limiter-adjacent rpm-word offset 0: 800 rpm raw 0x0C80
(1780179529.688000) can0 102C0040#803C96B503
(1780179529.688000) can0 10210040#0000800000008000
(1780179529.688000) can0 10220040#0C80000040080000
# tx t=023.630s 10220040#0C80000040080000 note=10220040 body/status speed-limiter-adjacent rpm-word offset 0: 800 rpm raw 0x0C80
(1780179529.704000) can0 10220040#0C80000040080000
# tx t=023.646s 10220040#0C80000040080000 note=10220040 body/status speed-limiter-adjacent rpm-word offset 0: 800 rpm raw 0x0C80
(1780179529.720000) can0 10220040#0C80000040080000
# tx t=023.663s 10220040#0C80000040080000 note=10220040 body/status speed-limiter-adjacent rpm-word offset 0: 800 rpm raw 0x0C80
(1780179529.736000) can0 10220040#0C80000040080000
# tx t=023.695s 10220040#0C80000040080000 note=10220040 body/status speed-limiter-adjacent rpm-word offset 0: 800 rpm raw 0x0C80
(1780179529.768000) can0 10220040#0C80000040080000
# tx t=023.711s 102C0040#803C96B503 note=rpm word sweep ignition/power-mode key-on context
# tx t=023.711s 10210040#0000800000008000 note=rpm word sweep zero speed/status baseline
# tx t=023.711s 10220040#0C80000040080000 note=10220040 body/status speed-limiter-adjacent rpm-word offset 0: 800 rpm raw 0x0C80
(1780179529.784000) can0 102C0040#803C96B503
(1780179529.784000) can0 10210040#0000800000008000
# tx t=023.727s 10220040#0C80000040080000 note=10220040 body/status speed-limiter-adjacent rpm-word offset 0: 800 rpm raw 0x0C80
# tx t=023.743s 10220040#0C80000040080000 note=10220040 body/status speed-limiter-adjacent rpm-word offset 0: 800 rpm raw 0x0C80
# tx t=023.775s 10220040#0C80000040080000 note=10220040 body/status speed-limiter-adjacent rpm-word offset 0: 800 rpm raw 0x0C80
# tx t=023.791s 10220040#0C80000040080000 note=10220040 body/status speed-limiter-adjacent rpm-word offset 0: 800 rpm raw 0x0C80
# tx t=023.807s 102C0040#803C96B503 note=rpm word sweep ignition/power-mode key-on context
# tx t=023.807s 10242040#02 note=rpm word sweep second-turn/key-on sub-state
# tx t=023.807s 10210040#0000800000008000 note=rpm word sweep zero speed/status baseline
# tx t=023.807s 102CC040#0000400000000000 note=rpm word sweep confirmed speed-valid prerequisite
# tx t=023.807s 10220040#0C80000040080000 note=10220040 body/status speed-limiter-adjacent rpm-word offset 0: 800 rpm raw 0x0C80
# tx t=023.823s 10220040#0C80000040080000 note=10220040 body/status speed-limiter-adjacent rpm-word offset 0: 800 rpm raw 0x0C80
# tx t=023.855s 10220040#0C80000040080000 note=10220040 body/status speed-limiter-adjacent rpm-word offset 0: 800 rpm raw 0x0C80
# tx t=023.871s 10220040#0C80000040080000 note=10220040 body/status speed-limiter-adjacent rpm-word offset 0: 800 rpm raw 0x0C80
# tx t=023.887s 10220040#0C80000040080000 note=10220040 body/status speed-limiter-adjacent rpm-word offset 0: 800 rpm raw 0x0C80
# tx t=023.903s 102C0040#803C96B503 note=rpm word sweep ignition/power-mode key-on context
# tx t=023.903s 10754040#040400 note=rpm word sweep key-present/key-on context
# tx t=023.903s 10210040#0000800000008000 note=rpm word sweep zero speed/status baseline
# tx t=023.903s 10220040#0C80000040080000 note=10220040 body/status speed-limiter-adjacent rpm-word offset 0: 800 rpm raw 0x0C80
# tx t=023.935s 10220040#0C80000040080000 note=10220040 body/status speed-limiter-adjacent rpm-word offset 0: 800 rpm raw 0x0C80
# tx t=023.951s 10220040#0C80000040080000 note=10220040 body/status speed-limiter-adjacent rpm-word offset 0: 800 rpm raw 0x0C80
# tx t=023.967s 10220040#0C80000040080000 note=10220040 body/status speed-limiter-adjacent rpm-word offset 0: 800 rpm raw 0x0C80
# tx t=023.983s 10220040#0C80000040080000 note=10220040 body/status speed-limiter-adjacent rpm-word offset 0: 800 rpm raw 0x0C80
# tx t=024.015s 102C0040#803C96B503 note=rpm word sweep ignition/power-mode key-on context
# tx t=024.015s 10210040#0000800000008000 note=rpm word sweep zero speed/status baseline
# tx t=024.015s 10220040#0C80000040080000 note=10220040 body/status speed-limiter-adjacent rpm-word offset 0: 800 rpm raw 0x0C80
# tx t=024.031s 10220040#0C80000040080000 note=10220040 body/status speed-limiter-adjacent rpm-word offset 0: 800 rpm raw 0x0C80
# tx t=024.047s 10220040#0C80000040080000 note=10220040 body/status speed-limiter-adjacent rpm-word offset 0: 800 rpm raw 0x0C80
# tx t=024.063s 102CC040#0000400000000000 note=rpm word sweep confirmed speed-valid prerequisite
# tx t=024.063s 10220040#0C80000040080000 note=10220040 body/status speed-limiter-adjacent rpm-word offset 0: 800 rpm raw 0x0C80
# tx t=024.095s 10220040#0C80000040080000 note=10220040 body/status speed-limiter-adjacent rpm-word offset 0: 800 rpm raw 0x0C80
# tx t=024.111s 102C0040#803C96B503 note=rpm word sweep ignition/power-mode key-on context
# tx t=024.111s 10210040#0000800000008000 note=rpm word sweep zero speed/status baseline
# tx t=024.111s 10220040#0C80000040080000 note=10220040 body/status speed-limiter-adjacent rpm-word offset 0: 800 rpm raw 0x0C80
# tx t=024.127s 10220040#0C80000040080000 note=10220040 body/status speed-limiter-adjacent rpm-word offset 0: 800 rpm raw 0x0C80
# tx t=024.143s 10220040#0C80000040080000 note=10220040 body/status speed-limiter-adjacent rpm-word offset 0: 800 rpm raw 0x0C80
# tx t=024.175s 10220040#0C80000040080000 note=10220040 body/status speed-limiter-adjacent rpm-word offset 0: 800 rpm raw 0x0C80
# tx t=024.191s 10220040#0C80000040080000 note=10220040 body/status speed-limiter-adjacent rpm-word offset 0: 800 rpm raw 0x0C80
# tx t=024.207s 102C0040#803C96B503 note=rpm word sweep ignition/power-mode key-on context
# tx t=024.207s 10210040#0000800000008000 note=rpm word sweep zero speed/status baseline
# tx t=024.208s 10220040#0C80000040080000 note=10220040 body/status speed-limiter-adjacent rpm-word offset 0: 800 rpm raw 0x0C80
# tx t=024.223s 10220040#0C80000040080000 note=10220040 body/status speed-limiter-adjacent rpm-word offset 0: 800 rpm raw 0x0C80
(1780179530.304000) can0 10220040#0C80000040080000
(1780179530.307000) can0 10220040#0C80000040080000
(1780179530.317000) can0 10220040#0C80000040080000
(1780179530.321000) can0 10220040#0C80000040080000
(1780179530.326000) can0 102C0040#803C96B503
# tx t=024.255s 10220040#0C80000040080000 note=10220040 body/status speed-limiter-adjacent rpm-word offset 0: 800 rpm raw 0x0C80
(1780179530.330000) can0 10242040#02
(1780179530.335000) can0 10210040#0000800000008000
(1780179530.339000) can0 102CC040#0000400000000000
(1780179530.341000) can0 10220040#0C80000040080000
# tx t=024.271s 10220040#0C80000040080000 note=10220040 body/status speed-limiter-adjacent rpm-word offset 0: 800 rpm raw 0x0C80
(1780179530.345000) can0 10220040#0C80000040080000
(1780179530.350000) can0 10220040#0C80000040080000
(1780179530.354000) can0 10220040#0C80000040080000
(1780179530.359000) can0 10220040#0C80000040080000
# tx t=024.287s 10220040#0C80000040080000 note=10220040 body/status speed-limiter-adjacent rpm-word offset 0: 800 rpm raw 0x0C80
(1780179530.363000) can0 102C0040#803C96B503
(1780179530.367000) can0 10754040#040400
(1780179530.372000) can0 10210040#0000800000008000
(1780179530.375000) can0 10220040#0C80000040080000
(1780179530.378000) can0 10220040#0C80000040080000
(1780179530.383000) can0 10220040#0C80000040080000
(1780179530.387000) can0 10220040#0C80000040080000
# tx t=024.318s 13FFE040# note=rpm word sweep BCM/source 0x40 presence
# tx t=024.318s 621#0052000000000000 note=rpm word sweep key-on 621 keepalive
# tx t=024.318s 102C0040#803C96B503 note=rpm word sweep ignition/power-mode key-on context
# tx t=024.318s 10210040#0000800000008000 note=rpm word sweep zero speed/status baseline
# tx t=024.319s 102CC040#0000400000000000 note=rpm word sweep confirmed speed-valid prerequisite
# tx t=024.319s 10220040#0C80000040080000 note=10220040 body/status speed-limiter-adjacent rpm-word offset 0: 800 rpm raw 0x0C80
(1780179530.392000) can0 10220040#0C80000040080000
(1780179530.396000) can0 102C0040#803C96B503
(1780179530.400000) can0 10210040#0000800000008000
(1780179530.404000) can0 10220040#0C80000040080000
# tx t=024.333s 10220040#0C80000040080000 note=10220040 body/status speed-limiter-adjacent rpm-word offset 0: 800 rpm raw 0x0C80
(1780179530.408000) can0 10220040#0C80000040080000
(1780179530.412000) can0 10220040#0C80000040080000
(1780179530.416000) can0 102CC040#0000400000000000
(1780179530.421000) can0 10220040#0C80000040080000
(1780179530.425000) can0 10220040#0C80000040080000
(1780179530.430000) can0 102C0040#803C96B503
(1780179530.434000) can0 10210040#0000800000008000
# tx t=024.364s 10220040#0C80000040080000 note=10220040 body/status speed-limiter-adjacent rpm-word offset 0: 800 rpm raw 0x0C80
(1780179530.438000) can0 10220040#0C80000040080000
(1780179530.442000) can0 10220040#0C80000040080000
(1780179530.446000) can0 10220040#0C80000040080000
(1780179530.451000) can0 10220040#0C80000040080000
# tx t=024.380s 10220040#0C80000040080000 note=10220040 body/status speed-limiter-adjacent rpm-word offset 0: 800 rpm raw 0x0C80
(1780179530.455000) can0 10220040#0C80000040080000
(1780179530.459000) can0 102C0040#803C96B503
(1780179530.464000) can0 10210040#0000800000008000
(1780179530.468000) can0 10220040#0C80000040080000
# tx t=024.396s 10220040#0C80000040080000 note=10220040 body/status speed-limiter-adjacent rpm-word offset 0: 800 rpm raw 0x0C80
(1780179530.471000) can0 10220040#0C80000040080000
(1780179530.476000) can0 10220040#0C80000040080000
(1780179530.480000) can0 10220040#0C80000040080000
(1780179530.485000) can0 10220040#0C80000040080000
(1780179530.489000) can0 13FFE040#
(1780179530.493000) can0 621#0052000000000000
(1780179530.498000) can0 102C0040#803C96B503
(1780179530.500000) can0 10210040#0000800000008000
(1780179530.502000) can0 13FFE060#
(1780179530.506000) can0 102CC040#0000400000000000
(1780179530.509000) can0 10220040#0C80000040080000
(1780179530.514000) can0 10220040#0C80000040080000
# tx t=024.442s 102C0040#803C96B503 note=rpm word sweep ignition/power-mode key-on context
# tx t=024.443s 10210040#0000800000008000 note=rpm word sweep zero speed/status baseline
# tx t=024.443s 10220040#0C80000040080000 note=10220040 body/status speed-limiter-adjacent rpm-word offset 0: 800 rpm raw 0x0C80
(1780179530.518000) can0 10244060#00
(1780179530.522000) can0 10220040#0C80000040080000
(1780179530.526000) can0 10220040#0C80000040080000
(1780179530.531000) can0 10220040#0C80000040080000
(1780179530.535000) can0 102C0040#803C96B503
(1780179530.539000) can0 10210040#0000800000008000
(1780179530.544000) can0 10220040#0C80000040080000
# tx t=024.473s 10220040#0C80000040080000 note=10220040 body/status speed-limiter-adjacent rpm-word offset 0: 800 rpm raw 0x0C80
(1780179530.547000) can0 10220040#0C80000040080000
# tx t=024.489s 10220040#0C80000040080000 note=10220040 body/status speed-limiter-adjacent rpm-word offset 0: 800 rpm raw 0x0C80
(1780179530.563000) can0 10220040#0C80000040080000
(1780179530.563000) can0 103BC060#00
(1780179530.570000) can0 10444060#00
(1780179530.572000) can0 10448060#00
(1780179530.574000) can0 1045C060#00
(1780179530.577000) can0 10774060#00
# tx t=024.505s 102C0040#803C96B503 note=rpm word sweep ignition/power-mode key-on context
# tx t=024.506s 10210040#0000800000008000 note=rpm word sweep zero speed/status baseline
# tx t=024.506s 10220040#0C80000040080000 note=10220040 body/status speed-limiter-adjacent rpm-word offset 0: 800 rpm raw 0x0C80
(1780179530.579000) can0 102C0040#803C96B503
(1780179530.579000) can0 10210040#0000800000008000
(1780179530.579000) can0 10220040#0C80000040080000
(1780179530.579000) can0 10A04060#00
# tx t=024.520s 10220040#0C80000040080000 note=10220040 body/status speed-limiter-adjacent rpm-word offset 0: 800 rpm raw 0x0C80
(1780179530.594000) can0 10220040#0C80000040080000
(1780179530.596000) can0 10ACE060#1E00000000000000
(1780179530.604000) can0 10AE8060#030E010104050000
(1780179530.607000) can0 10B0A060#001E04
(1780179530.610000) can0 13FFE060#
(1780179530.613000) can0 62C#0152000000000000
# tx t=024.550s 102CC040#0000400000000000 note=rpm word sweep confirmed speed-valid prerequisite
# tx t=024.551s 10220040#0C80000040080000 note=10220040 body/status speed-limiter-adjacent rpm-word offset 0: 800 rpm raw 0x0C80
(1780179530.624000) can0 102CC040#0000400000000000
(1780179530.624000) can0 10220040#0C80000040080000
# tx t=024.566s 10220040#0C80000040080000 note=10220040 body/status speed-limiter-adjacent rpm-word offset 0: 800 rpm raw 0x0C80
(1780179530.639000) can0 10AE8060#030E010104050000
(1780179530.639000) can0 10220040#0C80000040080000
# tx t=024.582s 10220040#0C80000040080000 note=10220040 body/status speed-limiter-adjacent rpm-word offset 0: 800 rpm raw 0x0C80
(1780179530.655000) can0 10220040#0C80000040080000
(1780179530.669000) can0 10AE8060#0016010800000000
# tx t=024.598s 10220040#0C80000040080000 note=10220040 body/status speed-limiter-adjacent rpm-word offset 0: 800 rpm raw 0x0C80
(1780179530.671000) can0 10220040#0C80000040080000
# tx t=024.614s 102C0040#803C96B503 note=rpm word sweep ignition/power-mode key-on context
# tx t=024.614s 10210040#0000800000008000 note=rpm word sweep zero speed/status baseline
# tx t=024.614s 10220040#0C80000040080000 note=10220040 body/status speed-limiter-adjacent rpm-word offset 0: 800 rpm raw 0x0C80
(1780179530.687000) can0 102C0040#803C96B503
(1780179530.687000) can0 10210040#0000800000008000
(1780179530.688000) can0 10220040#0C80000040080000
# tx t=024.630s 10220040#0C80000040080000 note=10220040 body/status speed-limiter-adjacent rpm-word offset 0: 800 rpm raw 0x0C80
(1780179530.703000) can0 10220040#0C80000040080000
(1780179530.712000) can0 10ACE060#1E00000000000000
(1780179530.717000) can0 103D6060#00
# tx t=024.646s 10220040#0C80000040080000 note=10220040 body/status speed-limiter-adjacent rpm-word offset 0: 800 rpm raw 0x0C80
(1780179530.719000) can0 10220040#0C80000040080000
(1780179530.719000) can0 103DA060#00
(1780179530.726000) can0 1045C060#40
(1780179530.728000) can0 10812060#00
(1780179530.731000) can0 1084A060#00
(1780179530.734000) can0 10B0A060#002B04
# tx t=024.677s 10220040#0C80000040080000 note=10220040 body/status speed-limiter-adjacent rpm-word offset 0: 800 rpm raw 0x0C80
(1780179530.750000) can0 10220040#0C80000040080000
(1780179530.757000) can0 10244060#02
# tx t=024.693s 10220040#0C80000040080000 note=10220040 body/status speed-limiter-adjacent rpm-word offset 0: 800 rpm raw 0x0C80
(1780179530.766000) can0 10220040#0C80000040080000
(1780179530.767000) can0 10424060#059964
# tx t=024.709s 102C0040#803C96B503 note=rpm word sweep ignition/power-mode key-on context
# tx t=024.709s 10210040#0000800000008000 note=rpm word sweep zero speed/status baseline
# tx t=024.710s 10220040#0C80000040080000 note=10220040 body/status speed-limiter-adjacent rpm-word offset 0: 800 rpm raw 0x0C80
(1780179530.783000) can0 102C0040#803C96B503
(1780179530.783000) can0 10210040#0000800000008000
(1780179530.783000) can0 10220040#0C80000040080000
# tx t=024.725s 10220040#0C80000040080000 note=10220040 body/status speed-limiter-adjacent rpm-word offset 0: 800 rpm raw 0x0C80
(1780179530.799000) can0 10220040#0C80000040080000
# tx t=024.741s 10220040#0C80000040080000 note=10220040 body/status speed-limiter-adjacent rpm-word offset 0: 800 rpm raw 0x0C80
(1780179530.815000) can0 10220040#0C80000040080000
(1780179530.823000) can0 10ACE060#2B00000000000000
# tx t=024.757s 10220040#0C80000040080000 note=10220040 body/status speed-limiter-adjacent rpm-word offset 0: 800 rpm raw 0x0C80
(1780179530.830000) can0 10220040#0C80000040080000
# tx t=024.773s 10220040#0C80000040080000 note=10220040 body/status speed-limiter-adjacent rpm-word offset 0: 800 rpm raw 0x0C80
(1780179530.846000) can0 10220040#0C80000040080000
# tx t=024.789s 10220040#0C80000040080000 note=10220040 body/status speed-limiter-adjacent rpm-word offset 0: 800 rpm raw 0x0C80
(1780179530.862000) can0 10220040#0C80000040080000
(1780179530.869000) can0 10244060#02
# tx t=024.805s 102C0040#803C96B503 note=rpm word sweep ignition/power-mode key-on context
# tx t=024.805s 10242040#02 note=rpm word sweep second-turn/key-on sub-state
# tx t=024.805s 10210040#0000800000008000 note=rpm word sweep zero speed/status baseline
# tx t=024.805s 102CC040#0000400000000000 note=rpm word sweep confirmed speed-valid prerequisite
# tx t=024.805s 10220040#12C0000040080000 note=10220040 body/status speed-limiter-adjacent rpm-word offset 0: 1200 rpm raw 0x12C0
(1780179530.879000) can0 102C0040#803C96B503
(1780179530.879000) can0 10242040#02
(1780179530.879000) can0 10210040#0000800000008000
(1780179530.881000) can0 102CC040#0000400000000000
(1780179530.884000) can0 10220040#12C0000040080000
# tx t=024.821s 10220040#12C0000040080000 note=10220040 body/status speed-limiter-adjacent rpm-word offset 0: 1200 rpm raw 0x12C0
(1780179530.894000) can0 10220040#12C0000040080000
# tx t=024.852s 10220040#12C0000040080000 note=10220040 body/status speed-limiter-adjacent rpm-word offset 0: 1200 rpm raw 0x12C0
(1780179530.925000) can0 10308060#000002
(1780179530.925000) can0 10424060#059964
(1780179530.925000) can0 10220040#12C0000040080000
(1780179530.929000) can0 10ACE060#1E00200000000000
# tx t=024.868s 10220040#12C0000040080000 note=10220040 body/status speed-limiter-adjacent rpm-word offset 0: 1200 rpm raw 0x12C0
(1780179530.941000) can0 10220040#12C0000040080000
(1780179530.950000) can0 10AFC060#38FFFFFFFFFFFF2B
# tx t=024.884s 10220040#12C0000040080000 note=10220040 body/status speed-limiter-adjacent rpm-word offset 0: 1200 rpm raw 0x12C0
(1780179530.957000) can0 10220040#12C0000040080000
# tx t=024.900s 102C0040#803C96B503 note=rpm word sweep ignition/power-mode key-on context
# tx t=024.900s 10754040#040400 note=rpm word sweep key-present/key-on context
# tx t=024.900s 10210040#0000800000008000 note=rpm word sweep zero speed/status baseline
# tx t=024.900s 10220040#12C0000040080000 note=10220040 body/status speed-limiter-adjacent rpm-word offset 0: 1200 rpm raw 0x12C0
(1780179530.973000) can0 102C0040#803C96B503
(1780179530.974000) can0 10754040#040400
(1780179530.974000) can0 10210040#0000800000008000
(1780179530.976000) can0 10220040#12C0000040080000
# tx t=024.932s 10220040#12C0000040080000 note=10220040 body/status speed-limiter-adjacent rpm-word offset 0: 1200 rpm raw 0x12C0
(1780179531.005000) can0 10220040#12C0000040080000
# tx t=024.948s 10220040#12C0000040080000 note=10220040 body/status speed-limiter-adjacent rpm-word offset 0: 1200 rpm raw 0x12C0
(1780179531.021000) can0 10220040#12C0000040080000
# tx t=024.964s 10220040#12C0000040080000 note=10220040 body/status speed-limiter-adjacent rpm-word offset 0: 1200 rpm raw 0x12C0
(1780179531.037000) can0 10220040#12C0000040080000
# tx t=024.980s 10220040#12C0000040080000 note=10220040 body/status speed-limiter-adjacent rpm-word offset 0: 1200 rpm raw 0x12C0
(1780179531.053000) can0 10220040#12C0000040080000
# tx t=025.011s 102C0040#803C96B503 note=rpm word sweep ignition/power-mode key-on context
# tx t=025.011s 10210040#0000800000008000 note=rpm word sweep zero speed/status baseline
# tx t=025.011s 10220040#12C0000040080000 note=10220040 body/status speed-limiter-adjacent rpm-word offset 0: 1200 rpm raw 0x12C0
(1780179531.085000) can0 102C0040#803C96B503
(1780179531.085000) can0 10210040#0000800000008000
(1780179531.085000) can0 10220040#12C0000040080000
# tx t=025.027s 10220040#12C0000040080000 note=10220040 body/status speed-limiter-adjacent rpm-word offset 0: 1200 rpm raw 0x12C0
(1780179531.100000) can0 10220040#12C0000040080000
# tx t=025.043s 10220040#12C0000040080000 note=10220040 body/status speed-limiter-adjacent rpm-word offset 0: 1200 rpm raw 0x12C0
(1780179531.116000) can0 10220040#12C0000040080000
# tx t=025.059s 102CC040#0000400000000000 note=rpm word sweep confirmed speed-valid prerequisite
(1780179531.133000) can0 102CC040#0000400000000000
# tx t=025.075s 10220040#12C0000040080000 note=10220040 body/status speed-limiter-adjacent rpm-word offset 0: 1200 rpm raw 0x12C0
(1780179531.148000) can0 10220040#12C0000040080000
# tx t=025.091s 10220040#12C0000040080000 note=10220040 body/status speed-limiter-adjacent rpm-word offset 0: 1200 rpm raw 0x12C0
(1780179531.165000) can0 10220040#12C0000040080000
# tx t=025.107s 102C0040#803C96B503 note=rpm word sweep ignition/power-mode key-on context
# tx t=025.107s 10210040#0000800000008000 note=rpm word sweep zero speed/status baseline
# tx t=025.107s 10220040#12C0000040080000 note=10220040 body/status speed-limiter-adjacent rpm-word offset 0: 1200 rpm raw 0x12C0
(1780179531.181000) can0 102C0040#803C96B503
(1780179531.181000) can0 10210040#0000800000008000
(1780179531.181000) can0 10220040#12C0000040080000
# tx t=025.123s 10220040#12C0000040080000 note=10220040 body/status speed-limiter-adjacent rpm-word offset 0: 1200 rpm raw 0x12C0
(1780179531.196000) can0 10220040#12C0000040080000
# tx t=025.155s 10220040#12C0000040080000 note=10220040 body/status speed-limiter-adjacent rpm-word offset 0: 1200 rpm raw 0x12C0
(1780179531.228000) can0 10220040#12C0000040080000
# tx t=025.170s 10220040#12C0000040080000 note=10220040 body/status speed-limiter-adjacent rpm-word offset 0: 1200 rpm raw 0x12C0
(1780179531.243000) can0 10220040#12C0000040080000
# tx t=025.186s 10220040#12C0000040080000 note=10220040 body/status speed-limiter-adjacent rpm-word offset 0: 1200 rpm raw 0x12C0
(1780179531.259000) can0 10220040#12C0000040080000
# tx t=025.202s 102C0040#803C96B503 note=rpm word sweep ignition/power-mode key-on context
# tx t=025.202s 10210040#0000800000008000 note=rpm word sweep zero speed/status baseline
# tx t=025.202s 10220040#12C0000040080000 note=10220040 body/status speed-limiter-adjacent rpm-word offset 0: 1200 rpm raw 0x12C0
(1780179531.276000) can0 102C0040#803C96B503
(1780179531.276000) can0 10210040#0000800000008000
(1780179531.276000) can0 10220040#12C0000040080000
# tx t=025.234s 10220040#12C0000040080000 note=10220040 body/status speed-limiter-adjacent rpm-word offset 0: 1200 rpm raw 0x12C0
(1780179531.307000) can0 10220040#12C0000040080000
# tx t=025.250s 10220040#12C0000040080000 note=10220040 body/status speed-limiter-adjacent rpm-word offset 0: 1200 rpm raw 0x12C0
(1780179531.323000) can0 10220040#12C0000040080000
# tx t=025.266s 10220040#12C0000040080000 note=10220040 body/status speed-limiter-adjacent rpm-word offset 0: 1200 rpm raw 0x12C0
(1780179531.339000) can0 10220040#12C0000040080000
# tx t=025.282s 10220040#12C0000040080000 note=10220040 body/status speed-limiter-adjacent rpm-word offset 0: 1200 rpm raw 0x12C0
(1780179531.355000) can0 10220040#12C0000040080000
# tx t=025.314s 621#0052000000000000 note=rpm word sweep key-on 621 keepalive
# tx t=025.314s 102C0040#803C96B503 note=rpm word sweep ignition/power-mode key-on context
# tx t=025.314s 10210040#0000800000008000 note=rpm word sweep zero speed/status baseline
# tx t=025.314s 102CC040#0000400000000000 note=rpm word sweep confirmed speed-valid prerequisite
# tx t=025.315s 10220040#12C0000040080000 note=10220040 body/status speed-limiter-adjacent rpm-word offset 0: 1200 rpm raw 0x12C0
(1780179531.388000) can0 621#0052000000000000
(1780179531.388000) can0 102C0040#803C96B503
(1780179531.388000) can0 10210040#0000800000008000
(1780179531.391000) can0 102CC040#0000400000000000
(1780179531.394000) can0 10220040#12C0000040080000
# tx t=025.330s 10220040#12C0000040080000 note=10220040 body/status speed-limiter-adjacent rpm-word offset 0: 1200 rpm raw 0x12C0
(1780179531.404000) can0 10220040#12C0000040080000
# tx t=025.346s 10220040#12C0000040080000 note=10220040 body/status speed-limiter-adjacent rpm-word offset 0: 1200 rpm raw 0x12C0
(1780179531.419000) can0 10220040#12C0000040080000
# tx t=025.361s 10220040#12C0000040080000 note=10220040 body/status speed-limiter-adjacent rpm-word offset 0: 1200 rpm raw 0x12C0
(1780179531.435000) can0 10220040#12C0000040080000
# tx t=025.393s 10220040#12C0000040080000 note=10220040 body/status speed-limiter-adjacent rpm-word offset 0: 1200 rpm raw 0x12C0
(1780179531.467000) can0 10220040#12C0000040080000
# tx t=025.409s 102C0040#803C96B503 note=rpm word sweep ignition/power-mode key-on context
# tx t=025.410s 10210040#0000800000008000 note=rpm word sweep zero speed/status baseline
# tx t=025.410s 10220040#12C0000040080000 note=10220040 body/status speed-limiter-adjacent rpm-word offset 0: 1200 rpm raw 0x12C0
(1780179531.483000) can0 102C0040#803C96B503
(1780179531.483000) can0 10210040#0000800000008000
(1780179531.483000) can0 10220040#12C0000040080000
# tx t=025.425s 10220040#12C0000040080000 note=10220040 body/status speed-limiter-adjacent rpm-word offset 0: 1200 rpm raw 0x12C0
(1780179531.499000) can0 10220040#12C0000040080000
# tx t=025.441s 10220040#12C0000040080000 note=10220040 body/status speed-limiter-adjacent rpm-word offset 0: 1200 rpm raw 0x12C0
(1780179531.515000) can0 10220040#12C0000040080000
(1780179531.516000) can0 10774060#00
# tx t=025.473s 10220040#12C0000040080000 note=10220040 body/status speed-limiter-adjacent rpm-word offset 0: 1200 rpm raw 0x12C0
(1780179531.547000) can0 10220040#12C0000040080000
# tx t=025.489s 10220040#12C0000040080000 note=10220040 body/status speed-limiter-adjacent rpm-word offset 0: 1200 rpm raw 0x12C0
(1780179531.563000) can0 10220040#12C0000040080000
# tx t=025.506s 13FFE040# note=rpm word sweep BCM/source 0x40 presence
# tx t=025.506s 102C0040#803C96B503 note=rpm word sweep ignition/power-mode key-on context
# tx t=025.506s 10210040#0000800000008000 note=rpm word sweep zero speed/status baseline
# tx t=025.506s 10220040#12C0000040080000 note=10220040 body/status speed-limiter-adjacent rpm-word offset 0: 1200 rpm raw 0x12C0
(1780179531.579000) can0 13FFE040#
(1780179531.579000) can0 102C0040#803C96B503
(1780179531.580000) can0 10210040#0000800000008000
(1780179531.581000) can0 10220040#12C0000040080000
# tx t=025.520s 10220040#12C0000040080000 note=10220040 body/status speed-limiter-adjacent rpm-word offset 0: 1200 rpm raw 0x12C0
(1780179531.594000) can0 10220040#12C0000040080000
# tx t=025.551s 102CC040#0000400000000000 note=rpm word sweep confirmed speed-valid prerequisite
# tx t=025.552s 10220040#12C0000040080000 note=10220040 body/status speed-limiter-adjacent rpm-word offset 0: 1200 rpm raw 0x12C0
(1780179531.625000) can0 102CC040#0000400000000000
(1780179531.625000) can0 10220040#12C0000040080000
# tx t=025.567s 10220040#12C0000040080000 note=10220040 body/status speed-limiter-adjacent rpm-word offset 0: 1200 rpm raw 0x12C0
(1780179531.640000) can0 10220040#12C0000040080000
# tx t=025.583s 10220040#12C0000040080000 note=10220040 body/status speed-limiter-adjacent rpm-word offset 0: 1200 rpm raw 0x12C0
(1780179531.656000) can0 10220040#12C0000040080000
# tx t=025.615s 102C0040#803C96B503 note=rpm word sweep ignition/power-mode key-on context
# tx t=025.615s 10210040#0000800000008000 note=rpm word sweep zero speed/status baseline
# tx t=025.615s 10220040#12C0000040080000 note=10220040 body/status speed-limiter-adjacent rpm-word offset 0: 1200 rpm raw 0x12C0
(1780179531.688000) can0 102C0040#803C96B503
(1780179531.688000) can0 10210040#0000800000008000
(1780179531.689000) can0 10220040#12C0000040080000
# tx t=025.631s 10220040#12C0000040080000 note=10220040 body/status speed-limiter-adjacent rpm-word offset 0: 1200 rpm raw 0x12C0
(1780179531.704000) can0 10220040#12C0000040080000
(1780179531.716000) can0 13FFE060#
# tx t=025.647s 10220040#12C0000040080000 note=10220040 body/status speed-limiter-adjacent rpm-word offset 0: 1200 rpm raw 0x12C0
(1780179531.720000) can0 10220040#12C0000040080000
# tx t=025.662s 10220040#12C0000040080000 note=10220040 body/status speed-limiter-adjacent rpm-word offset 0: 1200 rpm raw 0x12C0
(1780179531.736000) can0 10220040#12C0000040080000
# tx t=025.694s 10220040#12C0000040080000 note=10220040 body/status speed-limiter-adjacent rpm-word offset 0: 1200 rpm raw 0x12C0
(1780179531.768000) can0 10220040#12C0000040080000
# tx t=025.710s 102C0040#803C96B503 note=rpm word sweep ignition/power-mode key-on context
# tx t=025.710s 10210040#0000800000008000 note=rpm word sweep zero speed/status baseline
# tx t=025.711s 10220040#12C0000040080000 note=10220040 body/status speed-limiter-adjacent rpm-word offset 0: 1200 rpm raw 0x12C0
(1780179531.784000) can0 102C0040#803C96B503
(1780179531.784000) can0 10210040#0000800000008000
(1780179531.784000) can0 10220040#12C0000040080000
# tx t=025.726s 10220040#12C0000040080000 note=10220040 body/status speed-limiter-adjacent rpm-word offset 0: 1200 rpm raw 0x12C0
(1780179531.800000) can0 10220040#12C0000040080000
# tx t=025.742s 10220040#12C0000040080000 note=10220040 body/status speed-limiter-adjacent rpm-word offset 0: 1200 rpm raw 0x12C0
(1780179531.816000) can0 10220040#12C0000040080000
# tx t=025.774s 10220040#12C0000040080000 note=10220040 body/status speed-limiter-adjacent rpm-word offset 0: 1200 rpm raw 0x12C0
(1780179531.847000) can0 10220040#12C0000040080000
# tx t=025.790s 10220040#12C0000040080000 note=10220040 body/status speed-limiter-adjacent rpm-word offset 0: 1200 rpm raw 0x12C0
(1780179531.863000) can0 10220040#12C0000040080000
# tx t=025.806s 102C0040#803C96B503 note=rpm word sweep ignition/power-mode key-on context
# tx t=025.806s 10242040#02 note=rpm word sweep second-turn/key-on sub-state
# tx t=025.806s 10210040#0000800000008000 note=rpm word sweep zero speed/status baseline
# tx t=025.806s 102CC040#0000400000000000 note=rpm word sweep confirmed speed-valid prerequisite
# tx t=025.807s 10220040#12C0000040080000 note=10220040 body/status speed-limiter-adjacent rpm-word offset 0: 1200 rpm raw 0x12C0
(1780179531.880000) can0 102C0040#803C96B503
(1780179531.880000) can0 10242040#02
(1780179531.880000) can0 10210040#0000800000008000
(1780179531.882000) can0 102CC040#0000400000000000
(1780179531.885000) can0 10220040#12C0000040080000
# tx t=025.822s 10220040#12C0000040080000 note=10220040 body/status speed-limiter-adjacent rpm-word offset 0: 1200 rpm raw 0x12C0
(1780179531.895000) can0 10220040#12C0000040080000
# tx t=025.853s 10220040#12C0000040080000 note=10220040 body/status speed-limiter-adjacent rpm-word offset 0: 1200 rpm raw 0x12C0
(1780179531.926000) can0 10424060#079964
(1780179531.926000) can0 10220040#12C0000040080000
# tx t=025.869s 10220040#12C0000040080000 note=10220040 body/status speed-limiter-adjacent rpm-word offset 0: 1200 rpm raw 0x12C0
(1780179531.943000) can0 10220040#12C0000040080000
# tx t=025.885s 10220040#12C0000040080000 note=10220040 body/status speed-limiter-adjacent rpm-word offset 0: 1200 rpm raw 0x12C0
(1780179531.959000) can0 10220040#12C0000040080000
# tx t=025.901s 102C0040#803C96B503 note=rpm word sweep ignition/power-mode key-on context
# tx t=025.901s 10754040#040400 note=rpm word sweep key-present/key-on context
# tx t=025.901s 10210040#0000800000008000 note=rpm word sweep zero speed/status baseline
# tx t=025.901s 10220040#12C0000040080000 note=10220040 body/status speed-limiter-adjacent rpm-word offset 0: 1200 rpm raw 0x12C0
(1780179531.975000) can0 102C0040#803C96B503
(1780179531.975000) can0 10754040#040400
(1780179531.975000) can0 10210040#0000800000008000
(1780179531.978000) can0 10220040#12C0000040080000
# tx t=025.933s 10220040#12C0000040080000 note=10220040 body/status speed-limiter-adjacent rpm-word offset 0: 1200 rpm raw 0x12C0
(1780179532.006000) can0 10220040#12C0000040080000
# tx t=025.949s 10220040#12C0000040080000 note=10220040 body/status speed-limiter-adjacent rpm-word offset 0: 1200 rpm raw 0x12C0
(1780179532.022000) can0 10220040#12C0000040080000
# tx t=025.964s 10220040#12C0000040080000 note=10220040 body/status speed-limiter-adjacent rpm-word offset 0: 1200 rpm raw 0x12C0
(1780179532.038000) can0 10220040#12C0000040080000
# tx t=025.980s 10220040#12C0000040080000 note=10220040 body/status speed-limiter-adjacent rpm-word offset 0: 1200 rpm raw 0x12C0
(1780179532.054000) can0 10220040#12C0000040080000
# tx t=026.012s 102C0040#803C96B503 note=rpm word sweep ignition/power-mode key-on context
# tx t=026.012s 10210040#0000800000008000 note=rpm word sweep zero speed/status baseline
# tx t=026.012s 10220040#12C0000040080000 note=10220040 body/status speed-limiter-adjacent rpm-word offset 0: 1200 rpm raw 0x12C0
(1780179532.086000) can0 102C0040#803C96B503
(1780179532.086000) can0 10210040#0000800000008000
(1780179532.086000) can0 10220040#12C0000040080000
# tx t=026.028s 10220040#12C0000040080000 note=10220040 body/status speed-limiter-adjacent rpm-word offset 0: 1200 rpm raw 0x12C0
(1780179532.101000) can0 10220040#12C0000040080000
# tx t=026.044s 10220040#12C0000040080000 note=10220040 body/status speed-limiter-adjacent rpm-word offset 0: 1200 rpm raw 0x12C0
(1780179532.117000) can0 10220040#12C0000040080000
# tx t=026.060s 102CC040#0000400000000000 note=rpm word sweep confirmed speed-valid prerequisite
# tx t=026.060s 10220040#12C0000040080000 note=10220040 body/status speed-limiter-adjacent rpm-word offset 0: 1200 rpm raw 0x12C0
(1780179532.133000) can0 102CC040#0000400000000000
(1780179532.133000) can0 10220040#12C0000040080000
# tx t=026.092s 10220040#12C0000040080000 note=10220040 body/status speed-limiter-adjacent rpm-word offset 0: 1200 rpm raw 0x12C0
(1780179532.165000) can0 10220040#12C0000040080000
# tx t=026.108s 102C0040#803C96B503 note=rpm word sweep ignition/power-mode key-on context
# tx t=026.108s 10210040#0000800000008000 note=rpm word sweep zero speed/status baseline
# tx t=026.108s 10220040#12C0000040080000 note=10220040 body/status speed-limiter-adjacent rpm-word offset 0: 1200 rpm raw 0x12C0
(1780179532.181000) can0 102C0040#803C96B503
(1780179532.181000) can0 10210040#0000800000008000
(1780179532.182000) can0 10220040#12C0000040080000
# tx t=026.124s 10220040#12C0000040080000 note=10220040 body/status speed-limiter-adjacent rpm-word offset 0: 1200 rpm raw 0x12C0
(1780179532.197000) can0 10220040#12C0000040080000
# tx t=026.140s 10220040#12C0000040080000 note=10220040 body/status speed-limiter-adjacent rpm-word offset 0: 1200 rpm raw 0x12C0
(1780179532.213000) can0 10220040#12C0000040080000
# tx t=026.171s 10220040#12C0000040080000 note=10220040 body/status speed-limiter-adjacent rpm-word offset 0: 1200 rpm raw 0x12C0
(1780179532.244000) can0 10220040#12C0000040080000
# tx t=026.186s 10220040#12C0000040080000 note=10220040 body/status speed-limiter-adjacent rpm-word offset 0: 1200 rpm raw 0x12C0
(1780179532.259000) can0 10220040#12C0000040080000
# tx t=026.202s 102C0040#803C96B503 note=rpm word sweep ignition/power-mode key-on context
# tx t=026.203s 10210040#0000800000008000 note=rpm word sweep zero speed/status baseline
# tx t=026.203s 10220040#12C0000040080000 note=10220040 body/status speed-limiter-adjacent rpm-word offset 0: 1200 rpm raw 0x12C0
(1780179532.276000) can0 102C0040#803C96B503
(1780179532.276000) can0 10210040#0000800000008000
(1780179532.276000) can0 10220040#12C0000040080000
# tx t=026.232s 10220040#12C0000040080000 note=10220040 body/status speed-limiter-adjacent rpm-word offset 0: 1200 rpm raw 0x12C0
(1780179532.305000) can0 10220040#12C0000040080000
# tx t=026.248s 10220040#12C0000040080000 note=10220040 body/status speed-limiter-adjacent rpm-word offset 0: 1200 rpm raw 0x12C0
(1780179532.322000) can0 10220040#12C0000040080000
# tx t=026.264s 10220040#12C0000040080000 note=10220040 body/status speed-limiter-adjacent rpm-word offset 0: 1200 rpm raw 0x12C0
(1780179532.337000) can0 10220040#12C0000040080000
# tx t=026.280s 10220040#12C0000040080000 note=10220040 body/status speed-limiter-adjacent rpm-word offset 0: 1200 rpm raw 0x12C0
(1780179532.354000) can0 10220040#12C0000040080000
# tx t=026.312s 621#0052000000000000 note=rpm word sweep key-on 621 keepalive
# tx t=026.312s 102C0040#803C96B503 note=rpm word sweep ignition/power-mode key-on context
# tx t=026.312s 10210040#0000800000008000 note=rpm word sweep zero speed/status baseline
# tx t=026.313s 102CC040#0000400000000000 note=rpm word sweep confirmed speed-valid prerequisite
# tx t=026.313s 10220040#1F40000040080000 note=10220040 body/status speed-limiter-adjacent rpm-word offset 0: 2000 rpm raw 0x1F40
(1780179532.386000) can0 621#0052000000000000
(1780179532.386000) can0 102C0040#803C96B503
(1780179532.386000) can0 10210040#0000800000008000
(1780179532.389000) can0 102CC040#0000400000000000
(1780179532.392000) can0 10220040#1F40000040080000
# tx t=026.328s 10220040#1F40000040080000 note=10220040 body/status speed-limiter-adjacent rpm-word offset 0: 2000 rpm raw 0x1F40
(1780179532.402000) can0 10220040#1F40000040080000
# tx t=026.344s 10220040#1F40000040080000 note=10220040 body/status speed-limiter-adjacent rpm-word offset 0: 2000 rpm raw 0x1F40
(1780179532.418000) can0 10220040#1F40000040080000
# tx t=026.360s 10220040#1F40000040080000 note=10220040 body/status speed-limiter-adjacent rpm-word offset 0: 2000 rpm raw 0x1F40
(1780179532.434000) can0 10220040#1F40000040080000
# tx t=026.392s 10220040#1F40000040080000 note=10220040 body/status speed-limiter-adjacent rpm-word offset 0: 2000 rpm raw 0x1F40
(1780179532.465000) can0 10220040#1F40000040080000
# tx t=026.408s 102C0040#803C96B503 note=rpm word sweep ignition/power-mode key-on context
# tx t=026.408s 10210040#0000800000008000 note=rpm word sweep zero speed/status baseline
# tx t=026.409s 10220040#1F40000040080000 note=10220040 body/status speed-limiter-adjacent rpm-word offset 0: 2000 rpm raw 0x1F40
(1780179532.482000) can0 102C0040#803C96B503
(1780179532.482000) can0 10210040#0000800000008000
(1780179532.482000) can0 10220040#1F40000040080000
# tx t=026.424s 10220040#1F40000040080000 note=10220040 body/status speed-limiter-adjacent rpm-word offset 0: 2000 rpm raw 0x1F40
(1780179532.498000) can0 10220040#1F40000040080000
# tx t=026.440s 10220040#1F40000040080000 note=10220040 body/status speed-limiter-adjacent rpm-word offset 0: 2000 rpm raw 0x1F40
(1780179532.514000) can0 10220040#1F40000040080000
# tx t=026.472s 10220040#1F40000040080000 note=10220040 body/status speed-limiter-adjacent rpm-word offset 0: 2000 rpm raw 0x1F40
(1780179532.546000) can0 10220040#1F40000040080000
# tx t=026.488s 10220040#1F40000040080000 note=10220040 body/status speed-limiter-adjacent rpm-word offset 0: 2000 rpm raw 0x1F40
(1780179532.562000) can0 10220040#1F40000040080000
# tx t=026.504s 102C0040#803C96B503 note=rpm word sweep ignition/power-mode key-on context
# tx t=026.505s 10210040#0000800000008000 note=rpm word sweep zero speed/status baseline
# tx t=026.505s 10220040#1F40000040080000 note=10220040 body/status speed-limiter-adjacent rpm-word offset 0: 2000 rpm raw 0x1F40
(1780179532.578000) can0 102C0040#803C96B503
(1780179532.578000) can0 10210040#0000800000008000
(1780179532.578000) can0 10220040#1F40000040080000
# tx t=026.520s 10220040#1F40000040080000 note=10220040 body/status speed-limiter-adjacent rpm-word offset 0: 2000 rpm raw 0x1F40
(1780179532.594000) can0 10220040#1F40000040080000
# tx t=026.552s 102CC040#0000400000000000 note=rpm word sweep confirmed speed-valid prerequisite
# tx t=026.553s 10220040#1F40000040080000 note=10220040 body/status speed-limiter-adjacent rpm-word offset 0: 2000 rpm raw 0x1F40
(1780179532.626000) can0 102CC040#0000400000000000
(1780179532.626000) can0 10220040#1F40000040080000
# tx t=026.569s 10220040#1F40000040080000 note=10220040 body/status speed-limiter-adjacent rpm-word offset 0: 2000 rpm raw 0x1F40
(1780179532.642000) can0 10220040#1F40000040080000
# tx t=026.585s 10220040#1F40000040080000 note=10220040 body/status speed-limiter-adjacent rpm-word offset 0: 2000 rpm raw 0x1F40
(1780179532.658000) can0 10220040#1F40000040080000
# tx t=026.601s 102C0040#803C96B503 note=rpm word sweep ignition/power-mode key-on context
# tx t=026.601s 10210040#0000800000008000 note=rpm word sweep zero speed/status baseline
# tx t=026.601s 10220040#1F40000040080000 note=10220040 body/status speed-limiter-adjacent rpm-word offset 0: 2000 rpm raw 0x1F40
(1780179532.674000) can0 102C0040#803C96B503
(1780179532.674000) can0 10210040#0000800000008000
(1780179532.675000) can0 10220040#1F40000040080000
# tx t=026.632s 10220040#1F40000040080000 note=10220040 body/status speed-limiter-adjacent rpm-word offset 0: 2000 rpm raw 0x1F40
(1780179532.706000) can0 10220040#1F40000040080000
# tx t=026.649s 10220040#1F40000040080000 note=10220040 body/status speed-limiter-adjacent rpm-word offset 0: 2000 rpm raw 0x1F40
(1780179532.722000) can0 10220040#1F40000040080000
# tx t=026.665s 10220040#1F40000040080000 note=10220040 body/status speed-limiter-adjacent rpm-word offset 0: 2000 rpm raw 0x1F40
(1780179532.738000) can0 10220040#1F40000040080000
# tx t=026.681s 10220040#1F40000040080000 note=10220040 body/status speed-limiter-adjacent rpm-word offset 0: 2000 rpm raw 0x1F40
(1780179532.754000) can0 10220040#1F40000040080000
# tx t=026.712s 13FFE040# note=rpm word sweep BCM/source 0x40 presence
# tx t=026.713s 102C0040#803C96B503 note=rpm word sweep ignition/power-mode key-on context
# tx t=026.713s 10210040#0000800000008000 note=rpm word sweep zero speed/status baseline
# tx t=026.713s 10220040#1F40000040080000 note=10220040 body/status speed-limiter-adjacent rpm-word offset 0: 2000 rpm raw 0x1F40
(1780179532.786000) can0 13FFE040#
(1780179532.786000) can0 102C0040#803C96B503
(1780179532.787000) can0 10210040#0000800000008000
(1780179532.788000) can0 10220040#1F40000040080000
# tx t=026.729s 10220040#1F40000040080000 note=10220040 body/status speed-limiter-adjacent rpm-word offset 0: 2000 rpm raw 0x1F40
(1780179532.802000) can0 10220040#1F40000040080000
# tx t=026.745s 10220040#1F40000040080000 note=10220040 body/status speed-limiter-adjacent rpm-word offset 0: 2000 rpm raw 0x1F40
(1780179532.818000) can0 10220040#1F40000040080000
# tx t=026.761s 10220040#1F40000040080000 note=10220040 body/status speed-limiter-adjacent rpm-word offset 0: 2000 rpm raw 0x1F40
(1780179532.834000) can0 10220040#1F40000040080000
# tx t=026.793s 10220040#1F40000040080000 note=10220040 body/status speed-limiter-adjacent rpm-word offset 0: 2000 rpm raw 0x1F40
(1780179532.866000) can0 10220040#1F40000040080000
# tx t=026.809s 102C0040#803C96B503 note=rpm word sweep ignition/power-mode key-on context
# tx t=026.809s 10242040#02 note=rpm word sweep second-turn/key-on sub-state
# tx t=026.809s 10210040#0000800000008000 note=rpm word sweep zero speed/status baseline
# tx t=026.809s 102CC040#0000400000000000 note=rpm word sweep confirmed speed-valid prerequisite
# tx t=026.809s 10220040#1F40000040080000 note=10220040 body/status speed-limiter-adjacent rpm-word offset 0: 2000 rpm raw 0x1F40
(1780179532.883000) can0 102C0040#803C96B503
(1780179532.883000) can0 10242040#02
(1780179532.883000) can0 10210040#0000800000008000
(1780179532.885000) can0 102CC040#0000400000000000
(1780179532.888000) can0 10220040#1F40000040080000
# tx t=026.825s 10220040#1F40000040080000 note=10220040 body/status speed-limiter-adjacent rpm-word offset 0: 2000 rpm raw 0x1F40
(1780179532.898000) can0 10220040#1F40000040080000
# tx t=026.841s 10220040#1F40000040080000 note=10220040 body/status speed-limiter-adjacent rpm-word offset 0: 2000 rpm raw 0x1F40
(1780179532.914000) can0 10220040#1F40000040080000
(1780179532.916000) can0 10424060#079964
(1780179532.923000) can0 13FFE060#
# tx t=026.873s 10220040#1F40000040080000 note=10220040 body/status speed-limiter-adjacent rpm-word offset 0: 2000 rpm raw 0x1F40
(1780179532.946000) can0 10220040#1F40000040080000
# tx t=026.889s 10220040#1F40000040080000 note=10220040 body/status speed-limiter-adjacent rpm-word offset 0: 2000 rpm raw 0x1F40
(1780179532.962000) can0 10220040#1F40000040080000
# tx t=026.904s 102C0040#803C96B503 note=rpm word sweep ignition/power-mode key-on context
# tx t=026.904s 10754040#040400 note=rpm word sweep key-present/key-on context
# tx t=026.904s 10210040#0000800000008000 note=rpm word sweep zero speed/status baseline
# tx t=026.904s 10220040#1F40000040080000 note=10220040 body/status speed-limiter-adjacent rpm-word offset 0: 2000 rpm raw 0x1F40
(1780179532.977000) can0 102C0040#803C96B503
(1780179532.978000) can0 10754040#040400
(1780179532.978000) can0 10210040#0000800000008000
(1780179532.980000) can0 10220040#1F40000040080000
# tx t=026.920s 10220040#1F40000040080000 note=10220040 body/status speed-limiter-adjacent rpm-word offset 0: 2000 rpm raw 0x1F40
(1780179532.993000) can0 10220040#1F40000040080000
# tx t=026.952s 10220040#1F40000040080000 note=10220040 body/status speed-limiter-adjacent rpm-word offset 0: 2000 rpm raw 0x1F40
(1780179533.025000) can0 10220040#1F40000040080000
# tx t=026.968s 10220040#1F40000040080000 note=10220040 body/status speed-limiter-adjacent rpm-word offset 0: 2000 rpm raw 0x1F40
(1780179533.041000) can0 10220040#1F40000040080000
# tx t=026.984s 10220040#1F40000040080000 note=10220040 body/status speed-limiter-adjacent rpm-word offset 0: 2000 rpm raw 0x1F40
(1780179533.057000) can0 10220040#1F40000040080000
# tx t=027.000s 102C0040#803C96B503 note=rpm word sweep ignition/power-mode key-on context
# tx t=027.000s 10210040#0000800000008000 note=rpm word sweep zero speed/status baseline
# tx t=027.000s 10220040#1F40000040080000 note=10220040 body/status speed-limiter-adjacent rpm-word offset 0: 2000 rpm raw 0x1F40
(1780179533.073000) can0 102C0040#803C96B503
(1780179533.074000) can0 10210040#0000800000008000
(1780179533.074000) can0 10220040#1F40000040080000
# tx t=027.032s 10220040#1F40000040080000 note=10220040 body/status speed-limiter-adjacent rpm-word offset 0: 2000 rpm raw 0x1F40
(1780179533.105000) can0 10220040#1F40000040080000
# tx t=027.048s 10220040#1F40000040080000 note=10220040 body/status speed-limiter-adjacent rpm-word offset 0: 2000 rpm raw 0x1F40
(1780179533.121000) can0 10220040#1F40000040080000
# tx t=027.063s 102CC040#0000400000000000 note=rpm word sweep confirmed speed-valid prerequisite
# tx t=027.063s 10220040#1F40000040080000 note=10220040 body/status speed-limiter-adjacent rpm-word offset 0: 2000 rpm raw 0x1F40
(1780179533.136000) can0 102CC040#0000400000000000
(1780179533.137000) can0 10220040#1F40000040080000
# tx t=027.095s 10220040#1F40000040080000 note=10220040 body/status speed-limiter-adjacent rpm-word offset 0: 2000 rpm raw 0x1F40
(1780179533.168000) can0 10220040#1F40000040080000
# tx t=027.111s 102C0040#803C96B503 note=rpm word sweep ignition/power-mode key-on context
# tx t=027.111s 10210040#0000800000008000 note=rpm word sweep zero speed/status baseline
# tx t=027.112s 10220040#1F40000040080000 note=10220040 body/status speed-limiter-adjacent rpm-word offset 0: 2000 rpm raw 0x1F40
(1780179533.185000) can0 102C0040#803C96B503
(1780179533.185000) can0 10210040#0000800000008000
(1780179533.185000) can0 10220040#1F40000040080000
# tx t=027.127s 10220040#1F40000040080000 note=10220040 body/status speed-limiter-adjacent rpm-word offset 0: 2000 rpm raw 0x1F40
(1780179533.200000) can0 10220040#1F40000040080000
# tx t=027.143s 10220040#1F40000040080000 note=10220040 body/status speed-limiter-adjacent rpm-word offset 0: 2000 rpm raw 0x1F40
(1780179533.216000) can0 10220040#1F40000040080000
# tx t=027.175s 10220040#1F40000040080000 note=10220040 body/status speed-limiter-adjacent rpm-word offset 0: 2000 rpm raw 0x1F40
(1780179533.248000) can0 10220040#1F40000040080000
# tx t=027.191s 10220040#1F40000040080000 note=10220040 body/status speed-limiter-adjacent rpm-word offset 0: 2000 rpm raw 0x1F40
(1780179533.264000) can0 10220040#1F40000040080000
# tx t=027.207s 102C0040#803C96B503 note=rpm word sweep ignition/power-mode key-on context
# tx t=027.207s 10210040#0000800000008000 note=rpm word sweep zero speed/status baseline
# tx t=027.208s 10220040#1F40000040080000 note=10220040 body/status speed-limiter-adjacent rpm-word offset 0: 2000 rpm raw 0x1F40
(1780179533.281000) can0 102C0040#803C96B503
(1780179533.281000) can0 10210040#0000800000008000
(1780179533.281000) can0 10220040#1F40000040080000
# tx t=027.223s 10220040#1F40000040080000 note=10220040 body/status speed-limiter-adjacent rpm-word offset 0: 2000 rpm raw 0x1F40
(1780179533.296000) can0 10220040#1F40000040080000
# tx t=027.255s 10220040#1F40000040080000 note=10220040 body/status speed-limiter-adjacent rpm-word offset 0: 2000 rpm raw 0x1F40
(1780179533.328000) can0 10220040#1F40000040080000
# tx t=027.271s 10220040#1F40000040080000 note=10220040 body/status speed-limiter-adjacent rpm-word offset 0: 2000 rpm raw 0x1F40
(1780179533.344000) can0 10220040#1F40000040080000
# tx t=027.287s 10220040#1F40000040080000 note=10220040 body/status speed-limiter-adjacent rpm-word offset 0: 2000 rpm raw 0x1F40
(1780179533.360000) can0 10220040#1F40000040080000
# tx t=027.303s 621#0052000000000000 note=rpm word sweep key-on 621 keepalive
# tx t=027.303s 102C0040#803C96B503 note=rpm word sweep ignition/power-mode key-on context
# tx t=027.304s 10210040#0000800000008000 note=rpm word sweep zero speed/status baseline
# tx t=027.304s 102CC040#0000400000000000 note=rpm word sweep confirmed speed-valid prerequisite
# tx t=027.304s 10220040#1F40000040080000 note=10220040 body/status speed-limiter-adjacent rpm-word offset 0: 2000 rpm raw 0x1F40
(1780179533.377000) can0 621#0052000000000000
(1780179533.377000) can0 102C0040#803C96B503
(1780179533.377000) can0 10210040#0000800000008000
(1780179533.380000) can0 102CC040#0000400000000000
(1780179533.383000) can0 10220040#1F40000040080000
# tx t=027.335s 10220040#1F40000040080000 note=10220040 body/status speed-limiter-adjacent rpm-word offset 0: 2000 rpm raw 0x1F40
(1780179533.409000) can0 10220040#1F40000040080000
# tx t=027.351s 10220040#1F40000040080000 note=10220040 body/status speed-limiter-adjacent rpm-word offset 0: 2000 rpm raw 0x1F40
(1780179533.425000) can0 10220040#1F40000040080000
# tx t=027.367s 10220040#1F40000040080000 note=10220040 body/status speed-limiter-adjacent rpm-word offset 0: 2000 rpm raw 0x1F40
(1780179533.441000) can0 10220040#1F40000040080000
# tx t=027.383s 10220040#1F40000040080000 note=10220040 body/status speed-limiter-adjacent rpm-word offset 0: 2000 rpm raw 0x1F40
(1780179533.457000) can0 10220040#1F40000040080000
# tx t=027.399s 102C0040#803C96B503 note=rpm word sweep ignition/power-mode key-on context
# tx t=027.400s 10210040#0000800000008000 note=rpm word sweep zero speed/status baseline
# tx t=027.400s 10220040#1F40000040080000 note=10220040 body/status speed-limiter-adjacent rpm-word offset 0: 2000 rpm raw 0x1F40
(1780179533.473000) can0 102C0040#803C96B503
(1780179533.473000) can0 10210040#0000800000008000
(1780179533.473000) can0 10220040#1F40000040080000
# tx t=027.431s 10220040#1F40000040080000 note=10220040 body/status speed-limiter-adjacent rpm-word offset 0: 2000 rpm raw 0x1F40
(1780179533.505000) can0 10220040#1F40000040080000
# tx t=027.447s 10220040#1F40000040080000 note=10220040 body/status speed-limiter-adjacent rpm-word offset 0: 2000 rpm raw 0x1F40
(1780179533.521000) can0 10220040#1F40000040080000
# tx t=027.464s 10220040#1F40000040080000 note=10220040 body/status speed-limiter-adjacent rpm-word offset 0: 2000 rpm raw 0x1F40
(1780179533.537000) can0 10220040#1F40000040080000
# tx t=027.479s 10220040#1F40000040080000 note=10220040 body/status speed-limiter-adjacent rpm-word offset 0: 2000 rpm raw 0x1F40
(1780179533.553000) can0 10220040#1F40000040080000
# tx t=027.511s 102C0040#803C96B503 note=rpm word sweep ignition/power-mode key-on context
# tx t=027.512s 10210040#0000800000008000 note=rpm word sweep zero speed/status baseline
# tx t=027.512s 10220040#1F40000040080000 note=10220040 body/status speed-limiter-adjacent rpm-word offset 0: 2000 rpm raw 0x1F40
(1780179533.585000) can0 102C0040#803C96B503
(1780179533.585000) can0 10210040#0000800000008000
(1780179533.585000) can0 10220040#1F40000040080000
# tx t=027.527s 10220040#1F40000040080000 note=10220040 body/status speed-limiter-adjacent rpm-word offset 0: 2000 rpm raw 0x1F40
(1780179533.601000) can0 10220040#1F40000040080000
(1780179533.609000) can0 62C#0040000000000000
# tx t=027.544s 10220040#1F40000040080000 note=10220040 body/status speed-limiter-adjacent rpm-word offset 0: 2000 rpm raw 0x1F40
(1780179533.617000) can0 10220040#1F40000040080000
# tx t=027.559s 102CC040#0000400000000000 note=rpm word sweep confirmed speed-valid prerequisite
(1780179533.632000) can0 102CC040#0000400000000000
# tx t=027.575s 10220040#1F40000040080000 note=10220040 body/status speed-limiter-adjacent rpm-word offset 0: 2000 rpm raw 0x1F40
(1780179533.649000) can0 10220040#1F40000040080000
# tx t=027.591s 10220040#1F40000040080000 note=10220040 body/status speed-limiter-adjacent rpm-word offset 0: 2000 rpm raw 0x1F40
(1780179533.664000) can0 10220040#1F40000040080000
# tx t=027.607s 102C0040#803C96B503 note=rpm word sweep ignition/power-mode key-on context
# tx t=027.607s 10210040#0000800000008000 note=rpm word sweep zero speed/status baseline
# tx t=027.607s 10220040#1F40000040080000 note=10220040 body/status speed-limiter-adjacent rpm-word offset 0: 2000 rpm raw 0x1F40
(1780179533.680000) can0 102C0040#803C96B503
(1780179533.681000) can0 10210040#0000800000008000
(1780179533.681000) can0 10220040#1F40000040080000
# tx t=027.623s 10220040#1F40000040080000 note=10220040 body/status speed-limiter-adjacent rpm-word offset 0: 2000 rpm raw 0x1F40
(1780179533.696000) can0 10220040#1F40000040080000
# tx t=027.654s 10220040#1F40000040080000 note=10220040 body/status speed-limiter-adjacent rpm-word offset 0: 2000 rpm raw 0x1F40
(1780179533.728000) can0 10220040#1F40000040080000
# tx t=027.670s 10220040#1F40000040080000 note=10220040 body/status speed-limiter-adjacent rpm-word offset 0: 2000 rpm raw 0x1F40
(1780179533.744000) can0 10220040#1F40000040080000
# tx t=027.686s 10220040#1F40000040080000 note=10220040 body/status speed-limiter-adjacent rpm-word offset 0: 2000 rpm raw 0x1F40
(1780179533.760000) can0 10220040#1F40000040080000
# tx t=027.702s 102C0040#803C96B503 note=rpm word sweep ignition/power-mode key-on context
# tx t=027.703s 10210040#0000800000008000 note=rpm word sweep zero speed/status baseline
# tx t=027.703s 10220040#1F40000040080000 note=10220040 body/status speed-limiter-adjacent rpm-word offset 0: 2000 rpm raw 0x1F40
(1780179533.776000) can0 102C0040#803C96B503
(1780179533.776000) can0 10210040#0000800000008000
(1780179533.776000) can0 10220040#1F40000040080000
# tx t=027.734s 10220040#1F40000040080000 note=10220040 body/status speed-limiter-adjacent rpm-word offset 0: 2000 rpm raw 0x1F40
(1780179533.808000) can0 10220040#1F40000040080000
# tx t=027.750s 10220040#1F40000040080000 note=10220040 body/status speed-limiter-adjacent rpm-word offset 0: 2000 rpm raw 0x1F40
(1780179533.824000) can0 10220040#1F40000040080000
# tx t=027.766s 10220040#1F40000040080000 note=10220040 body/status speed-limiter-adjacent rpm-word offset 0: 2000 rpm raw 0x1F40
(1780179533.839000) can0 10220040#1F40000040080000
# tx t=027.782s 10220040#1F40000040080000 note=10220040 body/status speed-limiter-adjacent rpm-word offset 0: 2000 rpm raw 0x1F40
(1780179533.855000) can0 10220040#1F40000040080000
# tx t=027.813s 102C0040#803C96B503 note=rpm word sweep ignition/power-mode key-on context
# tx t=027.814s 10242040#02 note=rpm word sweep second-turn/key-on sub-state
# tx t=027.814s 10210040#0000800000008000 note=rpm word sweep zero speed/status baseline
# tx t=027.814s 102CC040#0000400000000000 note=rpm word sweep confirmed speed-valid prerequisite
# tx t=027.814s 10220040#2EE0000040080000 note=10220040 body/status speed-limiter-adjacent rpm-word offset 0: 3000 rpm raw 0x2EE0
(1780179533.887000) can0 102C0040#803C96B503
(1780179533.887000) can0 10242040#02
(1780179533.888000) can0 10210040#0000800000008000
(1780179533.890000) can0 102CC040#0000400000000000
(1780179533.892000) can0 10220040#2EE0000040080000
# tx t=027.830s 10220040#2EE0000040080000 note=10220040 body/status speed-limiter-adjacent rpm-word offset 0: 3000 rpm raw 0x2EE0
(1780179533.903000) can0 10220040#2EE0000040080000
(1780179533.916000) can0 10424060#079964
# tx t=027.846s 10220040#2EE0000040080000 note=10220040 body/status speed-limiter-adjacent rpm-word offset 0: 3000 rpm raw 0x2EE0
(1780179533.919000) can0 10220040#2EE0000040080000
# tx t=027.862s 10220040#2EE0000040080000 note=10220040 body/status speed-limiter-adjacent rpm-word offset 0: 3000 rpm raw 0x2EE0
(1780179533.935000) can0 10220040#2EE0000040080000
# tx t=027.894s 10220040#2EE0000040080000 note=10220040 body/status speed-limiter-adjacent rpm-word offset 0: 3000 rpm raw 0x2EE0
(1780179533.967000) can0 10220040#2EE0000040080000
# tx t=027.910s 13FFE040# note=rpm word sweep BCM/source 0x40 presence
# tx t=027.910s 102C0040#803C96B503 note=rpm word sweep ignition/power-mode key-on context
# tx t=027.910s 10754040#040400 note=rpm word sweep key-present/key-on context
# tx t=027.910s 10210040#0000800000008000 note=rpm word sweep zero speed/status baseline
# tx t=027.910s 10220040#2EE0000040080000 note=10220040 body/status speed-limiter-adjacent rpm-word offset 0: 3000 rpm raw 0x2EE0
(1780179533.984000) can0 13FFE040#
(1780179533.984000) can0 102C0040#803C96B503
(1780179533.984000) can0 10754040#040400
(1780179533.985000) can0 10210040#0000800000008000
(1780179533.989000) can0 10220040#2EE0000040080000
# tx t=027.926s 10220040#2EE0000040080000 note=10220040 body/status speed-limiter-adjacent rpm-word offset 0: 3000 rpm raw 0x2EE0
(1780179533.999000) can0 10220040#2EE0000040080000
# tx t=027.942s 10220040#2EE0000040080000 note=10220040 body/status speed-limiter-adjacent rpm-word offset 0: 3000 rpm raw 0x2EE0
(1780179534.015000) can0 10220040#2EE0000040080000
# tx t=027.974s 10220040#2EE0000040080000 note=10220040 body/status speed-limiter-adjacent rpm-word offset 0: 3000 rpm raw 0x2EE0
(1780179534.047000) can0 10220040#2EE0000040080000
# tx t=027.990s 10220040#2EE0000040080000 note=10220040 body/status speed-limiter-adjacent rpm-word offset 0: 3000 rpm raw 0x2EE0
(1780179534.063000) can0 10220040#2EE0000040080000
# tx t=028.006s 102C0040#803C96B503 note=rpm word sweep ignition/power-mode key-on context
# tx t=028.006s 10210040#0000800000008000 note=rpm word sweep zero speed/status baseline
# tx t=028.006s 10220040#2EE0000040080000 note=10220040 body/status speed-limiter-adjacent rpm-word offset 0: 3000 rpm raw 0x2EE0
(1780179534.079000) can0 102C0040#803C96B503
(1780179534.080000) can0 10210040#0000800000008000
(1780179534.080000) can0 10220040#2EE0000040080000
# tx t=028.022s 10220040#2EE0000040080000 note=10220040 body/status speed-limiter-adjacent rpm-word offset 0: 3000 rpm raw 0x2EE0
(1780179534.095000) can0 10220040#2EE0000040080000
# tx t=028.054s 102CC040#0000400000000000 note=rpm word sweep confirmed speed-valid prerequisite
# tx t=028.054s 10220040#2EE0000040080000 note=10220040 body/status speed-limiter-adjacent rpm-word offset 0: 3000 rpm raw 0x2EE0
(1780179534.127000) can0 13FFE060#
(1780179534.128000) can0 102CC040#0000400000000000
(1780179534.128000) can0 10220040#2EE0000040080000
# tx t=028.069s 10220040#2EE0000040080000 note=10220040 body/status speed-limiter-adjacent rpm-word offset 0: 3000 rpm raw 0x2EE0
(1780179534.143000) can0 10220040#2EE0000040080000
# tx t=028.085s 10220040#2EE0000040080000 note=10220040 body/status speed-limiter-adjacent rpm-word offset 0: 3000 rpm raw 0x2EE0
(1780179534.159000) can0 10220040#2EE0000040080000
# tx t=028.101s 102C0040#803C96B503 note=rpm word sweep ignition/power-mode key-on context
# tx t=028.101s 10210040#0000800000008000 note=rpm word sweep zero speed/status baseline
# tx t=028.102s 10220040#2EE0000040080000 note=10220040 body/status speed-limiter-adjacent rpm-word offset 0: 3000 rpm raw 0x2EE0
(1780179534.175000) can0 102C0040#803C96B503
(1780179534.175000) can0 10210040#0000800000008000
(1780179534.175000) can0 10220040#2EE0000040080000
# tx t=028.133s 10220040#2EE0000040080000 note=10220040 body/status speed-limiter-adjacent rpm-word offset 0: 3000 rpm raw 0x2EE0
(1780179534.207000) can0 10220040#2EE0000040080000
# tx t=028.149s 10220040#2EE0000040080000 note=10220040 body/status speed-limiter-adjacent rpm-word offset 0: 3000 rpm raw 0x2EE0
(1780179534.223000) can0 10220040#2EE0000040080000
# tx t=028.165s 10220040#2EE0000040080000 note=10220040 body/status speed-limiter-adjacent rpm-word offset 0: 3000 rpm raw 0x2EE0
(1780179534.238000) can0 10220040#2EE0000040080000
# tx t=028.181s 10220040#2EE0000040080000 note=10220040 body/status speed-limiter-adjacent rpm-word offset 0: 3000 rpm raw 0x2EE0
(1780179534.254000) can0 10220040#2EE0000040080000
# tx t=028.213s 102C0040#803C96B503 note=rpm word sweep ignition/power-mode key-on context
# tx t=028.213s 10210040#0000800000008000 note=rpm word sweep zero speed/status baseline
# tx t=028.213s 10220040#2EE0000040080000 note=10220040 body/status speed-limiter-adjacent rpm-word offset 0: 3000 rpm raw 0x2EE0
(1780179534.286000) can0 102C0040#803C96B503
(1780179534.287000) can0 10210040#0000800000008000
(1780179534.287000) can0 10220040#2EE0000040080000
# tx t=028.229s 10220040#2EE0000040080000 note=10220040 body/status speed-limiter-adjacent rpm-word offset 0: 3000 rpm raw 0x2EE0
(1780179534.302000) can0 10220040#2EE0000040080000
# tx t=028.245s 10220040#2EE0000040080000 note=10220040 body/status speed-limiter-adjacent rpm-word offset 0: 3000 rpm raw 0x2EE0
(1780179534.318000) can0 10220040#2EE0000040080000
# tx t=028.260s 10220040#2EE0000040080000 note=10220040 body/status speed-limiter-adjacent rpm-word offset 0: 3000 rpm raw 0x2EE0
(1780179534.334000) can0 10220040#2EE0000040080000
# tx t=028.292s 10220040#2EE0000040080000 note=10220040 body/status speed-limiter-adjacent rpm-word offset 0: 3000 rpm raw 0x2EE0
(1780179534.365000) can0 10220040#2EE0000040080000
# tx t=028.308s 621#0052000000000000 note=rpm word sweep key-on 621 keepalive
# tx t=028.308s 102C0040#803C96B503 note=rpm word sweep ignition/power-mode key-on context
# tx t=028.309s 10210040#0000800000008000 note=rpm word sweep zero speed/status baseline
# tx t=028.309s 102CC040#0000400000000000 note=rpm word sweep confirmed speed-valid prerequisite
# tx t=028.309s 10220040#2EE0000040080000 note=10220040 body/status speed-limiter-adjacent rpm-word offset 0: 3000 rpm raw 0x2EE0
(1780179534.382000) can0 621#0052000000000000
(1780179534.382000) can0 102C0040#803C96B503
(1780179534.382000) can0 10210040#0000800000008000
(1780179534.385000) can0 102CC040#0000400000000000
(1780179534.388000) can0 10220040#2EE0000040080000
# tx t=028.324s 10220040#2EE0000040080000 note=10220040 body/status speed-limiter-adjacent rpm-word offset 0: 3000 rpm raw 0x2EE0
(1780179534.397000) can0 10220040#2EE0000040080000
# tx t=028.340s 10220040#2EE0000040080000 note=10220040 body/status speed-limiter-adjacent rpm-word offset 0: 3000 rpm raw 0x2EE0
(1780179534.413000) can0 10220040#2EE0000040080000
# tx t=028.372s 10220040#2EE0000040080000 note=10220040 body/status speed-limiter-adjacent rpm-word offset 0: 3000 rpm raw 0x2EE0
(1780179534.445000) can0 10220040#2EE0000040080000
# tx t=028.388s 10220040#2EE0000040080000 note=10220040 body/status speed-limiter-adjacent rpm-word offset 0: 3000 rpm raw 0x2EE0
(1780179534.461000) can0 10220040#2EE0000040080000
# tx t=028.404s 102C0040#803C96B503 note=rpm word sweep ignition/power-mode key-on context
# tx t=028.404s 10210040#0000800000008000 note=rpm word sweep zero speed/status baseline
# tx t=028.404s 10220040#2EE0000040080000 note=10220040 body/status speed-limiter-adjacent rpm-word offset 0: 3000 rpm raw 0x2EE0
(1780179534.477000) can0 102C0040#803C96B503
(1780179534.478000) can0 10210040#0000800000008000
(1780179534.478000) can0 10220040#2EE0000040080000
# tx t=028.420s 10220040#2EE0000040080000 note=10220040 body/status speed-limiter-adjacent rpm-word offset 0: 3000 rpm raw 0x2EE0
(1780179534.493000) can0 10220040#2EE0000040080000
# tx t=028.452s 10220040#2EE0000040080000 note=10220040 body/status speed-limiter-adjacent rpm-word offset 0: 3000 rpm raw 0x2EE0
(1780179534.525000) can0 10220040#2EE0000040080000
# tx t=028.467s 10220040#2EE0000040080000 note=10220040 body/status speed-limiter-adjacent rpm-word offset 0: 3000 rpm raw 0x2EE0
(1780179534.540000) can0 10220040#2EE0000040080000
# tx t=028.483s 10220040#2EE0000040080000 note=10220040 body/status speed-limiter-adjacent rpm-word offset 0: 3000 rpm raw 0x2EE0
(1780179534.557000) can0 10220040#2EE0000040080000
# tx t=028.515s 102C0040#803C96B503 note=rpm word sweep ignition/power-mode key-on context
# tx t=028.515s 10210040#0000800000008000 note=rpm word sweep zero speed/status baseline
# tx t=028.516s 10220040#2EE0000040080000 note=10220040 body/status speed-limiter-adjacent rpm-word offset 0: 3000 rpm raw 0x2EE0
(1780179534.589000) can0 102C0040#803C96B503
(1780179534.589000) can0 10210040#0000800000008000
(1780179534.589000) can0 10220040#2EE0000040080000
# tx t=028.531s 10220040#2EE0000040080000 note=10220040 body/status speed-limiter-adjacent rpm-word offset 0: 3000 rpm raw 0x2EE0
(1780179534.605000) can0 10220040#2EE0000040080000
# tx t=028.547s 10220040#2EE0000040080000 note=10220040 body/status speed-limiter-adjacent rpm-word offset 0: 3000 rpm raw 0x2EE0
(1780179534.621000) can0 10220040#2EE0000040080000
# tx t=028.563s 102CC040#0000400000000000 note=rpm word sweep confirmed speed-valid prerequisite
# tx t=028.563s 10220040#2EE0000040080000 note=10220040 body/status speed-limiter-adjacent rpm-word offset 0: 3000 rpm raw 0x2EE0
(1780179534.636000) can0 102CC040#0000400000000000
(1780179534.636000) can0 10220040#2EE0000040080000
# tx t=028.595s 10220040#2EE0000040080000 note=10220040 body/status speed-limiter-adjacent rpm-word offset 0: 3000 rpm raw 0x2EE0
(1780179534.668000) can0 10220040#2EE0000040080000
# tx t=028.610s 102C0040#803C96B503 note=rpm word sweep ignition/power-mode key-on context
# tx t=028.610s 10210040#0000800000008000 note=rpm word sweep zero speed/status baseline
# tx t=028.610s 10220040#2EE0000040080000 note=10220040 body/status speed-limiter-adjacent rpm-word offset 0: 3000 rpm raw 0x2EE0
(1780179534.683000) can0 102C0040#803C96B503
(1780179534.683000) can0 10210040#0000800000008000
(1780179534.684000) can0 10220040#2EE0000040080000
# tx t=028.626s 10220040#2EE0000040080000 note=10220040 body/status speed-limiter-adjacent rpm-word offset 0: 3000 rpm raw 0x2EE0
(1780179534.699000) can0 10220040#2EE0000040080000
# tx t=028.642s 10220040#2EE0000040080000 note=10220040 body/status speed-limiter-adjacent rpm-word offset 0: 3000 rpm raw 0x2EE0
(1780179534.715000) can0 10220040#2EE0000040080000
# tx t=028.673s 10220040#2EE0000040080000 note=10220040 body/status speed-limiter-adjacent rpm-word offset 0: 3000 rpm raw 0x2EE0
(1780179534.747000) can0 10220040#2EE0000040080000
# tx t=028.689s 10220040#2EE0000040080000 note=10220040 body/status speed-limiter-adjacent rpm-word offset 0: 3000 rpm raw 0x2EE0
(1780179534.763000) can0 10220040#2EE0000040080000
# tx t=028.705s 102C0040#803C96B503 note=rpm word sweep ignition/power-mode key-on context
# tx t=028.705s 10210040#0000800000008000 note=rpm word sweep zero speed/status baseline
# tx t=028.706s 10220040#2EE0000040080000 note=10220040 body/status speed-limiter-adjacent rpm-word offset 0: 3000 rpm raw 0x2EE0
(1780179534.779000) can0 102C0040#803C96B503
(1780179534.779000) can0 10210040#0000800000008000
(1780179534.779000) can0 10220040#2EE0000040080000
# tx t=028.721s 10220040#2EE0000040080000 note=10220040 body/status speed-limiter-adjacent rpm-word offset 0: 3000 rpm raw 0x2EE0
(1780179534.795000) can0 10220040#2EE0000040080000
# tx t=028.754s 10220040#2EE0000040080000 note=10220040 body/status speed-limiter-adjacent rpm-word offset 0: 3000 rpm raw 0x2EE0
(1780179534.827000) can0 10220040#2EE0000040080000
# tx t=028.770s 10220040#2EE0000040080000 note=10220040 body/status speed-limiter-adjacent rpm-word offset 0: 3000 rpm raw 0x2EE0
(1780179534.843000) can0 10220040#2EE0000040080000
# tx t=028.786s 10220040#2EE0000040080000 note=10220040 body/status speed-limiter-adjacent rpm-word offset 0: 3000 rpm raw 0x2EE0
(1780179534.859000) can0 10220040#2EE0000040080000
# tx t=028.802s 102C0040#803C96B503 note=rpm word sweep ignition/power-mode key-on context
# tx t=028.802s 10242040#02 note=rpm word sweep second-turn/key-on sub-state
# tx t=028.802s 10210040#0000800000008000 note=rpm word sweep zero speed/status baseline
# tx t=028.802s 102CC040#0000400000000000 note=rpm word sweep confirmed speed-valid prerequisite
# tx t=028.802s 10220040#2EE0000040080000 note=10220040 body/status speed-limiter-adjacent rpm-word offset 0: 3000 rpm raw 0x2EE0
(1780179534.875000) can0 102C0040#803C96B503
(1780179534.876000) can0 10242040#02
(1780179534.876000) can0 10210040#0000800000008000
(1780179534.878000) can0 102CC040#0000400000000000
(1780179534.881000) can0 10220040#2EE0000040080000
# tx t=028.834s 10220040#2EE0000040080000 note=10220040 body/status speed-limiter-adjacent rpm-word offset 0: 3000 rpm raw 0x2EE0
(1780179534.907000) can0 10220040#2EE0000040080000
(1780179534.915000) can0 10424060#079964
# tx t=028.850s 10220040#2EE0000040080000 note=10220040 body/status speed-limiter-adjacent rpm-word offset 0: 3000 rpm raw 0x2EE0
(1780179534.923000) can0 10220040#2EE0000040080000
# tx t=028.865s 10220040#2EE0000040080000 note=10220040 body/status speed-limiter-adjacent rpm-word offset 0: 3000 rpm raw 0x2EE0
(1780179534.939000) can0 10220040#2EE0000040080000
# tx t=028.881s 10220040#2EE0000040080000 note=10220040 body/status speed-limiter-adjacent rpm-word offset 0: 3000 rpm raw 0x2EE0
(1780179534.954000) can0 10220040#2EE0000040080000
# tx t=028.913s 102C0040#803C96B503 note=rpm word sweep ignition/power-mode key-on context
# tx t=028.913s 10754040#040400 note=rpm word sweep key-present/key-on context
# tx t=028.914s 10210040#0000800000008000 note=rpm word sweep zero speed/status baseline
# tx t=028.914s 10220040#2EE0000040080000 note=10220040 body/status speed-limiter-adjacent rpm-word offset 0: 3000 rpm raw 0x2EE0
(1780179534.987000) can0 102C0040#803C96B503
(1780179534.987000) can0 10754040#040400
(1780179534.987000) can0 10210040#0000800000008000
(1780179534.990000) can0 10220040#2EE0000040080000
# tx t=028.929s 10220040#2EE0000040080000 note=10220040 body/status speed-limiter-adjacent rpm-word offset 0: 3000 rpm raw 0x2EE0
(1780179535.003000) can0 10220040#2EE0000040080000
# tx t=028.945s 10220040#2EE0000040080000 note=10220040 body/status speed-limiter-adjacent rpm-word offset 0: 3000 rpm raw 0x2EE0
(1780179535.019000) can0 10220040#2EE0000040080000
# tx t=028.961s 10220040#2EE0000040080000 note=10220040 body/status speed-limiter-adjacent rpm-word offset 0: 3000 rpm raw 0x2EE0
(1780179535.034000) can0 10220040#2EE0000040080000
# tx t=028.993s 10220040#2EE0000040080000 note=10220040 body/status speed-limiter-adjacent rpm-word offset 0: 3000 rpm raw 0x2EE0
(1780179535.066000) can0 10220040#2EE0000040080000
# tx t=029.009s 102C0040#803C96B503 note=rpm word sweep ignition/power-mode key-on context
# tx t=029.009s 10210040#0000800000008000 note=rpm word sweep zero speed/status baseline
# tx t=029.009s 10220040#2EE0000040080000 note=10220040 body/status speed-limiter-adjacent rpm-word offset 0: 3000 rpm raw 0x2EE0
(1780179535.083000) can0 102C0040#803C96B503
(1780179535.083000) can0 10210040#0000800000008000
(1780179535.083000) can0 10220040#2EE0000040080000
# tx t=029.025s 10220040#2EE0000040080000 note=10220040 body/status speed-limiter-adjacent rpm-word offset 0: 3000 rpm raw 0x2EE0
(1780179535.098000) can0 10220040#2EE0000040080000
# tx t=029.041s 10220040#2EE0000040080000 note=10220040 body/status speed-limiter-adjacent rpm-word offset 0: 3000 rpm raw 0x2EE0
(1780179535.114000) can0 10220040#2EE0000040080000
# tx t=029.056s 102CC040#0000400000000000 note=rpm word sweep confirmed speed-valid prerequisite
(1780179535.130000) can0 102CC040#0000400000000000
# tx t=029.072s 10220040#2EE0000040080000 note=10220040 body/status speed-limiter-adjacent rpm-word offset 0: 3000 rpm raw 0x2EE0
(1780179535.145000) can0 10220040#2EE0000040080000
# tx t=029.088s 10220040#2EE0000040080000 note=10220040 body/status speed-limiter-adjacent rpm-word offset 0: 3000 rpm raw 0x2EE0
(1780179535.162000) can0 10220040#2EE0000040080000
# tx t=029.104s 13FFE040# note=rpm word sweep BCM/source 0x40 presence
# tx t=029.104s 102C0040#803C96B503 note=rpm word sweep ignition/power-mode key-on context
# tx t=029.105s 10210040#0000800000008000 note=rpm word sweep zero speed/status baseline
# tx t=029.105s 10220040#2EE0000040080000 note=10220040 body/status speed-limiter-adjacent rpm-word offset 0: 3000 rpm raw 0x2EE0
(1780179535.178000) can0 13FFE040#
(1780179535.178000) can0 102C0040#803C96B503
(1780179535.178000) can0 10210040#0000800000008000
(1780179535.179000) can0 10220040#2EE0000040080000
# tx t=029.120s 10220040#2EE0000040080000 note=10220040 body/status speed-limiter-adjacent rpm-word offset 0: 3000 rpm raw 0x2EE0
(1780179535.194000) can0 10220040#2EE0000040080000
# tx t=029.152s 10220040#2EE0000040080000 note=10220040 body/status speed-limiter-adjacent rpm-word offset 0: 3000 rpm raw 0x2EE0
(1780179535.226000) can0 10220040#2EE0000040080000
# tx t=029.168s 10220040#2EE0000040080000 note=10220040 body/status speed-limiter-adjacent rpm-word offset 0: 3000 rpm raw 0x2EE0
(1780179535.241000) can0 10220040#2EE0000040080000
# tx t=029.184s 10220040#2EE0000040080000 note=10220040 body/status speed-limiter-adjacent rpm-word offset 0: 3000 rpm raw 0x2EE0
(1780179535.257000) can0 10220040#2EE0000040080000
# tx t=029.200s 102C0040#803C96B503 note=rpm word sweep ignition/power-mode key-on context
# tx t=029.200s 10210040#0000800000008000 note=rpm word sweep zero speed/status baseline
# tx t=029.200s 10220040#2EE0000040080000 note=10220040 body/status speed-limiter-adjacent rpm-word offset 0: 3000 rpm raw 0x2EE0
(1780179535.273000) can0 102C0040#803C96B503
(1780179535.273000) can0 10210040#0000800000008000
(1780179535.274000) can0 10220040#2EE0000040080000
# tx t=029.231s 10220040#2EE0000040080000 note=10220040 body/status speed-limiter-adjacent rpm-word offset 0: 3000 rpm raw 0x2EE0
(1780179535.304000) can0 10220040#2EE0000040080000
(1780179535.314000) can0 13FFE060#
# tx t=029.247s 10220040#2EE0000040080000 note=10220040 body/status speed-limiter-adjacent rpm-word offset 0: 3000 rpm raw 0x2EE0
(1780179535.320000) can0 10220040#2EE0000040080000
# tx t=029.262s 10220040#2EE0000040080000 note=10220040 body/status speed-limiter-adjacent rpm-word offset 0: 3000 rpm raw 0x2EE0
(1780179535.336000) can0 10220040#2EE0000040080000
# tx t=029.294s 10220040#2EE0000040080000 note=10220040 body/status speed-limiter-adjacent rpm-word offset 0: 3000 rpm raw 0x2EE0
(1780179535.367000) can0 10220040#2EE0000040080000
# tx t=029.310s 621#0052000000000000 note=rpm word sweep key-on 621 keepalive
# tx t=029.310s 102C0040#803C96B503 note=rpm word sweep ignition/power-mode key-on context
# tx t=029.311s 10210040#0000800000008000 note=rpm word sweep zero speed/status baseline
# tx t=029.311s 102CC040#0000400000000000 note=rpm word sweep confirmed speed-valid prerequisite
# tx t=029.311s 10220040#100C800040080000 note=10220040 body/status speed-limiter-adjacent rpm-word offset 1: 800 rpm raw 0x0C80
(1780179535.384000) can0 621#0052000000000000
(1780179535.384000) can0 102C0040#803C96B503
(1780179535.384000) can0 10210040#0000800000008000
(1780179535.387000) can0 102CC040#0000400000000000
(1780179535.390000) can0 10220040#100C800040080000
# tx t=029.325s 10220040#100C800040080000 note=10220040 body/status speed-limiter-adjacent rpm-word offset 1: 800 rpm raw 0x0C80
(1780179535.398000) can0 10220040#100C800040080000
