# cantool TX/RX capture bitrate=33333.333 fclk=170000000 brp=255 prop=1 phase1=13 phase2=5 sjw=4
# tx t=005.631s 100# note=native Corsa E SWCAN wake pulse
# tx t=005.633s 13FFE040# note=native fake BCM/source 0x40 presence seed
# tx t=005.633s 621#0140000000000000 note=native network-management startup/init seed
# tx t=005.634s 10210040#0000800000008000 note=native BCM/body base status from IPC_disconnected capture
# tx t=005.634s 10264040#0000000000000000 note=native BCM/body base zero-status frame
# tx t=005.634s 102CA040#0000000000000F00 note=native BCM/body base 102CA040 context
# tx t=005.634s 10220040#1000000040080000 note=native BCM/body 10220040 key-on variant
# tx t=005.635s 10230040#0000000000000000 note=native BCM/body 10230040 captured counter/state cycle variant 1/4
# tx t=005.635s 1022E040#1000000010000000 note=native BCM/body 1022E040 key-on counter/state cycle variant 1/3
# tx t=005.635s 10240040#83FE880100D70FFD note=native BCM/body 10240040 key-on/second-turn variant 83FE880100D70FFD
# tx t=005.635s 102C0040#803C96B503 note=native BCM/body 102C0040 key-on captured context
# tx t=005.635s 10754040#040400 note=native key/body context immediate key-on hold variant
# tx t=005.636s 10242040#02 note=native 10242040 immediate second-turn/key-on hold state
(1780162715.030000) can0 100#
(1780162715.031000) can0 13FFE040#
(1780162715.031000) can0 621#0140000000000000
(1780162715.031000) can0 10210040#0000800000008000
(1780162715.031000) can0 10264040#0000000000000000
(1780162715.032000) can0 102CA040#0000000000000F00
(1780162715.036000) can0 10220040#1000000040080000
(1780162715.054000) can0 10230040#0000000000000000
(1780162715.055000) can0 1022E040#1000000010000000
(1780162715.055000) can0 10240040#83FE880100D70FFD
(1780162715.055000) can0 102C0040#803C96B503
(1780162715.058000) can0 10754040#040400
(1780162715.063000) can0 10242040#02
(1780162715.065000) can0 10244060#06
(1780162715.086000) can0 103BC060#00
(1780162715.086000) can0 103D6060#00
(1780162715.086000) can0 103DA060#00
(1780162715.086000) can0 10448060#00
(1780162715.086000) can0 1045C060#40
(1780162715.088000) can0 10774060#00
(1780162715.091000) can0 10812060#00
(1780162715.093000) can0 1084A060#00
(1780162715.095000) can0 10A04060#00
(1780162715.100000) can0 10ACE060#1E00200000000000
(1780162715.104000) can0 10AE8060#030E010104050000
(1780162715.106000) can0 13FFE060#
# tx t=005.737s 621#0052000000000000 note=native key-on network-management seed
# tx t=005.738s 10210040#0000800000008000 note=native BCM/body base status from IPC_disconnected capture
(1780162715.131000) can0 621#0052000000000000
(1780162715.131000) can0 10210040#0000800000008000
(1780162715.134000) can0 10AE8060#0016010800000000
(1780162715.162000) can0 13FFE060#
(1780162715.163000) can0 1084A060#00
(1780162715.167000) can0 10AE8060#030E010104050000
(1780162715.172000) can0 10244060#02
(1780162715.195000) can0 103BC060#00
(1780162715.195000) can0 103D6060#00
(1780162715.195000) can0 103DA060#00
(1780162715.195000) can0 1045C060#40
(1780162715.196000) can0 10AE8060#0016010800000000
(1780162715.202000) can0 10812060#00
(1780162715.207000) can0 10ACE060#2B00000000000000
# tx t=005.833s 10210040#0000800000008000 note=native BCM/body base status from IPC_disconnected capture
(1780162715.227000) can0 10424060#079964
(1780162715.227000) can0 10210040#0000800000008000
# tx t=005.880s 10230040#1000000010000000 note=native BCM/body 10230040 captured counter/state cycle variant 2/4
# tx t=005.881s 1022E040#2000000020000000 note=native BCM/body 1022E040 key-on counter/state cycle variant 2/3
(1780162715.274000) can0 10230040#1000000010000000
(1780162715.274000) can0 1022E040#2000000020000000
(1780162715.285000) can0 10244060#02
(1780162715.314000) can0 10ACE060#1E00200000000000
# tx t=005.943s 10210040#0000800000008000 note=native BCM/body base status from IPC_disconnected capture
(1780162715.337000) can0 10210040#0000800000008000
# tx t=006.037s 10210040#0000800000008000 note=native BCM/body base status from IPC_disconnected capture
(1780162715.431000) can0 10ACE060#2B00000000000000
(1780162715.431000) can0 10210040#0000800000008000
(1780162715.444000) can0 10AFC060#38FFFFFFFFFFFF2B
# tx t=006.132s 10210040#0000800000008000 note=native BCM/body base status from IPC_disconnected capture
# tx t=006.133s 10230040#2000000020000000 note=native BCM/body 10230040 captured counter/state cycle variant 3/4
# tx t=006.133s 1022E040#3000000030000000 note=native BCM/body 1022E040 key-on counter/state cycle variant 3/3
(1780162715.527000) can0 10210040#0000800000008000
(1780162715.527000) can0 10230040#2000000020000000
(1780162715.527000) can0 1022E040#3000000030000000
# tx t=006.245s 10210040#0000800000008000 note=native BCM/body base status from IPC_disconnected capture
(1780162715.638000) can0 10210040#0000800000008000
# tx t=006.338s 10210040#0000800000008000 note=native BCM/body base status from IPC_disconnected capture
(1780162715.731000) can0 10210040#0000800000008000
# tx t=006.386s 10230040#3000000030000000 note=native BCM/body 10230040 captured counter/state cycle variant 4/4
# tx t=006.386s 1022E040#1000000010000000 note=native BCM/body 1022E040 key-on counter/state cycle variant 1/3
(1780162715.780000) can0 10230040#3000000030000000
(1780162715.780000) can0 1022E040#1000000010000000
# tx t=006.434s 10210040#0000800000008000 note=native BCM/body base status from IPC_disconnected capture
(1780162715.828000) can0 10210040#0000800000008000
# tx t=006.545s 10210040#0000800000008000 note=native BCM/body base status from IPC_disconnected capture
(1780162715.938000) can0 10210040#0000800000008000
# tx t=006.641s 621#0052000000000000 note=native key-on network-management context
# tx t=006.641s 10210040#0000800000008000 note=native BCM/body base status from IPC_disconnected capture
# tx t=006.641s 10264040#0000000000000000 note=native BCM/body base zero-status frame
# tx t=006.642s 102CA040#0000000000000F00 note=native BCM/body base 102CA040 context
# tx t=006.642s 10220040#1000000040080000 note=native BCM/body 10220040 key-on variant
# tx t=006.642s 10230040#0000000000000000 note=native BCM/body 10230040 captured counter/state cycle variant 1/4
# tx t=006.642s 1022E040#2000000020000000 note=native BCM/body 1022E040 key-on counter/state cycle variant 2/3
# tx t=006.642s 10240040#83FE880100D70FFD note=native BCM/body 10240040 key-on/second-turn variant 83FE880100D70FFD
# tx t=006.642s 102C0040#803C96B503 note=native BCM/body 102C0040 key-on captured context
# tx t=006.642s 10754040#040400 note=native key/body context immediate key-on hold variant
# tx t=006.643s 10242040#02 note=native 10242040 immediate second-turn/key-on hold state
(1780162716.036000) can0 621#0052000000000000
(1780162716.036000) can0 10210040#0000800000008000
(1780162716.036000) can0 10264040#0000000000000000
(1780162716.038000) can0 102CA040#0000000000000F00
(1780162716.042000) can0 10220040#1000000040080000
(1780162716.047000) can0 10230040#0000000000000000
(1780162716.065000) can0 1022E040#2000000020000000
(1780162716.066000) can0 10240040#83FE880100D70FFD
(1780162716.066000) can0 102C0040#803C96B503
(1780162716.066000) can0 10754040#040400
(1780162716.069000) can0 10242040#02
# tx t=006.735s 10210040#0000800000008000 note=native BCM/body base status from IPC_disconnected capture
(1780162716.129000) can0 10210040#0000800000008000
# tx t=006.830s 13FFE040# note=native fake BCM/source 0x40 presence, captured-like cadence
# tx t=006.830s 10210040#0000800000008000 note=native BCM/body base status from IPC_disconnected capture
(1780162716.224000) can0 13FFE040#
(1780162716.224000) can0 10210040#0000800000008000
# tx t=006.893s 10230040#1000000010000000 note=native BCM/body 10230040 captured counter/state cycle variant 2/4
# tx t=006.893s 1022E040#3000000030000000 note=native BCM/body 1022E040 key-on counter/state cycle variant 3/3
(1780162716.287000) can0 10230040#1000000010000000
(1780162716.287000) can0 1022E040#3000000030000000
# tx t=006.941s 10210040#0000800000008000 note=native BCM/body base status from IPC_disconnected capture
(1780162716.335000) can0 10210040#0000800000008000
(1780162716.342000) can0 13FFE060#
# tx t=007.035s 10210040#0000800000008000 note=native BCM/body base status from IPC_disconnected capture
(1780162716.429000) can0 10210040#0000800000008000
# tx t=007.130s 10210040#0000800000008000 note=native BCM/body base status from IPC_disconnected capture
# tx t=007.131s 10230040#2000000020000000 note=native BCM/body 10230040 captured counter/state cycle variant 3/4
# tx t=007.131s 1022E040#1000000010000000 note=native BCM/body 1022E040 key-on counter/state cycle variant 1/3
(1780162716.524000) can0 10210040#0000800000008000
(1780162716.524000) can0 10230040#2000000020000000
(1780162716.525000) can0 1022E040#1000000010000000
# tx t=007.242s 10210040#0000800000008000 note=native BCM/body base status from IPC_disconnected capture
(1780162716.635000) can0 10210040#0000800000008000
# tx t=007.336s 10210040#0000800000008000 note=native BCM/body base status from IPC_disconnected capture
(1780162716.729000) can0 10210040#0000800000008000
# tx t=007.384s 10230040#3000000030000000 note=native BCM/body 10230040 captured counter/state cycle variant 4/4
# tx t=007.384s 1022E040#2000000020000000 note=native BCM/body 1022E040 key-on counter/state cycle variant 2/3
(1780162716.778000) can0 10230040#3000000030000000
(1780162716.778000) can0 1022E040#2000000020000000
# tx t=007.431s 10210040#0000800000008000 note=native BCM/body base status from IPC_disconnected capture
(1780162716.825000) can0 10210040#0000800000008000
# tx t=007.543s 10210040#0000800000008000 note=native BCM/body base status from IPC_disconnected capture
(1780162716.936000) can0 10210040#0000800000008000
# tx t=007.636s 621#0052000000000000 note=native key-on network-management context
# tx t=007.636s 10210040#0000800000008000 note=native BCM/body base status from IPC_disconnected capture
# tx t=007.636s 10264040#0000000000000000 note=native BCM/body base zero-status frame
# tx t=007.637s 102CA040#0000000000000F00 note=native BCM/body base 102CA040 context
# tx t=007.637s 10220040#1000000040080000 note=native BCM/body 10220040 key-on variant
# tx t=007.637s 10230040#0000000000000000 note=native BCM/body 10230040 captured counter/state cycle variant 1/4
# tx t=007.637s 1022E040#3000000030000000 note=native BCM/body 1022E040 key-on counter/state cycle variant 3/3
# tx t=007.637s 10240040#83FE880100D70FFD note=native BCM/body 10240040 key-on/second-turn variant 83FE880100D70FFD
# tx t=007.637s 102C0040#803C96B503 note=native BCM/body 102C0040 key-on captured context
# tx t=007.637s 10754040#040400 note=native key/body context immediate key-on hold variant
# tx t=007.637s 10242040#02 note=native 10242040 immediate second-turn/key-on hold state
(1780162717.031000) can0 621#0052000000000000
(1780162717.031000) can0 10210040#0000800000008000
(1780162717.031000) can0 10264040#0000000000000000
(1780162717.033000) can0 102CA040#0000000000000F00
(1780162717.038000) can0 10220040#1000000040080000
(1780162717.042000) can0 10230040#0000000000000000
(1780162717.060000) can0 1022E040#3000000030000000
(1780162717.061000) can0 10240040#83FE880100D70FFD
(1780162717.061000) can0 102C0040#803C96B503
(1780162717.061000) can0 10754040#040400
(1780162717.064000) can0 10242040#02
# tx t=007.744s 10210040#0000800000008000 note=native BCM/body base status from IPC_disconnected capture
(1780162717.138000) can0 10210040#0000800000008000
# tx t=007.839s 10210040#0000800000008000 note=native BCM/body base status from IPC_disconnected capture
(1780162717.232000) can0 10210040#0000800000008000
# tx t=007.885s 10230040#1000000010000000 note=native BCM/body 10230040 captured counter/state cycle variant 2/4
# tx t=007.886s 1022E040#1000000010000000 note=native BCM/body 1022E040 key-on counter/state cycle variant 1/3
(1780162717.279000) can0 10230040#1000000010000000
(1780162717.279000) can0 1022E040#1000000010000000
# tx t=007.933s 10210040#0000800000008000 note=native BCM/body base status from IPC_disconnected capture
(1780162717.327000) can0 10210040#0000800000008000
# tx t=008.044s 13FFE040# note=native fake BCM/source 0x40 presence, captured-like cadence
# tx t=008.045s 10210040#0000800000008000 note=native BCM/body base status from IPC_disconnected capture
(1780162717.438000) can0 13FFE040#
(1780162717.438000) can0 10210040#0000800000008000
# tx t=008.140s 10210040#0000800000008000 note=native BCM/body base status from IPC_disconnected capture
# tx t=008.140s 10230040#2000000020000000 note=native BCM/body 10230040 captured counter/state cycle variant 3/4
# tx t=008.140s 1022E040#2000000020000000 note=native BCM/body 1022E040 key-on counter/state cycle variant 2/3
(1780162717.534000) can0 10210040#0000800000008000
(1780162717.534000) can0 10230040#2000000020000000
(1780162717.534000) can0 1022E040#2000000020000000
(1780162717.548000) can0 13FFE060#
# tx t=008.236s 10210040#0000800000008000 note=native BCM/body base status from IPC_disconnected capture
(1780162717.629000) can0 10210040#0000800000008000
# tx t=008.330s 10210040#0000800000008000 note=native BCM/body base status from IPC_disconnected capture
(1780162717.724000) can0 10210040#0000800000008000
# tx t=008.394s 10230040#3000000030000000 note=native BCM/body 10230040 captured counter/state cycle variant 4/4
# tx t=008.394s 1022E040#3000000030000000 note=native BCM/body 1022E040 key-on counter/state cycle variant 3/3
(1780162717.788000) can0 10230040#3000000030000000
(1780162717.788000) can0 1022E040#3000000030000000
# tx t=008.441s 10210040#0000800000008000 note=native BCM/body base status from IPC_disconnected capture
(1780162717.834000) can0 10210040#0000800000008000
# tx t=008.536s 10210040#0000800000008000 note=native BCM/body base status from IPC_disconnected capture
(1780162717.930000) can0 10210040#0000800000008000
# tx t=008.631s 621#0052000000000000 note=native key-on network-management context
# tx t=008.631s 10210040#0000800000008000 note=native BCM/body base status from IPC_disconnected capture
# tx t=008.631s 10264040#0000000000000000 note=native BCM/body base zero-status frame
# tx t=008.631s 102CA040#0000000000000F00 note=native BCM/body base 102CA040 context
# tx t=008.632s 10220040#1000000040080000 note=native BCM/body 10220040 key-on variant
# tx t=008.632s 10230040#0000000000000000 note=native BCM/body 10230040 captured counter/state cycle variant 1/4
# tx t=008.632s 1022E040#1000000010000000 note=native BCM/body 1022E040 key-on counter/state cycle variant 1/3
# tx t=008.632s 10240040#83FE880100D70FFD note=native BCM/body 10240040 key-on/second-turn variant 83FE880100D70FFD
# tx t=008.632s 102C0040#803C96B503 note=native BCM/body 102C0040 key-on captured context
# tx t=008.632s 10754040#040400 note=native key/body context immediate key-on hold variant
# tx t=008.632s 10242040#02 note=native 10242040 immediate second-turn/key-on hold state
# tx t=008.632s 10240040#83FE880100D70000 note=lights probe day/off 10240040 family from connected capture variant 1/4
# tx t=008.633s 102CC040#0000C00000000000 note=lights probe day/off 102CC040 context from connected capture
# tx t=008.633s 102CA040#0000000000000F00 note=lights probe neutral dimmer/illumination level
(1780162718.026000) can0 621#0052000000000000
(1780162718.027000) can0 10210040#0000800000008000
(1780162718.027000) can0 10264040#0000000000000000
(1780162718.028000) can0 102CA040#0000000000000F00
(1780162718.032000) can0 10220040#1000000040080000
(1780162718.037000) can0 10230040#0000000000000000
(1780162718.055000) can0 1022E040#1000000010000000
(1780162718.056000) can0 10240040#83FE880100D70FFD
(1780162718.056000) can0 102C0040#803C96B503
(1780162718.056000) can0 10754040#040400
(1780162718.059000) can0 10242040#02
(1780162718.062000) can0 10240040#83FE880100D70000
(1780162718.065000) can0 102CC040#0000C00000000000
(1780162718.067000) can0 102CA040#0000000000000F00
# tx t=008.741s 10210040#0000800000008000 note=native BCM/body base status from IPC_disconnected capture
# tx t=008.741s 10240040#83FF880100D70000 note=lights probe day/off 10240040 family from connected capture variant 2/4
# tx t=008.741s 102CA040#0000000000000F00 note=lights probe neutral dimmer/illumination level
(1780162718.135000) can0 10210040#0000800000008000
(1780162718.135000) can0 10240040#83FF880100D70000
(1780162718.135000) can0 102CA040#0000000000000F00
(1780162718.166000) can0 62C#0040000000000000
(1780162718.167000) can0 10600060#0160C020007B00
# tx t=008.836s 10210040#0000800000008000 note=native BCM/body base status from IPC_disconnected capture
# tx t=008.836s 10240040#83FE880100D70FFD note=lights probe day/off 10240040 family from connected capture variant 3/4
# tx t=008.836s 102CA040#0000000000000F00 note=lights probe neutral dimmer/illumination level
(1780162718.230000) can0 10210040#0000800000008000
(1780162718.230000) can0 10240040#83FE880100D70FFD
(1780162718.230000) can0 102CA040#0000000000000F00
# tx t=008.883s 10230040#1000000010000000 note=native BCM/body 10230040 captured counter/state cycle variant 2/4
# tx t=008.883s 1022E040#2000000020000000 note=native BCM/body 1022E040 key-on counter/state cycle variant 2/3
# tx t=008.883s 102CC040#0000C00000000000 note=lights probe day/off 102CC040 context from connected capture
(1780162718.277000) can0 10230040#1000000010000000
(1780162718.277000) can0 1022E040#2000000020000000
(1780162718.277000) can0 102CC040#0000C00000000000
# tx t=008.931s 10210040#0000800000008000 note=native BCM/body base status from IPC_disconnected capture
# tx t=008.932s 10240040#83FF880100D70FFD note=lights probe day/off 10240040 family from connected capture variant 4/4
# tx t=008.932s 102CA040#0000000000000F00 note=lights probe neutral dimmer/illumination level
(1780162718.326000) can0 10210040#0000800000008000
(1780162718.326000) can0 10240040#83FF880100D70FFD
(1780162718.326000) can0 102CA040#0000000000000F00
# tx t=009.041s 10210040#0000800000008000 note=native BCM/body base status from IPC_disconnected capture
# tx t=009.042s 10240040#83FE880100D70000 note=lights probe day/off 10240040 family from connected capture variant 1/4
# tx t=009.042s 102CA040#0000000000000F00 note=lights probe neutral dimmer/illumination level
(1780162718.435000) can0 10210040#0000800000008000
(1780162718.435000) can0 10240040#83FE880100D70000
(1780162718.435000) can0 102CA040#0000000000000F00
# tx t=009.136s 10210040#0000800000008000 note=native BCM/body base status from IPC_disconnected capture
# tx t=009.137s 10230040#2000000020000000 note=native BCM/body 10230040 captured counter/state cycle variant 3/4
# tx t=009.137s 1022E040#3000000030000000 note=native BCM/body 1022E040 key-on counter/state cycle variant 3/3
# tx t=009.137s 10240040#83FF880100D70000 note=lights probe day/off 10240040 family from connected capture variant 2/4
# tx t=009.137s 102CC040#0000C00000000000 note=lights probe day/off 102CC040 context from connected capture
# tx t=009.137s 102CA040#0000000000000F00 note=lights probe neutral dimmer/illumination level
(1780162718.531000) can0 10210040#0000800000008000
(1780162718.531000) can0 10230040#2000000020000000
(1780162718.531000) can0 1022E040#3000000030000000
(1780162718.534000) can0 10240040#83FF880100D70000
(1780162718.539000) can0 102CC040#0000C00000000000
(1780162718.543000) can0 102CA040#0000000000000F00
# tx t=009.231s 13FFE040# note=native fake BCM/source 0x40 presence, captured-like cadence
# tx t=009.232s 10210040#0000800000008000 note=native BCM/body base status from IPC_disconnected capture
# tx t=009.232s 10240040#83FE880100D70FFD note=lights probe day/off 10240040 family from connected capture variant 3/4
# tx t=009.232s 102CA040#0000000000000F00 note=lights probe neutral dimmer/illumination level
(1780162718.626000) can0 13FFE040#
(1780162718.626000) can0 10210040#0000800000008000
(1780162718.626000) can0 10240040#83FE880100D70FFD
(1780162718.627000) can0 102CA040#0000000000000F00
# tx t=009.342s 10210040#0000800000008000 note=native BCM/body base status from IPC_disconnected capture
# tx t=009.342s 10240040#83FF880100D70FFD note=lights probe day/off 10240040 family from connected capture variant 4/4
# tx t=009.342s 102CA040#0000000000000F00 note=lights probe neutral dimmer/illumination level
(1780162718.736000) can0 10210040#0000800000008000
(1780162718.736000) can0 10240040#83FF880100D70FFD
(1780162718.736000) can0 102CA040#0000000000000F00
(1780162718.750000) can0 13FFE060#
# tx t=009.390s 10230040#3000000030000000 note=native BCM/body 10230040 captured counter/state cycle variant 4/4
# tx t=009.390s 1022E040#1000000010000000 note=native BCM/body 1022E040 key-on counter/state cycle variant 1/3
# tx t=009.390s 102CC040#0000C00000000000 note=lights probe day/off 102CC040 context from connected capture
(1780162718.784000) can0 10230040#3000000030000000
(1780162718.784000) can0 1022E040#1000000010000000
(1780162718.784000) can0 102CC040#0000C00000000000
# tx t=009.437s 10210040#0000800000008000 note=native BCM/body base status from IPC_disconnected capture
# tx t=009.437s 10240040#83FE880100D70000 note=lights probe day/off 10240040 family from connected capture variant 1/4
# tx t=009.437s 102CA040#0000000000000F00 note=lights probe neutral dimmer/illumination level
(1780162718.831000) can0 10210040#0000800000008000
(1780162718.831000) can0 10240040#83FE880100D70000
(1780162718.831000) can0 102CA040#0000000000000F00
# tx t=009.532s 10210040#0000800000008000 note=native BCM/body base status from IPC_disconnected capture
# tx t=009.532s 10240040#83FF880100D70000 note=lights probe day/off 10240040 family from connected capture variant 2/4
# tx t=009.532s 102CA040#0000000000000F00 note=lights probe neutral dimmer/illumination level
(1780162718.926000) can0 10210040#0000800000008000
(1780162718.926000) can0 10240040#83FF880100D70000
(1780162718.926000) can0 102CA040#0000000000000F00
# tx t=009.642s 621#0052000000000000 note=native key-on network-management context
# tx t=009.642s 10210040#0000800000008000 note=native BCM/body base status from IPC_disconnected capture
# tx t=009.642s 10264040#0000000000000000 note=native BCM/body base zero-status frame
# tx t=009.642s 102CA040#0000000000000F00 note=native BCM/body base 102CA040 context
# tx t=009.642s 10220040#1000000040080000 note=native BCM/body 10220040 key-on variant
# tx t=009.643s 10230040#0000000000000000 note=native BCM/body 10230040 captured counter/state cycle variant 1/4
# tx t=009.643s 1022E040#2000000020000000 note=native BCM/body 1022E040 key-on counter/state cycle variant 2/3
# tx t=009.643s 10240040#83FE880100D70FFD note=native BCM/body 10240040 key-on/second-turn variant 83FE880100D70FFD
# tx t=009.643s 102C0040#803C96B503 note=native BCM/body 102C0040 key-on captured context
# tx t=009.643s 10754040#040400 note=native key/body context immediate key-on hold variant
# tx t=009.643s 10242040#02 note=native 10242040 immediate second-turn/key-on hold state
# tx t=009.643s 10240040#83FE880100D70FFD note=lights probe day/off 10240040 family from connected capture variant 3/4
# tx t=009.643s 102CC040#0000C00000000000 note=lights probe day/off 102CC040 context from connected capture
# tx t=009.643s 102CA040#0000000000000F00 note=lights probe neutral dimmer/illumination level
(1780162719.037000) can0 621#0052000000000000
(1780162719.037000) can0 10210040#0000800000008000
(1780162719.037000) can0 10264040#0000000000000000
(1780162719.039000) can0 102CA040#0000000000000F00
(1780162719.043000) can0 10220040#1000000040080000
(1780162719.048000) can0 10230040#0000000000000000
(1780162719.067000) can0 1022E040#2000000020000000
(1780162719.068000) can0 10240040#83FE880100D70FFD
(1780162719.068000) can0 102C0040#803C96B503
(1780162719.068000) can0 10754040#040400
(1780162719.070000) can0 10242040#02
(1780162719.073000) can0 10240040#83FE880100D70FFD
(1780162719.076000) can0 102CC040#0000C00000000000
(1780162719.079000) can0 102CA040#0000000000000F00
# tx t=009.736s 10210040#0000800000008000 note=native BCM/body base status from IPC_disconnected capture
# tx t=009.736s 10240040#83FF880100D70FFD note=lights probe day/off 10240040 family from connected capture variant 4/4
# tx t=009.736s 102CA040#0000000000000F00 note=lights probe neutral dimmer/illumination level
(1780162719.130000) can0 10210040#0000800000008000
(1780162719.130000) can0 10240040#83FF880100D70FFD
(1780162719.130000) can0 102CA040#0000000000000F00
# tx t=009.830s 10210040#0000800000008000 note=native BCM/body base status from IPC_disconnected capture
# tx t=009.830s 10240040#83FE880100D70000 note=lights probe day/off 10240040 family from connected capture variant 1/4
# tx t=009.830s 102CA040#0000000000000F00 note=lights probe neutral dimmer/illumination level
(1780162719.224000) can0 10210040#0000800000008000
(1780162719.224000) can0 10240040#83FE880100D70000
(1780162719.224000) can0 102CA040#0000000000000F00
# tx t=009.894s 10230040#1000000010000000 note=native BCM/body 10230040 captured counter/state cycle variant 2/4
# tx t=009.894s 1022E040#3000000030000000 note=native BCM/body 1022E040 key-on counter/state cycle variant 3/3
# tx t=009.895s 102CC040#0000C00000000000 note=lights probe day/off 102CC040 context from connected capture
(1780162719.288000) can0 10230040#1000000010000000
(1780162719.288000) can0 1022E040#3000000030000000
(1780162719.288000) can0 102CC040#0000C00000000000
# tx t=009.941s 10210040#0000800000008000 note=native BCM/body base status from IPC_disconnected capture
# tx t=009.942s 10240040#83FF880100D70000 note=lights probe day/off 10240040 family from connected capture variant 2/4
# tx t=009.942s 102CA040#0000000000000F00 note=lights probe neutral dimmer/illumination level
(1780162719.335000) can0 10210040#0000800000008000
(1780162719.335000) can0 10240040#83FF880100D70000
(1780162719.336000) can0 102CA040#0000000000000F00
# tx t=010.037s 10210040#0000800000008000 note=native BCM/body base status from IPC_disconnected capture
# tx t=010.037s 10240040#83FE880100D70FFD note=lights probe day/off 10240040 family from connected capture variant 3/4
# tx t=010.038s 102CA040#0000000000000F00 note=lights probe neutral dimmer/illumination level
(1780162719.431000) can0 10210040#0000800000008000
(1780162719.431000) can0 10240040#83FE880100D70FFD
(1780162719.431000) can0 102CA040#0000000000000F00
# tx t=010.132s 10210040#0000800000008000 note=native BCM/body base status from IPC_disconnected capture
# tx t=010.133s 10230040#2000000020000000 note=native BCM/body 10230040 captured counter/state cycle variant 3/4
# tx t=010.133s 1022E040#1000000010000000 note=native BCM/body 1022E040 key-on counter/state cycle variant 1/3
# tx t=010.133s 10240040#83FF880100D70FFD note=lights probe day/off 10240040 family from connected capture variant 4/4
# tx t=010.133s 102CC040#0000C00000000000 note=lights probe day/off 102CC040 context from connected capture
# tx t=010.133s 102CA040#0000000000000F00 note=lights probe neutral dimmer/illumination level
(1780162719.527000) can0 10210040#0000800000008000
(1780162719.527000) can0 10230040#2000000020000000
(1780162719.527000) can0 1022E040#1000000010000000
(1780162719.530000) can0 10240040#83FF880100D70FFD
(1780162719.535000) can0 102CC040#0000C00000000000
(1780162719.539000) can0 102CA040#0000000000000F00
# tx t=010.242s 10210040#0000800000008000 note=native BCM/body base status from IPC_disconnected capture
# tx t=010.242s 10240040#83FE880100D70000 note=lights probe day/off 10240040 family from connected capture variant 1/4
# tx t=010.242s 102CA040#0000000000000F00 note=lights probe neutral dimmer/illumination level
(1780162719.636000) can0 10210040#0000800000008000
(1780162719.636000) can0 10240040#83FE880100D70000
(1780162719.636000) can0 102CA040#0000000000000F00
# tx t=010.338s 10210040#0000800000008000 note=native BCM/body base status from IPC_disconnected capture
# tx t=010.338s 10240040#83FF880100D70000 note=lights probe day/off 10240040 family from connected capture variant 2/4
# tx t=010.338s 102CA040#0000000000000F00 note=lights probe neutral dimmer/illumination level
(1780162719.732000) can0 10210040#0000800000008000
(1780162719.732000) can0 10240040#83FF880100D70000
(1780162719.732000) can0 102CA040#0000000000000F00
# tx t=010.386s 10230040#3000000030000000 note=native BCM/body 10230040 captured counter/state cycle variant 4/4
# tx t=010.386s 1022E040#2000000020000000 note=native BCM/body 1022E040 key-on counter/state cycle variant 2/3
# tx t=010.386s 102CC040#0000C00000000000 note=lights probe day/off 102CC040 context from connected capture
(1780162719.780000) can0 10230040#3000000030000000
(1780162719.780000) can0 1022E040#2000000020000000
(1780162719.780000) can0 102CC040#0000C00000000000
# tx t=010.434s 13FFE040# note=native fake BCM/source 0x40 presence, captured-like cadence
# tx t=010.434s 10210040#0000800000008000 note=native BCM/body base status from IPC_disconnected capture
# tx t=010.434s 10240040#83FE880100D70FFD note=lights probe day/off 10240040 family from connected capture variant 3/4
# tx t=010.434s 102CA040#0000000000000F00 note=lights probe neutral dimmer/illumination level
(1780162719.828000) can0 13FFE040#
(1780162719.828000) can0 10210040#0000800000008000
(1780162719.828000) can0 10240040#83FE880100D70FFD
(1780162719.829000) can0 102CA040#0000000000000F00
# tx t=010.545s 10210040#0000800000008000 note=native BCM/body base status from IPC_disconnected capture
# tx t=010.545s 10240040#83FF880100D70FFD note=lights probe day/off 10240040 family from connected capture variant 4/4
# tx t=010.545s 102CA040#0000000000000F00 note=lights probe neutral dimmer/illumination level
(1780162719.939000) can0 10210040#0000800000008000
(1780162719.939000) can0 10240040#83FF880100D70FFD
(1780162719.939000) can0 102CA040#0000000000000F00
(1780162719.940000) can0 13FFE060#
# tx t=010.638s 621#0052000000000000 note=native key-on network-management context
# tx t=010.638s 10210040#0000800000008000 note=native BCM/body base status from IPC_disconnected capture
# tx t=010.638s 10264040#0000000000000000 note=native BCM/body base zero-status frame
# tx t=010.638s 102CA040#0000000000000F00 note=native BCM/body base 102CA040 context
# tx t=010.638s 10220040#1000000040080000 note=native BCM/body 10220040 key-on variant
# tx t=010.639s 10230040#0000000000000000 note=native BCM/body 10230040 captured counter/state cycle variant 1/4
# tx t=010.639s 1022E040#3000000030000000 note=native BCM/body 1022E040 key-on counter/state cycle variant 3/3
# tx t=010.639s 10240040#83FE880100D70FFD note=native BCM/body 10240040 key-on/second-turn variant 83FE880100D70FFD
# tx t=010.639s 102C0040#803C96B503 note=native BCM/body 102C0040 key-on captured context
# tx t=010.639s 10754040#040400 note=native key/body context immediate key-on hold variant
# tx t=010.639s 10242040#02 note=native 10242040 immediate second-turn/key-on hold state
# tx t=010.639s 10240040#83FE880100D70000 note=lights probe day/off 10240040 family from connected capture variant 1/4
# tx t=010.639s 102CC040#0000C00000000000 note=lights probe day/off 102CC040 context from connected capture
# tx t=010.639s 102CA040#0000000000000F00 note=lights probe neutral dimmer/illumination level
(1780162720.033000) can0 621#0052000000000000
(1780162720.033000) can0 10210040#0000800000008000
(1780162720.033000) can0 10264040#0000000000000000
(1780162720.035000) can0 102CA040#0000000000000F00
(1780162720.039000) can0 10220040#1000000040080000
(1780162720.044000) can0 10230040#0000000000000000
(1780162720.063000) can0 1022E040#3000000030000000
(1780162720.064000) can0 10240040#83FE880100D70FFD
(1780162720.064000) can0 102C0040#803C96B503
(1780162720.064000) can0 10754040#040400
(1780162720.066000) can0 10242040#02
(1780162720.069000) can0 10240040#83FE880100D70000
(1780162720.072000) can0 102CC040#0000C00000000000
(1780162720.074000) can0 102CA040#0000000000000F00
# tx t=010.733s 10210040#0000800000008000 note=native BCM/body base status from IPC_disconnected capture
# tx t=010.733s 10240040#83FF880100D70000 note=lights probe day/off 10240040 family from connected capture variant 2/4
# tx t=010.734s 102CA040#0000000000000F00 note=lights probe neutral dimmer/illumination level
(1780162720.127000) can0 10210040#0000800000008000
(1780162720.127000) can0 10240040#83FF880100D70000
(1780162720.127000) can0 102CA040#0000000000000F00
(1780162720.142000) can0 10244060#02
# tx t=010.844s 10210040#0000800000008000 note=native BCM/body base status from IPC_disconnected capture
# tx t=010.844s 10240040#83FE880100D70FFD note=lights probe day/off 10240040 family from connected capture variant 3/4
# tx t=010.844s 102CA040#0000000000000F00 note=lights probe neutral dimmer/illumination level
(1780162720.238000) can0 10210040#0000800000008000
(1780162720.238000) can0 10240040#83FE880100D70FFD
(1780162720.238000) can0 102CA040#0000000000000F00
# tx t=010.893s 10230040#1000000010000000 note=native BCM/body 10230040 captured counter/state cycle variant 2/4
# tx t=010.893s 1022E040#1000000010000000 note=native BCM/body 1022E040 key-on counter/state cycle variant 1/3
# tx t=010.893s 102CC040#0000C00000000000 note=lights probe day/off 102CC040 context from connected capture
(1780162720.287000) can0 10230040#1000000010000000
(1780162720.287000) can0 1022E040#1000000010000000
(1780162720.287000) can0 102CC040#0000C00000000000
# tx t=010.939s 10210040#0000800000008000 note=native BCM/body base status from IPC_disconnected capture
# tx t=010.939s 10240040#83FF880100D70FFD note=lights probe day/off 10240040 family from connected capture variant 4/4
# tx t=010.940s 102CA040#0000000000000F00 note=lights probe neutral dimmer/illumination level
(1780162720.333000) can0 10210040#0000800000008000
(1780162720.333000) can0 10240040#83FF880100D70FFD
(1780162720.333000) can0 102CA040#0000000000000F00
# tx t=011.034s 10210040#0000800000008000 note=native BCM/body base status from IPC_disconnected capture
# tx t=011.035s 10240040#83FE880100D70000 note=lights probe day/off 10240040 family from connected capture variant 1/4
# tx t=011.035s 102CA040#0000000000000F00 note=lights probe neutral dimmer/illumination level
(1780162720.428000) can0 10210040#0000800000008000
(1780162720.429000) can0 10240040#83FE880100D70000
(1780162720.429000) can0 102CA040#0000000000000F00
# tx t=011.131s 10210040#0000800000008000 note=native BCM/body base status from IPC_disconnected capture
# tx t=011.131s 10230040#2000000020000000 note=native BCM/body 10230040 captured counter/state cycle variant 3/4
# tx t=011.131s 1022E040#2000000020000000 note=native BCM/body 1022E040 key-on counter/state cycle variant 2/3
# tx t=011.131s 10240040#83FF880100D70000 note=lights probe day/off 10240040 family from connected capture variant 2/4
# tx t=011.131s 102CC040#0000C00000000000 note=lights probe day/off 102CC040 context from connected capture
# tx t=011.131s 102CA040#0000000000000F00 note=lights probe neutral dimmer/illumination level
(1780162720.525000) can0 10210040#0000800000008000
(1780162720.525000) can0 10230040#2000000020000000
(1780162720.525000) can0 1022E040#2000000020000000
(1780162720.528000) can0 10240040#83FF880100D70000
(1780162720.533000) can0 102CC040#0000C00000000000
(1780162720.537000) can0 102CA040#0000000000000F00
# tx t=011.242s 10210040#0000800000008000 note=native BCM/body base status from IPC_disconnected capture
# tx t=011.242s 10240040#83FE880100D70FFD note=lights probe day/off 10240040 family from connected capture variant 3/4
# tx t=011.242s 102CA040#0000000000000F00 note=lights probe neutral dimmer/illumination level
(1780162720.636000) can0 10210040#0000800000008000
(1780162720.636000) can0 10240040#83FE880100D70FFD
(1780162720.636000) can0 102CA040#0000000000000F00
# tx t=011.336s 10210040#0000800000008000 note=native BCM/body base status from IPC_disconnected capture
# tx t=011.336s 10240040#83FF880100D70FFD note=lights probe day/off 10240040 family from connected capture variant 4/4
# tx t=011.337s 102CA040#0000000000000F00 note=lights probe neutral dimmer/illumination level
(1780162720.730000) can0 10210040#0000800000008000
(1780162720.730000) can0 10240040#83FF880100D70FFD
(1780162720.731000) can0 102CA040#0000000000000F00
# tx t=011.384s 10230040#3000000030000000 note=native BCM/body 10230040 captured counter/state cycle variant 4/4
# tx t=011.384s 1022E040#3000000030000000 note=native BCM/body 1022E040 key-on counter/state cycle variant 3/3
# tx t=011.385s 102CC040#0000C00000000000 note=lights probe day/off 102CC040 context from connected capture
(1780162720.778000) can0 10230040#3000000030000000
(1780162720.779000) can0 1022E040#3000000030000000
(1780162720.779000) can0 102CC040#0000C00000000000
# tx t=011.432s 10210040#0000800000008000 note=native BCM/body base status from IPC_disconnected capture
# tx t=011.432s 10240040#83FE880100D70000 note=lights probe day/off 10240040 family from connected capture variant 1/4
# tx t=011.432s 102CA040#0000000000000F00 note=lights probe neutral dimmer/illumination level
(1780162720.826000) can0 10210040#0000800000008000
(1780162720.826000) can0 10240040#83FE880100D70000
(1780162720.826000) can0 102CA040#0000000000000F00
# tx t=011.544s 10210040#0000800000008000 note=native BCM/body base status from IPC_disconnected capture
# tx t=011.544s 10240040#83FF880100D70000 note=lights probe day/off 10240040 family from connected capture variant 2/4
# tx t=011.544s 102CA040#0000000000000F00 note=lights probe neutral dimmer/illumination level
(1780162720.938000) can0 10210040#0000800000008000
(1780162720.938000) can0 10240040#83FF880100D70000
(1780162720.938000) can0 102CA040#0000000000000F00
# tx t=011.639s 13FFE040# note=native fake BCM/source 0x40 presence, captured-like cadence
# tx t=011.639s 621#0052000000000000 note=native key-on network-management context
# tx t=011.639s 10210040#0000800000008000 note=native BCM/body base status from IPC_disconnected capture
# tx t=011.640s 10264040#0000000000000000 note=native BCM/body base zero-status frame
# tx t=011.640s 102CA040#0000000000000F00 note=native BCM/body base 102CA040 context
# tx t=011.640s 10220040#1000000040080000 note=native BCM/body 10220040 key-on variant
# tx t=011.640s 10230040#0000000000000000 note=native BCM/body 10230040 captured counter/state cycle variant 1/4
# tx t=011.640s 1022E040#1000000010000000 note=native BCM/body 1022E040 key-on counter/state cycle variant 1/3
# tx t=011.640s 10240040#83FE880100D70FFD note=native BCM/body 10240040 key-on/second-turn variant 83FE880100D70FFD
# tx t=011.640s 102C0040#803C96B503 note=native BCM/body 102C0040 key-on captured context
# tx t=011.640s 10754040#040400 note=native key/body context immediate key-on hold variant
# tx t=011.641s 10242040#02 note=native 10242040 immediate second-turn/key-on hold state
# tx t=011.641s 10240040#83FE880100D70FFD note=lights probe day/off 10240040 family from connected capture variant 3/4
# tx t=011.641s 102CC040#0000C00000000000 note=lights probe day/off 102CC040 context from connected capture
# tx t=011.641s 102CA040#0000000000000F00 note=lights probe neutral dimmer/illumination level
(1780162721.035000) can0 13FFE040#
(1780162721.035000) can0 621#0052000000000000
(1780162721.035000) can0 10210040#0000800000008000
(1780162721.035000) can0 10264040#0000000000000000
(1780162721.038000) can0 102CA040#0000000000000F00
(1780162721.043000) can0 10220040#1000000040080000
(1780162721.047000) can0 10230040#0000000000000000
(1780162721.051000) can0 1022E040#1000000010000000
(1780162721.056000) can0 10240040#83FE880100D70FFD
(1780162721.060000) can0 102C0040#803C96B503
(1780162721.080000) can0 10754040#040400
(1780162721.080000) can0 10242040#02
(1780162721.080000) can0 10240040#83FE880100D70FFD
(1780162721.080000) can0 102CC040#0000C00000000000
(1780162721.080000) can0 102CA040#0000000000000F00
# tx t=011.734s 10210040#0000800000008000 note=native BCM/body base status from IPC_disconnected capture
# tx t=011.734s 10240040#83FF880100D70FFD note=lights probe day/off 10240040 family from connected capture variant 4/4
# tx t=011.734s 102CA040#0000000000000F00 note=lights probe neutral dimmer/illumination level
(1780162721.128000) can0 10210040#0000800000008000
(1780162721.128000) can0 10240040#83FF880100D70FFD
(1780162721.128000) can0 102CA040#0000000000000F00
(1780162721.142000) can0 13FFE060#
(1780162721.151000) can0 62C#0040000000000000
# tx t=011.845s 10210040#0000800000008000 note=native BCM/body base status from IPC_disconnected capture
# tx t=011.845s 10240040#83FE880100D70000 note=lights probe day/off 10240040 family from connected capture variant 1/4
# tx t=011.845s 102CA040#0000000000000F00 note=lights probe neutral dimmer/illumination level
(1780162721.239000) can0 10210040#0000800000008000
(1780162721.239000) can0 10240040#83FE880100D70000
(1780162721.239000) can0 102CA040#0000000000000F00
# tx t=011.893s 10230040#1000000010000000 note=native BCM/body 10230040 captured counter/state cycle variant 2/4
# tx t=011.893s 1022E040#2000000020000000 note=native BCM/body 1022E040 key-on counter/state cycle variant 2/3
# tx t=011.893s 102CC040#0000C00000000000 note=lights probe day/off 102CC040 context from connected capture
(1780162721.287000) can0 10230040#1000000010000000
(1780162721.287000) can0 1022E040#2000000020000000
(1780162721.287000) can0 102CC040#0000C00000000000
# tx t=011.940s 10210040#0000800000008000 note=native BCM/body base status from IPC_disconnected capture
# tx t=011.940s 10240040#83FF880100D70000 note=lights probe day/off 10240040 family from connected capture variant 2/4
# tx t=011.940s 102CA040#0000000000000F00 note=lights probe neutral dimmer/illumination level
(1780162721.334000) can0 10210040#0000800000008000
(1780162721.334000) can0 10240040#83FF880100D70000
(1780162721.334000) can0 102CA040#0000000000000F00
# tx t=012.035s 10210040#0000800000008000 note=native BCM/body base status from IPC_disconnected capture
# tx t=012.035s 10240040#83FE880100D70FFD note=lights probe day/off 10240040 family from connected capture variant 3/4
# tx t=012.035s 102CA040#0000000000000F00 note=lights probe neutral dimmer/illumination level
(1780162721.429000) can0 10210040#0000800000008000
(1780162721.429000) can0 10240040#83FE880100D70FFD
# tx t=012.129s 10210040#0000800000008000 note=native BCM/body base status from IPC_disconnected capture
# tx t=012.130s 10230040#2000000020000000 note=native BCM/body 10230040 captured counter/state cycle variant 3/4
# tx t=012.130s 1022E040#3000000030000000 note=native BCM/body 1022E040 key-on counter/state cycle variant 3/3
# tx t=012.130s 10240040#83FF880100D70FFD note=lights probe day/off 10240040 family from connected capture variant 4/4
# tx t=012.130s 102CC040#0000C00000000000 note=lights probe day/off 102CC040 context from connected capture
# tx t=012.131s 102CA040#0000000000000F00 note=lights probe neutral dimmer/illumination level
(1780162721.524000) can0 10210040#0000800000008000
(1780162721.524000) can0 10230040#2000000020000000
(1780162721.524000) can0 1022E040#3000000030000000
(1780162721.527000) can0 10240040#83FF880100D70FFD
(1780162721.532000) can0 102CC040#0000C00000000000
(1780162721.536000) can0 102CA040#0000000000000F00
# tx t=012.238s 10210040#0000800000008000 note=native BCM/body base status from IPC_disconnected capture
# tx t=012.238s 10240040#83FE880100D70000 note=lights probe day/off 10240040 family from connected capture variant 1/4
# tx t=012.238s 102CA040#0000000000000F00 note=lights probe neutral dimmer/illumination level
(1780162721.632000) can0 10210040#0000800000008000
(1780162721.632000) can0 10240040#83FE880100D70000
(1780162721.632000) can0 102CA040#0000000000000F00
# tx t=012.331s 10210040#0000800000008000 note=native BCM/body base status from IPC_disconnected capture
# tx t=012.332s 10240040#83FF880100D70000 note=lights probe day/off 10240040 family from connected capture variant 2/4
# tx t=012.332s 102CA040#0000000000000F00 note=lights probe neutral dimmer/illumination level
(1780162721.725000) can0 10210040#0000800000008000
(1780162721.725000) can0 10240040#83FF880100D70000
(1780162721.726000) can0 102CA040#0000000000000F00
# tx t=012.393s 10230040#3000000030000000 note=native BCM/body 10230040 captured counter/state cycle variant 4/4
# tx t=012.393s 1022E040#1000000010000000 note=native BCM/body 1022E040 key-on counter/state cycle variant 1/3
# tx t=012.393s 102CC040#0000C00000000000 note=lights probe day/off 102CC040 context from connected capture
(1780162721.787000) can0 10230040#3000000030000000
(1780162721.787000) can0 1022E040#1000000010000000
(1780162721.787000) can0 102CC040#0000C00000000000
# tx t=012.440s 10210040#0000800000008000 note=native BCM/body base status from IPC_disconnected capture
# tx t=012.440s 10240040#83FE880100D70FFD note=lights probe day/off 10240040 family from connected capture variant 3/4
# tx t=012.440s 102CA040#0000000000000F00 note=lights probe neutral dimmer/illumination level
(1780162721.834000) can0 10210040#0000800000008000
(1780162721.834000) can0 10240040#83FE880100D70FFD
(1780162721.834000) can0 102CA040#0000000000000F00
# tx t=012.535s 10210040#0000800000008000 note=native BCM/body base status from IPC_disconnected capture
# tx t=012.536s 10240040#83FF880100D70FFD note=lights probe day/off 10240040 family from connected capture variant 4/4
# tx t=012.536s 102CA040#0000000000000F00 note=lights probe neutral dimmer/illumination level
(1780162721.929000) can0 10210040#0000800000008000
(1780162721.930000) can0 10240040#83FF880100D70FFD
(1780162721.930000) can0 102CA040#0000000000000F00
# tx t=012.630s 621#0052000000000000 note=native key-on network-management context
# tx t=012.630s 10210040#0000800000008000 note=native BCM/body base status from IPC_disconnected capture
# tx t=012.630s 10264040#0000000000000000 note=native BCM/body base zero-status frame
# tx t=012.631s 102CA040#0000000000000F00 note=native BCM/body base 102CA040 context
# tx t=012.631s 10220040#1000000040080000 note=native BCM/body 10220040 key-on variant
# tx t=012.631s 10230040#0000000000000000 note=native BCM/body 10230040 captured counter/state cycle variant 1/4
# tx t=012.631s 1022E040#2000000020000000 note=native BCM/body 1022E040 key-on counter/state cycle variant 2/3
# tx t=012.631s 10240040#83FE880100D70FFD note=native BCM/body 10240040 key-on/second-turn variant 83FE880100D70FFD
# tx t=012.631s 102C0040#803C96B503 note=native BCM/body 102C0040 key-on captured context
# tx t=012.631s 10754040#040400 note=native key/body context immediate key-on hold variant
# tx t=012.632s 10242040#02 note=native 10242040 immediate second-turn/key-on hold state
# tx t=012.632s 10240040#83FE880100D70000 note=lights probe day/off 10240040 family from connected capture variant 1/4
# tx t=012.632s 102CC040#0000C00000000000 note=lights probe day/off 102CC040 context from connected capture
# tx t=012.632s 102CA040#0000000000000F00 note=lights probe neutral dimmer/illumination level
(1780162722.026000) can0 621#0052000000000000
(1780162722.026000) can0 10210040#0000800000008000
(1780162722.026000) can0 10264040#0000000000000000
(1780162722.027000) can0 102CA040#0000000000000F00
(1780162722.031000) can0 10220040#1000000040080000
(1780162722.036000) can0 10230040#0000000000000000
(1780162722.055000) can0 1022E040#2000000020000000
(1780162722.056000) can0 10240040#83FE880100D70FFD
(1780162722.056000) can0 102C0040#803C96B503
(1780162722.056000) can0 10754040#040400
(1780162722.058000) can0 10242040#02
(1780162722.061000) can0 10240040#83FE880100D70000
(1780162722.064000) can0 102CC040#0000C00000000000
(1780162722.067000) can0 102CA040#0000000000000F00
# tx t=012.741s 10210040#0000800000008000 note=native BCM/body base status from IPC_disconnected capture
# tx t=012.741s 10240040#83FF880100D70000 note=lights probe day/off 10240040 family from connected capture variant 2/4
# tx t=012.741s 102CA040#0000000000000F00 note=lights probe neutral dimmer/illumination level
(1780162722.134000) can0 10210040#0000800000008000
(1780162722.135000) can0 10240040#83FF880100D70000
(1780162722.135000) can0 102CA040#0000000000000F00
# tx t=012.836s 13FFE040# note=native fake BCM/source 0x40 presence, captured-like cadence
# tx t=012.836s 10210040#0000800000008000 note=native BCM/body base status from IPC_disconnected capture
# tx t=012.836s 10240040#83FE880100D70FFD note=lights probe day/off 10240040 family from connected capture variant 3/4
# tx t=012.837s 102CA040#0000000000000F00 note=lights probe neutral dimmer/illumination level
(1780162722.230000) can0 13FFE040#
(1780162722.230000) can0 10210040#0000800000008000
(1780162722.230000) can0 10240040#83FE880100D70FFD
(1780162722.232000) can0 102CA040#0000000000000F00
# tx t=012.884s 10230040#1000000010000000 note=native BCM/body 10230040 captured counter/state cycle variant 2/4
# tx t=012.884s 1022E040#3000000030000000 note=native BCM/body 1022E040 key-on counter/state cycle variant 3/3
# tx t=012.884s 102CC040#0000C00000000000 note=lights probe day/off 102CC040 context from connected capture
(1780162722.278000) can0 10230040#1000000010000000
(1780162722.278000) can0 1022E040#3000000030000000
(1780162722.278000) can0 102CC040#0000C00000000000
# tx t=012.932s 10210040#0000800000008000 note=native BCM/body base status from IPC_disconnected capture
# tx t=012.932s 10240040#83FF880100D70FFD note=lights probe day/off 10240040 family from connected capture variant 4/4
# tx t=012.932s 102CA040#0000000000000F00 note=lights probe neutral dimmer/illumination level
(1780162722.326000) can0 10210040#0000800000008000
(1780162722.326000) can0 10240040#83FF880100D70FFD
(1780162722.326000) can0 102CA040#0000000000000F00
(1780162722.340000) can0 13FFE060#
# tx t=013.041s 10210040#0000800000008000 note=native BCM/body base status from IPC_disconnected capture
# tx t=013.041s 10240040#83FE880100D70000 note=lights probe day/off 10240040 family from connected capture variant 1/4
# tx t=013.042s 102CA040#0000000000000F00 note=lights probe neutral dimmer/illumination level
(1780162722.435000) can0 10210040#0000800000008000
(1780162722.435000) can0 10240040#83FE880100D70000
(1780162722.435000) can0 102CA040#0000000000000F00
# tx t=013.137s 10210040#0000800000008000 note=native BCM/body base status from IPC_disconnected capture
# tx t=013.137s 10230040#2000000020000000 note=native BCM/body 10230040 captured counter/state cycle variant 3/4
# tx t=013.137s 1022E040#1000000010000000 note=native BCM/body 1022E040 key-on counter/state cycle variant 1/3
# tx t=013.137s 10240040#83FF880100D70000 note=lights probe day/off 10240040 family from connected capture variant 2/4
# tx t=013.137s 102CC040#0000C00000000000 note=lights probe day/off 102CC040 context from connected capture
# tx t=013.137s 102CA040#0000000000000F00 note=lights probe neutral dimmer/illumination level
(1780162722.531000) can0 10210040#0000800000008000
(1780162722.531000) can0 10230040#2000000020000000
(1780162722.531000) can0 1022E040#1000000010000000
(1780162722.534000) can0 10240040#83FF880100D70000
(1780162722.539000) can0 102CC040#0000C00000000000
(1780162722.543000) can0 102CA040#0000000000000F00
# tx t=013.232s 10210040#0000800000008000 note=native BCM/body base status from IPC_disconnected capture
# tx t=013.232s 10240040#83FE880100D70FFD note=lights probe day/off 10240040 family from connected capture variant 3/4
# tx t=013.232s 102CA040#0000000000000F00 note=lights probe neutral dimmer/illumination level
(1780162722.626000) can0 10210040#0000800000008000
(1780162722.626000) can0 10240040#83FE880100D70FFD
(1780162722.626000) can0 102CA040#0000000000000F00
# tx t=013.343s 10210040#0000800000008000 note=native BCM/body base status from IPC_disconnected capture
# tx t=013.343s 10240040#83FF880100D70FFD note=lights probe day/off 10240040 family from connected capture variant 4/4
# tx t=013.344s 102CA040#0000000000000F00 note=lights probe neutral dimmer/illumination level
(1780162722.737000) can0 10210040#0000800000008000
(1780162722.738000) can0 10240040#83FF880100D70FFD
(1780162722.738000) can0 102CA040#0000000000000F00
# tx t=013.391s 10230040#3000000030000000 note=native BCM/body 10230040 captured counter/state cycle variant 4/4
# tx t=013.391s 1022E040#2000000020000000 note=native BCM/body 1022E040 key-on counter/state cycle variant 2/3
# tx t=013.391s 102CC040#0000C00000000000 note=lights probe day/off 102CC040 context from connected capture
(1780162722.785000) can0 10230040#3000000030000000
(1780162722.785000) can0 1022E040#2000000020000000
(1780162722.785000) can0 102CC040#0000C00000000000
# tx t=013.438s 10210040#0000800000008000 note=native BCM/body base status from IPC_disconnected capture
# tx t=013.438s 10240040#83FE880100D70000 note=lights probe day/off 10240040 family from connected capture variant 1/4
# tx t=013.438s 102CA040#0000000000000F00 note=lights probe neutral dimmer/illumination level
(1780162722.832000) can0 10210040#0000800000008000
(1780162722.832000) can0 10240040#83FE880100D70000
(1780162722.832000) can0 102CA040#0000000000000F00
# tx t=013.533s 10210040#0000800000008000 note=native BCM/body base status from IPC_disconnected capture
# tx t=013.533s 10240040#83FF880100D70000 note=lights probe day/off 10240040 family from connected capture variant 2/4
# tx t=013.533s 102CA040#0000000000000F00 note=lights probe neutral dimmer/illumination level
(1780162722.927000) can0 10210040#0000800000008000
(1780162722.927000) can0 10240040#83FF880100D70000
(1780162722.927000) can0 102CA040#0000000000000F00
# tx t=013.645s 621#0052000000000000 note=native key-on network-management context
# tx t=013.645s 10210040#0000800000008000 note=native BCM/body base status from IPC_disconnected capture
# tx t=013.645s 10264040#0000000000000000 note=native BCM/body base zero-status frame
# tx t=013.645s 102CA040#0000000000000F00 note=native BCM/body base 102CA040 context
# tx t=013.645s 10220040#1000000040080000 note=native BCM/body 10220040 key-on variant
# tx t=013.646s 10230040#0000000000000000 note=native BCM/body 10230040 captured counter/state cycle variant 1/4
# tx t=013.646s 1022E040#3000000030000000 note=native BCM/body 1022E040 key-on counter/state cycle variant 3/3
# tx t=013.646s 10240040#83FE880100D70FFD note=native BCM/body 10240040 key-on/second-turn variant 83FE880100D70FFD
# tx t=013.646s 102C0040#803C96B503 note=native BCM/body 102C0040 key-on captured context
# tx t=013.646s 10754040#040400 note=native key/body context immediate key-on hold variant
# tx t=013.646s 10242040#02 note=native 10242040 immediate second-turn/key-on hold state
(1780162723.040000) can0 621#0052000000000000
(1780162723.040000) can0 10210040#0000800000008000
(1780162723.040000) can0 10264040#0000000000000000
(1780162723.042000) can0 102CA040#0000000000000F00
(1780162723.046000) can0 10220040#1000000040080000
(1780162723.051000) can0 10230040#0000000000000000
(1780162723.069000) can0 1022E040#3000000030000000
(1780162723.069000) can0 10240040#83FE880100D70FFD
(1780162723.069000) can0 102C0040#803C96B503
(1780162723.070000) can0 10754040#040400
(1780162723.073000) can0 10242040#02
# tx t=013.738s 10210040#0000800000008000 note=native BCM/body base status from IPC_disconnected capture
(1780162723.132000) can0 10210040#0000800000008000
# tx t=013.833s 10210040#0000800000008000 note=native BCM/body base status from IPC_disconnected capture
(1780162723.226000) can0 10210040#0000800000008000
# tx t=013.881s 10230040#1000000010000000 note=native BCM/body 10230040 captured counter/state cycle variant 2/4
# tx t=013.881s 1022E040#1000000010000000 note=native BCM/body 1022E040 key-on counter/state cycle variant 1/3
(1780162723.275000) can0 10230040#1000000010000000
(1780162723.275000) can0 1022E040#1000000010000000
# tx t=013.944s 10210040#0000800000008000 note=native BCM/body base status from IPC_disconnected capture
(1780162723.338000) can0 10210040#0000800000008000
# tx t=014.038s 13FFE040# note=native fake BCM/source 0x40 presence, captured-like cadence
# tx t=014.038s 10210040#0000800000008000 note=native BCM/body base status from IPC_disconnected capture
(1780162723.431000) can0 13FFE040#
(1780162723.432000) can0 10210040#0000800000008000
# tx t=014.133s 10210040#0000800000008000 note=native BCM/body base status from IPC_disconnected capture
# tx t=014.134s 10230040#2000000020000000 note=native BCM/body 10230040 captured counter/state cycle variant 3/4
# tx t=014.134s 1022E040#2000000020000000 note=native BCM/body 1022E040 key-on counter/state cycle variant 2/3
(1780162723.527000) can0 10210040#0000800000008000
(1780162723.527000) can0 10230040#2000000020000000
(1780162723.528000) can0 1022E040#2000000020000000
(1780162723.542000) can0 13FFE060#
# tx t=014.244s 10210040#0000800000008000 note=native BCM/body base status from IPC_disconnected capture
(1780162723.637000) can0 10210040#0000800000008000
# tx t=014.337s 10210040#0000800000008000 note=native BCM/body base status from IPC_disconnected capture
(1780162723.731000) can0 10210040#0000800000008000
# tx t=014.384s 10230040#3000000030000000 note=native BCM/body 10230040 captured counter/state cycle variant 4/4
# tx t=014.385s 1022E040#3000000030000000 note=native BCM/body 1022E040 key-on counter/state cycle variant 3/3
(1780162723.778000) can0 10230040#3000000030000000
(1780162723.778000) can0 1022E040#3000000030000000
# tx t=014.432s 10210040#0000800000008000 note=native BCM/body base status from IPC_disconnected capture
(1780162723.825000) can0 10210040#0000800000008000
# tx t=014.541s 10210040#0000800000008000 note=native BCM/body base status from IPC_disconnected capture
(1780162723.935000) can0 10210040#0000800000008000
# tx t=014.637s 621#0052000000000000 note=native key-on network-management context
# tx t=014.637s 10210040#0000800000008000 note=native BCM/body base status from IPC_disconnected capture
# tx t=014.637s 10264040#0000000000000000 note=native BCM/body base zero-status frame
# tx t=014.637s 102CA040#0000000000000F00 note=native BCM/body base 102CA040 context
# tx t=014.637s 10220040#1000000040080000 note=native BCM/body 10220040 key-on variant
# tx t=014.637s 10230040#0000000000000000 note=native BCM/body 10230040 captured counter/state cycle variant 1/4
# tx t=014.638s 1022E040#1000000010000000 note=native BCM/body 1022E040 key-on counter/state cycle variant 1/3
# tx t=014.638s 10240040#83FE880100D70FFD note=native BCM/body 10240040 key-on/second-turn variant 83FE880100D70FFD
# tx t=014.638s 102C0040#803C96B503 note=native BCM/body 102C0040 key-on captured context
# tx t=014.638s 10754040#040400 note=native key/body context immediate key-on hold variant
# tx t=014.638s 10242040#02 note=native 10242040 immediate second-turn/key-on hold state
(1780162724.032000) can0 621#0052000000000000
(1780162724.032000) can0 10210040#0000800000008000
(1780162724.032000) can0 10264040#0000000000000000
(1780162724.034000) can0 102CA040#0000000000000F00
(1780162724.038000) can0 10220040#1000000040080000
(1780162724.042000) can0 10230040#0000000000000000
(1780162724.061000) can0 1022E040#1000000010000000
(1780162724.061000) can0 10240040#83FE880100D70FFD
(1780162724.061000) can0 102C0040#803C96B503
(1780162724.061000) can0 10754040#040400
(1780162724.064000) can0 10242040#02
# tx t=014.730s 10210040#0000800000008000 note=native BCM/body base status from IPC_disconnected capture
(1780162724.124000) can0 10210040#0000800000008000
(1780162724.154000) can0 62C#0040000000000000
# tx t=014.839s 10210040#0000800000008000 note=native BCM/body base status from IPC_disconnected capture
(1780162724.232000) can0 10210040#0000800000008000
# tx t=014.885s 10230040#1000000010000000 note=native BCM/body 10230040 captured counter/state cycle variant 2/4
# tx t=014.885s 1022E040#2000000020000000 note=native BCM/body 1022E040 key-on counter/state cycle variant 2/3
(1780162724.279000) can0 10230040#1000000010000000
(1780162724.279000) can0 1022E040#2000000020000000
# tx t=014.931s 10210040#0000800000008000 note=native BCM/body base status from IPC_disconnected capture
(1780162724.325000) can0 10210040#0000800000008000
# tx t=015.042s 10210040#0000800000008000 note=native BCM/body base status from IPC_disconnected capture
(1780162724.436000) can0 10210040#0000800000008000
# tx t=015.138s 10210040#0000800000008000 note=native BCM/body base status from IPC_disconnected capture
# tx t=015.138s 10230040#2000000020000000 note=native BCM/body 10230040 captured counter/state cycle variant 3/4
# tx t=015.138s 1022E040#3000000030000000 note=native BCM/body 1022E040 key-on counter/state cycle variant 3/3
(1780162724.532000) can0 10210040#0000800000008000
(1780162724.532000) can0 10230040#2000000020000000
(1780162724.532000) can0 1022E040#3000000030000000
# tx t=015.232s 13FFE040# note=native fake BCM/source 0x40 presence, captured-like cadence
# tx t=015.233s 10210040#0000800000008000 note=native BCM/body base status from IPC_disconnected capture
(1780162724.626000) can0 13FFE040#
(1780162724.626000) can0 10210040#0000800000008000
# tx t=015.342s 10210040#0000800000008000 note=native BCM/body base status from IPC_disconnected capture
(1780162724.736000) can0 10210040#0000800000008000
(1780162724.737000) can0 13FFE060#
# tx t=015.389s 10230040#3000000030000000 note=native BCM/body 10230040 captured counter/state cycle variant 4/4
# tx t=015.389s 1022E040#1000000010000000 note=native BCM/body 1022E040 key-on counter/state cycle variant 1/3
(1780162724.783000) can0 10230040#3000000030000000
(1780162724.783000) can0 1022E040#1000000010000000
# tx t=015.435s 10210040#0000800000008000 note=native BCM/body base status from IPC_disconnected capture
(1780162724.829000) can0 10210040#0000800000008000
# tx t=015.530s 10210040#0000800000008000 note=native BCM/body base status from IPC_disconnected capture
(1780162724.924000) can0 10210040#0000800000008000
# tx t=015.640s 621#0052000000000000 note=native key-on network-management context
# tx t=015.641s 10210040#0000800000008000 note=native BCM/body base status from IPC_disconnected capture
# tx t=015.641s 10264040#0000000000000000 note=native BCM/body base zero-status frame
# tx t=015.641s 102CA040#0000000000000F00 note=native BCM/body base 102CA040 context
# tx t=015.641s 10220040#1000000040080000 note=native BCM/body 10220040 key-on variant
# tx t=015.641s 10230040#0000000000000000 note=native BCM/body 10230040 captured counter/state cycle variant 1/4
# tx t=015.641s 1022E040#2000000020000000 note=native BCM/body 1022E040 key-on counter/state cycle variant 2/3
# tx t=015.641s 10240040#83FE880100D70FFD note=native BCM/body 10240040 key-on/second-turn variant 83FE880100D70FFD
# tx t=015.641s 102C0040#803C96B503 note=native BCM/body 102C0040 key-on captured context
# tx t=015.641s 10754040#040400 note=native key/body context immediate key-on hold variant
# tx t=015.641s 10242040#02 note=native 10242040 immediate second-turn/key-on hold state
# tx t=015.642s 10240040#83FE8A1100D70000 note=lights probe night/lights-on 10240040 family from connected capture variant 1/4
# tx t=015.642s 102CC040#0400C00000000000 note=lights probe active 102CC040 lighting context from connected capture
(1780162725.035000) can0 621#0052000000000000
(1780162725.036000) can0 10210040#0000800000008000
(1780162725.036000) can0 10264040#0000000000000000
(1780162725.037000) can0 102CA040#0000000000000F00
(1780162725.042000) can0 10220040#1000000040080000
(1780162725.046000) can0 10230040#0000000000000000
(1780162725.066000) can0 1022E040#2000000020000000
(1780162725.066000) can0 10240040#83FE880100D70FFD
(1780162725.066000) can0 102C0040#803C96B503
(1780162725.066000) can0 10754040#040400
(1780162725.068000) can0 10242040#02
(1780162725.072000) can0 10240040#83FE8A1100D70000
(1780162725.075000) can0 102CC040#0400C00000000000
# tx t=015.735s 10210040#0000800000008000 note=native BCM/body base status from IPC_disconnected capture
# tx t=015.735s 10240040#83FF8A1100D70000 note=lights probe night/lights-on 10240040 family from connected capture variant 2/4
(1780162725.129000) can0 10210040#0000800000008000
(1780162725.129000) can0 10240040#83FF8A1100D70000
(1780162725.139000) can0 10244060#02
# tx t=015.830s 10210040#0000800000008000 note=native BCM/body base status from IPC_disconnected capture
# tx t=015.831s 10240040#83FE8A1100D70FFD note=lights probe night/lights-on 10240040 family from connected capture variant 3/4
(1780162725.224000) can0 10210040#0000800000008000
(1780162725.224000) can0 10240040#83FE8A1100D70FFD
# tx t=015.892s 10230040#1000000010000000 note=native BCM/body 10230040 captured counter/state cycle variant 2/4
# tx t=015.893s 1022E040#3000000030000000 note=native BCM/body 1022E040 key-on counter/state cycle variant 3/3
# tx t=015.893s 102CC040#0400C00000000000 note=lights probe active 102CC040 lighting context from connected capture
(1780162725.286000) can0 10230040#1000000010000000
(1780162725.287000) can0 1022E040#3000000030000000
(1780162725.287000) can0 102CC040#0400C00000000000
# tx t=015.939s 10210040#0000800000008000 note=native BCM/body base status from IPC_disconnected capture
# tx t=015.939s 10240040#83FF8A1100D70FFD note=lights probe night/lights-on 10240040 family from connected capture variant 4/4
(1780162725.332000) can0 10210040#0000800000008000
(1780162725.332000) can0 10240040#83FF8A1100D70FFD
# tx t=016.032s 10210040#0000800000008000 note=native BCM/body base status from IPC_disconnected capture
# tx t=016.032s 10240040#83FE8A1100D70000 note=lights probe night/lights-on 10240040 family from connected capture variant 1/4
(1780162725.426000) can0 10210040#0000800000008000
(1780162725.426000) can0 10240040#83FE8A1100D70000
# tx t=016.142s 10210040#0000800000008000 note=native BCM/body base status from IPC_disconnected capture
# tx t=016.142s 10230040#2000000020000000 note=native BCM/body 10230040 captured counter/state cycle variant 3/4
# tx t=016.142s 1022E040#1000000010000000 note=native BCM/body 1022E040 key-on counter/state cycle variant 1/3
# tx t=016.143s 10240040#83FF8A1100D70000 note=lights probe night/lights-on 10240040 family from connected capture variant 2/4
# tx t=016.143s 102CC040#0400C00000000000 note=lights probe active 102CC040 lighting context from connected capture
(1780162725.536000) can0 10210040#0000800000008000
(1780162725.537000) can0 10230040#2000000020000000
(1780162725.537000) can0 1022E040#1000000010000000
(1780162725.540000) can0 10240040#83FF8A1100D70000
(1780162725.544000) can0 102CC040#0400C00000000000
# tx t=016.235s 10210040#0000800000008000 note=native BCM/body base status from IPC_disconnected capture
# tx t=016.235s 10240040#83FE8A1100D70FFD note=lights probe night/lights-on 10240040 family from connected capture variant 3/4
(1780162725.629000) can0 10210040#0000800000008000
(1780162725.629000) can0 10240040#83FE8A1100D70FFD
# tx t=016.331s 10210040#0000800000008000 note=native BCM/body base status from IPC_disconnected capture
# tx t=016.331s 10240040#83FF8A1100D70FFD note=lights probe night/lights-on 10240040 family from connected capture variant 4/4
(1780162725.724000) can0 10210040#0000800000008000
(1780162725.725000) can0 10240040#83FF8A1100D70FFD
# tx t=016.393s 10230040#3000000030000000 note=native BCM/body 10230040 captured counter/state cycle variant 4/4
# tx t=016.393s 1022E040#2000000020000000 note=native BCM/body 1022E040 key-on counter/state cycle variant 2/3
# tx t=016.393s 102CC040#0400C00000000000 note=lights probe active 102CC040 lighting context from connected capture
(1780162725.787000) can0 10230040#3000000030000000
(1780162725.787000) can0 1022E040#2000000020000000
(1780162725.787000) can0 102CC040#0400C00000000000
# tx t=016.440s 13FFE040# note=native fake BCM/source 0x40 presence, captured-like cadence
# tx t=016.440s 10210040#0000800000008000 note=native BCM/body base status from IPC_disconnected capture
# tx t=016.440s 10240040#83FE8A1100D70000 note=lights probe night/lights-on 10240040 family from connected capture variant 1/4
(1780162725.834000) can0 13FFE040#
(1780162725.834000) can0 10210040#0000800000008000
(1780162725.834000) can0 10240040#83FE8A1100D70000
# tx t=016.535s 10210040#0000800000008000 note=native BCM/body base status from IPC_disconnected capture
# tx t=016.535s 10240040#83FF8A1100D70000 note=lights probe night/lights-on 10240040 family from connected capture variant 2/4
(1780162725.929000) can0 10210040#0000800000008000
(1780162725.929000) can0 10240040#83FF8A1100D70000
(1780162725.939000) can0 13FFE060#
# tx t=016.644s 621#0052000000000000 note=native key-on network-management context
# tx t=016.645s 10210040#0000800000008000 note=native BCM/body base status from IPC_disconnected capture
# tx t=016.645s 10264040#0000000000000000 note=native BCM/body base zero-status frame
# tx t=016.645s 102CA040#0000000000000F00 note=native BCM/body base 102CA040 context
# tx t=016.645s 10220040#1000000040080000 note=native BCM/body 10220040 key-on variant
# tx t=016.645s 10230040#0000000000000000 note=native BCM/body 10230040 captured counter/state cycle variant 1/4
# tx t=016.645s 1022E040#3000000030000000 note=native BCM/body 1022E040 key-on counter/state cycle variant 3/3
# tx t=016.645s 10240040#83FE880100D70FFD note=native BCM/body 10240040 key-on/second-turn variant 83FE880100D70FFD
# tx t=016.646s 102C0040#803C96B503 note=native BCM/body 102C0040 key-on captured context
# tx t=016.646s 10754040#040400 note=native key/body context immediate key-on hold variant
# tx t=016.646s 10242040#02 note=native 10242040 immediate second-turn/key-on hold state
# tx t=016.646s 10240040#83FE8A1100D70FFD note=lights probe night/lights-on 10240040 family from connected capture variant 3/4
# tx t=016.646s 102CC040#0400C00000000000 note=lights probe active 102CC040 lighting context from connected capture
(1780162726.039000) can0 621#0052000000000000
(1780162726.040000) can0 10210040#0000800000008000
(1780162726.040000) can0 10264040#0000000000000000
(1780162726.042000) can0 102CA040#0000000000000F00
(1780162726.046000) can0 10220040#1000000040080000
(1780162726.050000) can0 10230040#0000000000000000
(1780162726.070000) can0 1022E040#3000000030000000
(1780162726.070000) can0 10240040#83FE880100D70FFD
(1780162726.070000) can0 102C0040#803C96B503
(1780162726.070000) can0 10754040#040400
(1780162726.072000) can0 10242040#02
(1780162726.076000) can0 10240040#83FE8A1100D70FFD
(1780162726.079000) can0 102CC040#0400C00000000000
# tx t=016.740s 10210040#0000800000008000 note=native BCM/body base status from IPC_disconnected capture
# tx t=016.740s 10240040#83FF8A1100D70FFD note=lights probe night/lights-on 10240040 family from connected capture variant 4/4
(1780162726.134000) can0 10210040#0000800000008000
(1780162726.134000) can0 10240040#83FF8A1100D70FFD
# tx t=016.835s 10210040#0000800000008000 note=native BCM/body base status from IPC_disconnected capture
# tx t=016.836s 10240040#83FE8A1100D70000 note=lights probe night/lights-on 10240040 family from connected capture variant 1/4
(1780162726.229000) can0 10210040#0000800000008000
(1780162726.230000) can0 10240040#83FE8A1100D70000
# tx t=016.884s 10230040#1000000010000000 note=native BCM/body 10230040 captured counter/state cycle variant 2/4
# tx t=016.884s 1022E040#1000000010000000 note=native BCM/body 1022E040 key-on counter/state cycle variant 1/3
# tx t=016.884s 102CC040#0400C00000000000 note=lights probe active 102CC040 lighting context from connected capture
(1780162726.277000) can0 10230040#1000000010000000
(1780162726.278000) can0 1022E040#1000000010000000
(1780162726.278000) can0 102CC040#0400C00000000000
# tx t=016.931s 10210040#0000800000008000 note=native BCM/body base status from IPC_disconnected capture
# tx t=016.931s 10240040#83FF8A1100D70000 note=lights probe night/lights-on 10240040 family from connected capture variant 2/4
(1780162726.325000) can0 10210040#0000800000008000
(1780162726.325000) can0 10240040#83FF8A1100D70000
# tx t=017.041s 10210040#0000800000008000 note=native BCM/body base status from IPC_disconnected capture
# tx t=017.041s 10240040#83FE8A1100D70FFD note=lights probe night/lights-on 10240040 family from connected capture variant 3/4
(1780162726.434000) can0 10210040#0000800000008000
(1780162726.434000) can0 10240040#83FE8A1100D70FFD
# tx t=017.136s 10210040#0000800000008000 note=native BCM/body base status from IPC_disconnected capture
# tx t=017.136s 10230040#2000000020000000 note=native BCM/body 10230040 captured counter/state cycle variant 3/4
# tx t=017.136s 1022E040#2000000020000000 note=native BCM/body 1022E040 key-on counter/state cycle variant 2/3
# tx t=017.136s 10240040#83FF8A1100D70FFD note=lights probe night/lights-on 10240040 family from connected capture variant 4/4
# tx t=017.137s 102CC040#0400C00000000000 note=lights probe active 102CC040 lighting context from connected capture
(1780162726.530000) can0 10210040#0000800000008000
(1780162726.530000) can0 10230040#2000000020000000
(1780162726.530000) can0 1022E040#2000000020000000
(1780162726.534000) can0 10240040#83FF8A1100D70FFD
(1780162726.538000) can0 102CC040#0400C00000000000
# tx t=017.231s 10210040#0000800000008000 note=native BCM/body base status from IPC_disconnected capture
# tx t=017.231s 10240040#83FE8A1100D70000 note=lights probe night/lights-on 10240040 family from connected capture variant 1/4
(1780162726.625000) can0 10210040#0000800000008000
(1780162726.625000) can0 10240040#83FE8A1100D70000
# tx t=017.341s 10210040#0000800000008000 note=native BCM/body base status from IPC_disconnected capture
# tx t=017.341s 10240040#83FF8A1100D70000 note=lights probe night/lights-on 10240040 family from connected capture variant 2/4
(1780162726.734000) can0 10210040#0000800000008000
(1780162726.734000) can0 10240040#83FF8A1100D70000
# tx t=017.389s 10230040#3000000030000000 note=native BCM/body 10230040 captured counter/state cycle variant 4/4
# tx t=017.389s 1022E040#3000000030000000 note=native BCM/body 1022E040 key-on counter/state cycle variant 3/3
# tx t=017.389s 102CC040#0400C00000000000 note=lights probe active 102CC040 lighting context from connected capture
(1780162726.783000) can0 10230040#3000000030000000
(1780162726.783000) can0 1022E040#3000000030000000
(1780162726.783000) can0 102CC040#0400C00000000000
# tx t=017.436s 10210040#0000800000008000 note=native BCM/body base status from IPC_disconnected capture
# tx t=017.436s 10240040#83FE8A1100D70FFD note=lights probe night/lights-on 10240040 family from connected capture variant 3/4
(1780162726.830000) can0 10210040#0000800000008000
(1780162726.830000) can0 10240040#83FE8A1100D70FFD
# tx t=017.531s 10210040#0000800000008000 note=native BCM/body base status from IPC_disconnected capture
# tx t=017.531s 10240040#83FF8A1100D70FFD note=lights probe night/lights-on 10240040 family from connected capture variant 4/4
(1780162726.924000) can0 10210040#0000800000008000
(1780162726.925000) can0 10240040#83FF8A1100D70FFD
# tx t=017.641s 13FFE040# note=native fake BCM/source 0x40 presence, captured-like cadence
# tx t=017.641s 621#0052000000000000 note=native key-on network-management context
# tx t=017.642s 10210040#0000800000008000 note=native BCM/body base status from IPC_disconnected capture
# tx t=017.642s 10264040#0000000000000000 note=native BCM/body base zero-status frame
# tx t=017.642s 102CA040#0000000000000F00 note=native BCM/body base 102CA040 context
# tx t=017.642s 10220040#1000000040080000 note=native BCM/body 10220040 key-on variant
# tx t=017.642s 10230040#0000000000000000 note=native BCM/body 10230040 captured counter/state cycle variant 1/4
# tx t=017.642s 1022E040#1000000010000000 note=native BCM/body 1022E040 key-on counter/state cycle variant 1/3
# tx t=017.642s 10240040#83FE880100D70FFD note=native BCM/body 10240040 key-on/second-turn variant 83FE880100D70FFD
# tx t=017.643s 102C0040#803C96B503 note=native BCM/body 102C0040 key-on captured context
# tx t=017.643s 10754040#040400 note=native key/body context immediate key-on hold variant
# tx t=017.643s 10242040#02 note=native 10242040 immediate second-turn/key-on hold state
# tx t=017.643s 10240040#83FE8A1100D70000 note=lights probe night/lights-on 10240040 family from connected capture variant 1/4
# tx t=017.643s 102CC040#0400C00000000000 note=lights probe active 102CC040 lighting context from connected capture
# tx t=017.643s 102CA040#0000000000010F00 note=lights probe 102CA040 captured dimmer/illumination ramp: dimmer ramp low
(1780162727.037000) can0 13FFE040#
(1780162727.037000) can0 621#0052000000000000
(1780162727.037000) can0 10210040#0000800000008000
(1780162727.037000) can0 10264040#0000000000000000
(1780162727.041000) can0 102CA040#0000000000000F00
(1780162727.045000) can0 10220040#1000000040080000
(1780162727.049000) can0 10230040#0000000000000000
(1780162727.054000) can0 1022E040#1000000010000000
(1780162727.058000) can0 10240040#83FE880100D70FFD
(1780162727.063000) can0 102C0040#803C96B503
(1780162727.080000) can0 10754040#040400
(1780162727.081000) can0 10242040#02
(1780162727.081000) can0 10240040#83FE8A1100D70000
(1780162727.081000) can0 102CC040#0400C00000000000
(1780162727.081000) can0 102CA040#0000000000010F00
# tx t=017.735s 10210040#0000800000008000 note=native BCM/body base status from IPC_disconnected capture
# tx t=017.735s 10240040#83FF8A1100D70000 note=lights probe night/lights-on 10240040 family from connected capture variant 2/4
# tx t=017.735s 102CA040#0000000000010F00 note=lights probe 102CA040 captured dimmer/illumination ramp: dimmer ramp low
(1780162727.129000) can0 10210040#0000800000008000
(1780162727.129000) can0 10240040#83FF8A1100D70000
(1780162727.129000) can0 102CA040#0000000000010F00
(1780162727.159000) can0 13FFE060#
(1780162727.159000) can0 62C#0040000000000000
# tx t=017.845s 10210040#0000800000008000 note=native BCM/body base status from IPC_disconnected capture
# tx t=017.845s 10240040#83FE8A1100D70FFD note=lights probe night/lights-on 10240040 family from connected capture variant 3/4
# tx t=017.846s 102CA040#0000000000010F00 note=lights probe 102CA040 captured dimmer/illumination ramp: dimmer ramp low
(1780162727.239000) can0 10210040#0000800000008000
(1780162727.239000) can0 10240040#83FE8A1100D70FFD
(1780162727.239000) can0 102CA040#0000000000010F00
# tx t=017.893s 10230040#1000000010000000 note=native BCM/body 10230040 captured counter/state cycle variant 2/4
# tx t=017.893s 1022E040#2000000020000000 note=native BCM/body 1022E040 key-on counter/state cycle variant 2/3
# tx t=017.893s 102CC040#0400C00000000000 note=lights probe active 102CC040 lighting context from connected capture
(1780162727.287000) can0 10230040#1000000010000000
(1780162727.287000) can0 1022E040#2000000020000000
(1780162727.287000) can0 102CC040#0400C00000000000
# tx t=017.941s 10210040#0000800000008000 note=native BCM/body base status from IPC_disconnected capture
# tx t=017.941s 10240040#83FF8A1100D70FFD note=lights probe night/lights-on 10240040 family from connected capture variant 4/4
# tx t=017.941s 102CA040#0000000000010F00 note=lights probe 102CA040 captured dimmer/illumination ramp: dimmer ramp low
(1780162727.335000) can0 10210040#0000800000008000
(1780162727.335000) can0 10240040#83FF8A1100D70FFD
(1780162727.335000) can0 102CA040#0000000000010F00
# tx t=018.035s 10210040#0000800000008000 note=native BCM/body base status from IPC_disconnected capture
# tx t=018.035s 10240040#83FE8A1100D70000 note=lights probe night/lights-on 10240040 family from connected capture variant 1/4
# tx t=018.035s 102CA040#0000000000010F00 note=lights probe 102CA040 captured dimmer/illumination ramp: dimmer ramp low
(1780162727.429000) can0 10210040#0000800000008000
(1780162727.429000) can0 10240040#83FE8A1100D70000
(1780162727.429000) can0 102CA040#0000000000010F00
# tx t=018.145s 10210040#0000800000008000 note=native BCM/body base status from IPC_disconnected capture
# tx t=018.146s 10230040#2000000020000000 note=native BCM/body 10230040 captured counter/state cycle variant 3/4
# tx t=018.146s 1022E040#3000000030000000 note=native BCM/body 1022E040 key-on counter/state cycle variant 3/3
# tx t=018.146s 10240040#83FF8A1100D70000 note=lights probe night/lights-on 10240040 family from connected capture variant 2/4
# tx t=018.146s 102CC040#0400C00000000000 note=lights probe active 102CC040 lighting context from connected capture
# tx t=018.146s 102CA040#0000000000010F00 note=lights probe 102CA040 captured dimmer/illumination ramp: dimmer ramp low
(1780162727.540000) can0 10210040#0000800000008000
(1780162727.540000) can0 10230040#2000000020000000
(1780162727.540000) can0 1022E040#3000000030000000
(1780162727.543000) can0 10240040#83FF8A1100D70000
(1780162727.548000) can0 102CC040#0400C00000000000
(1780162727.552000) can0 102CA040#0000000000010F00
# tx t=018.241s 10210040#0000800000008000 note=native BCM/body base status from IPC_disconnected capture
# tx t=018.242s 10240040#83FE8A1100D70FFD note=lights probe night/lights-on 10240040 family from connected capture variant 3/4
# tx t=018.242s 102CA040#0000000000010F00 note=lights probe 102CA040 captured dimmer/illumination ramp: dimmer ramp low
(1780162727.636000) can0 10210040#0000800000008000
(1780162727.636000) can0 10240040#83FE8A1100D70FFD
(1780162727.636000) can0 102CA040#0000000000010F00
# tx t=018.336s 10210040#0000800000008000 note=native BCM/body base status from IPC_disconnected capture
# tx t=018.337s 10240040#83FF8A1100D70FFD note=lights probe night/lights-on 10240040 family from connected capture variant 4/4
# tx t=018.337s 102CA040#0000000000010F00 note=lights probe 102CA040 captured dimmer/illumination ramp: dimmer ramp low
(1780162727.730000) can0 10210040#0000800000008000
(1780162727.731000) can0 10240040#83FF8A1100D70FFD
(1780162727.731000) can0 102CA040#0000000000010F00
# tx t=018.384s 10230040#3000000030000000 note=native BCM/body 10230040 captured counter/state cycle variant 4/4
# tx t=018.384s 1022E040#1000000010000000 note=native BCM/body 1022E040 key-on counter/state cycle variant 1/3
# tx t=018.384s 102CC040#0400C00000000000 note=lights probe active 102CC040 lighting context from connected capture
(1780162727.778000) can0 10230040#3000000030000000
(1780162727.778000) can0 1022E040#1000000010000000
(1780162727.778000) can0 102CC040#0400C00000000000
# tx t=018.432s 10210040#0000800000008000 note=native BCM/body base status from IPC_disconnected capture
# tx t=018.432s 10240040#83FE8A1100D70000 note=lights probe night/lights-on 10240040 family from connected capture variant 1/4
# tx t=018.432s 102CA040#0000000000010F00 note=lights probe 102CA040 captured dimmer/illumination ramp: dimmer ramp low
(1780162727.826000) can0 10210040#0000800000008000
(1780162727.826000) can0 10240040#83FE8A1100D70000
(1780162727.826000) can0 102CA040#0000000000010F00
# tx t=018.541s 10210040#0000800000008000 note=native BCM/body base status from IPC_disconnected capture
# tx t=018.541s 10240040#83FF8A1100D70000 note=lights probe night/lights-on 10240040 family from connected capture variant 2/4
# tx t=018.541s 102CA040#0000000000010F00 note=lights probe 102CA040 captured dimmer/illumination ramp: dimmer ramp low
(1780162727.935000) can0 10210040#0000800000008000
(1780162727.935000) can0 10240040#83FF8A1100D70000
(1780162727.935000) can0 102CA040#0000000000010F00
# tx t=018.635s 621#0052000000000000 note=native key-on network-management context
# tx t=018.635s 10210040#0000800000008000 note=native BCM/body base status from IPC_disconnected capture
# tx t=018.635s 10264040#0000000000000000 note=native BCM/body base zero-status frame
# tx t=018.635s 102CA040#0000000000000F00 note=native BCM/body base 102CA040 context
# tx t=018.635s 10220040#1000000040080000 note=native BCM/body 10220040 key-on variant
# tx t=018.635s 10230040#0000000000000000 note=native BCM/body 10230040 captured counter/state cycle variant 1/4
# tx t=018.636s 1022E040#2000000020000000 note=native BCM/body 1022E040 key-on counter/state cycle variant 2/3
# tx t=018.636s 10240040#83FE880100D70FFD note=native BCM/body 10240040 key-on/second-turn variant 83FE880100D70FFD
# tx t=018.636s 102C0040#803C96B503 note=native BCM/body 102C0040 key-on captured context
# tx t=018.636s 10754040#040400 note=native key/body context immediate key-on hold variant
# tx t=018.636s 10242040#02 note=native 10242040 immediate second-turn/key-on hold state
# tx t=018.636s 10240040#83FE8A1100D70FFD note=lights probe night/lights-on 10240040 family from connected capture variant 3/4
# tx t=018.636s 102CC040#0400C00000000000 note=lights probe active 102CC040 lighting context from connected capture
# tx t=018.636s 102CA040#0000000000010F00 note=lights probe 102CA040 captured dimmer/illumination ramp: dimmer ramp low
(1780162728.030000) can0 621#0052000000000000
(1780162728.030000) can0 10210040#0000800000008000
(1780162728.030000) can0 10264040#0000000000000000
(1780162728.032000) can0 102CA040#0000000000000F00
(1780162728.036000) can0 10220040#1000000040080000
(1780162728.041000) can0 10230040#0000000000000000
(1780162728.060000) can0 1022E040#2000000020000000
(1780162728.060000) can0 10240040#83FE880100D70FFD
(1780162728.061000) can0 102C0040#803C96B503
(1780162728.061000) can0 10754040#040400
(1780162728.063000) can0 10242040#02
(1780162728.066000) can0 10240040#83FE8A1100D70FFD
(1780162728.069000) can0 102CC040#0400C00000000000
(1780162728.071000) can0 102CA040#0000000000010F00
# tx t=018.731s 10210040#0000800000008000 note=native BCM/body base status from IPC_disconnected capture
# tx t=018.731s 10240040#83FF8A1100D70FFD note=lights probe night/lights-on 10240040 family from connected capture variant 4/4
# tx t=018.731s 102CA040#0000000000010F00 note=lights probe 102CA040 captured dimmer/illumination ramp: dimmer ramp low
(1780162728.125000) can0 10210040#0000800000008000
(1780162728.125000) can0 10240040#83FF8A1100D70FFD
(1780162728.125000) can0 102CA040#0000000000010F00
# tx t=018.842s 13FFE040# note=native fake BCM/source 0x40 presence, captured-like cadence
# tx t=018.842s 10210040#0000800000008000 note=native BCM/body base status from IPC_disconnected capture
# tx t=018.842s 10240040#83FE8A1100D70000 note=lights probe night/lights-on 10240040 family from connected capture variant 1/4
# tx t=018.843s 102CA040#0000000000010F00 note=lights probe 102CA040 captured dimmer/illumination ramp: dimmer ramp low
(1780162728.236000) can0 13FFE040#
(1780162728.236000) can0 10210040#0000800000008000
(1780162728.236000) can0 10240040#83FE8A1100D70000
(1780162728.238000) can0 102CA040#0000000000010F00
# tx t=018.890s 10230040#1000000010000000 note=native BCM/body 10230040 captured counter/state cycle variant 2/4
# tx t=018.890s 1022E040#3000000030000000 note=native BCM/body 1022E040 key-on counter/state cycle variant 3/3
# tx t=018.890s 102CC040#0400C00000000000 note=lights probe active 102CC040 lighting context from connected capture
(1780162728.284000) can0 10230040#1000000010000000
(1780162728.284000) can0 1022E040#3000000030000000
(1780162728.284000) can0 102CC040#0400C00000000000
# tx t=018.938s 10210040#0000800000008000 note=native BCM/body base status from IPC_disconnected capture
# tx t=018.938s 10240040#83FF8A1100D70000 note=lights probe night/lights-on 10240040 family from connected capture variant 2/4
# tx t=018.938s 102CA040#0000000000010F00 note=lights probe 102CA040 captured dimmer/illumination ramp: dimmer ramp low
(1780162728.332000) can0 10210040#0000800000008000
(1780162728.332000) can0 10240040#83FF8A1100D70000
(1780162728.332000) can0 102CA040#0000000000010F00
(1780162728.347000) can0 13FFE060#
# tx t=019.032s 10210040#0000800000008000 note=native BCM/body base status from IPC_disconnected capture
# tx t=019.032s 10240040#83FE8A1100D70FFD note=lights probe night/lights-on 10240040 family from connected capture variant 3/4
# tx t=019.032s 102CA040#0000000000010F00 note=lights probe 102CA040 captured dimmer/illumination ramp: dimmer ramp low
(1780162728.426000) can0 10210040#0000800000008000
(1780162728.427000) can0 10240040#83FE8A1100D70FFD
(1780162728.427000) can0 102CA040#0000000000010F00
# tx t=019.143s 10210040#0000800000008000 note=native BCM/body base status from IPC_disconnected capture
# tx t=019.143s 10230040#2000000020000000 note=native BCM/body 10230040 captured counter/state cycle variant 3/4
# tx t=019.144s 1022E040#1000000010000000 note=native BCM/body 1022E040 key-on counter/state cycle variant 1/3
# tx t=019.144s 10240040#83FF8A1100D70FFD note=lights probe night/lights-on 10240040 family from connected capture variant 4/4
# tx t=019.144s 102CC040#0400C00000000000 note=lights probe active 102CC040 lighting context from connected capture
# tx t=019.144s 102CA040#0000000000270F00 note=lights probe 102CA040 captured dimmer/illumination ramp: dimmer ramp low-mid
(1780162728.538000) can0 10210040#0000800000008000
(1780162728.538000) can0 10230040#2000000020000000
(1780162728.538000) can0 1022E040#1000000010000000
(1780162728.541000) can0 10240040#83FF8A1100D70FFD
(1780162728.546000) can0 102CC040#0400C00000000000
(1780162728.550000) can0 102CA040#0000000000270F00
# tx t=019.238s 10210040#0000800000008000 note=native BCM/body base status from IPC_disconnected capture
# tx t=019.239s 10240040#83FE8A1100D70000 note=lights probe night/lights-on 10240040 family from connected capture variant 1/4
# tx t=019.239s 102CA040#0000000000270F00 note=lights probe 102CA040 captured dimmer/illumination ramp: dimmer ramp low-mid
(1780162728.632000) can0 10210040#0000800000008000
(1780162728.632000) can0 10240040#83FE8A1100D70000
(1780162728.633000) can0 102CA040#0000000000270F00
# tx t=019.333s 10210040#0000800000008000 note=native BCM/body base status from IPC_disconnected capture
# tx t=019.334s 10240040#83FF8A1100D70000 note=lights probe night/lights-on 10240040 family from connected capture variant 2/4
# tx t=019.334s 102CA040#0000000000270F00 note=lights probe 102CA040 captured dimmer/illumination ramp: dimmer ramp low-mid
(1780162728.728000) can0 10210040#0000800000008000
(1780162728.728000) can0 10240040#83FF8A1100D70000
(1780162728.728000) can0 102CA040#0000000000270F00
# tx t=019.381s 10230040#3000000030000000 note=native BCM/body 10230040 captured counter/state cycle variant 4/4
# tx t=019.381s 1022E040#2000000020000000 note=native BCM/body 1022E040 key-on counter/state cycle variant 2/3
# tx t=019.381s 102CC040#0400C00000000000 note=lights probe active 102CC040 lighting context from connected capture
(1780162728.775000) can0 10230040#3000000030000000
(1780162728.775000) can0 1022E040#2000000020000000
(1780162728.775000) can0 102CC040#0400C00000000000
# tx t=019.444s 10210040#0000800000008000 note=native BCM/body base status from IPC_disconnected capture
# tx t=019.444s 10240040#83FE8A1100D70FFD note=lights probe night/lights-on 10240040 family from connected capture variant 3/4
# tx t=019.444s 102CA040#0000000000270F00 note=lights probe 102CA040 captured dimmer/illumination ramp: dimmer ramp low-mid
(1780162728.838000) can0 10210040#0000800000008000
(1780162728.838000) can0 10240040#83FE8A1100D70FFD
(1780162728.838000) can0 102CA040#0000000000270F00
# tx t=019.539s 10210040#0000800000008000 note=native BCM/body base status from IPC_disconnected capture
# tx t=019.539s 10240040#83FF8A1100D70FFD note=lights probe night/lights-on 10240040 family from connected capture variant 4/4
# tx t=019.539s 102CA040#0000000000270F00 note=lights probe 102CA040 captured dimmer/illumination ramp: dimmer ramp low-mid
(1780162728.933000) can0 10210040#0000800000008000
(1780162728.933000) can0 10240040#83FF8A1100D70FFD
(1780162728.933000) can0 102CA040#0000000000270F00
# tx t=019.634s 621#0052000000000000 note=native key-on network-management context
# tx t=019.634s 10210040#0000800000008000 note=native BCM/body base status from IPC_disconnected capture
# tx t=019.634s 10264040#0000000000000000 note=native BCM/body base zero-status frame
# tx t=019.634s 102CA040#0000000000000F00 note=native BCM/body base 102CA040 context
# tx t=019.634s 10220040#1000000040080000 note=native BCM/body 10220040 key-on variant
# tx t=019.635s 10230040#0000000000000000 note=native BCM/body 10230040 captured counter/state cycle variant 1/4
# tx t=019.635s 1022E040#3000000030000000 note=native BCM/body 1022E040 key-on counter/state cycle variant 3/3
# tx t=019.635s 10240040#83FE880100D70FFD note=native BCM/body 10240040 key-on/second-turn variant 83FE880100D70FFD
# tx t=019.635s 102C0040#803C96B503 note=native BCM/body 102C0040 key-on captured context
# tx t=019.635s 10754040#040400 note=native key/body context immediate key-on hold variant
# tx t=019.635s 10242040#02 note=native 10242040 immediate second-turn/key-on hold state
# tx t=019.635s 10240040#83FE8A1100D70000 note=lights probe night/lights-on 10240040 family from connected capture variant 1/4
# tx t=019.635s 102CC040#0400C00000000000 note=lights probe active 102CC040 lighting context from connected capture
# tx t=019.635s 102CA040#0000000000270F00 note=lights probe 102CA040 captured dimmer/illumination ramp: dimmer ramp low-mid
(1780162729.029000) can0 621#0052000000000000
(1780162729.029000) can0 10210040#0000800000008000
(1780162729.029000) can0 10264040#0000000000000000
(1780162729.031000) can0 102CA040#0000000000000F00
(1780162729.035000) can0 10220040#1000000040080000
(1780162729.040000) can0 10230040#0000000000000000
(1780162729.058000) can0 1022E040#3000000030000000
(1780162729.058000) can0 10240040#83FE880100D70FFD
(1780162729.058000) can0 102C0040#803C96B503
(1780162729.059000) can0 10754040#040400
(1780162729.062000) can0 10242040#02
(1780162729.065000) can0 10240040#83FE8A1100D70000
(1780162729.068000) can0 102CC040#0400C00000000000
(1780162729.070000) can0 102CA040#0000000000270F00
# tx t=019.744s 10210040#0000800000008000 note=native BCM/body base status from IPC_disconnected capture
# tx t=019.744s 10240040#83FF8A1100D70000 note=lights probe night/lights-on 10240040 family from connected capture variant 2/4
# tx t=019.744s 102CA040#0000000000270F00 note=lights probe 102CA040 captured dimmer/illumination ramp: dimmer ramp low-mid
(1780162729.138000) can0 10210040#0000800000008000
(1780162729.138000) can0 10240040#83FF8A1100D70000
(1780162729.138000) can0 102CA040#0000000000270F00
# tx t=019.839s 10210040#0000800000008000 note=native BCM/body base status from IPC_disconnected capture
# tx t=019.841s 10240040#83FE8A1100D70FFD note=lights probe night/lights-on 10240040 family from connected capture variant 3/4
# tx t=019.841s 102CA040#0000000000270F00 note=lights probe 102CA040 captured dimmer/illumination ramp: dimmer ramp low-mid
(1780162729.234000) can0 10210040#0000800000008000
(1780162729.235000) can0 10240040#83FE8A1100D70FFD
(1780162729.235000) can0 102CA040#0000000000270F00
# tx t=019.887s 10230040#1000000010000000 note=native BCM/body 10230040 captured counter/state cycle variant 2/4
# tx t=019.887s 1022E040#1000000010000000 note=native BCM/body 1022E040 key-on counter/state cycle variant 1/3
# tx t=019.887s 102CC040#0400C00000000000 note=lights probe active 102CC040 lighting context from connected capture
(1780162729.281000) can0 10230040#1000000010000000
(1780162729.282000) can0 1022E040#1000000010000000
(1780162729.282000) can0 102CC040#0400C00000000000
# tx t=019.935s 10210040#0000800000008000 note=native BCM/body base status from IPC_disconnected capture
# tx t=019.935s 10240040#83FF8A1100D70FFD note=lights probe night/lights-on 10240040 family from connected capture variant 4/4
# tx t=019.936s 102CA040#0000000000270F00 note=lights probe 102CA040 captured dimmer/illumination ramp: dimmer ramp low-mid
(1780162729.329000) can0 10210040#0000800000008000
(1780162729.329000) can0 10240040#83FF8A1100D70FFD
(1780162729.329000) can0 102CA040#0000000000270F00
# tx t=020.031s 13FFE040# note=native fake BCM/source 0x40 presence, captured-like cadence
# tx t=020.031s 10210040#0000800000008000 note=native BCM/body base status from IPC_disconnected capture
# tx t=020.031s 10240040#83FE8A1100D70000 note=lights probe night/lights-on 10240040 family from connected capture variant 1/4
# tx t=020.032s 102CA040#0000000000270F00 note=lights probe 102CA040 captured dimmer/illumination ramp: dimmer ramp low-mid
(1780162729.425000) can0 13FFE040#
(1780162729.425000) can0 10210040#0000800000008000
(1780162729.426000) can0 10240040#83FE8A1100D70000
(1780162729.427000) can0 102CA040#0000000000270F00
(1780162729.535000) can0 13FFE060#
# tx t=020.143s 10210040#0000800000008000 note=native BCM/body base status from IPC_disconnected capture
# tx t=020.144s 10230040#2000000020000000 note=native BCM/body 10230040 captured counter/state cycle variant 3/4
# tx t=020.144s 1022E040#2000000020000000 note=native BCM/body 1022E040 key-on counter/state cycle variant 2/3
# tx t=020.144s 10240040#83FF8A1100D70000 note=lights probe night/lights-on 10240040 family from connected capture variant 2/4
# tx t=020.144s 102CC040#0400C00000000000 note=lights probe active 102CC040 lighting context from connected capture
# tx t=020.144s 102CA040#0000000000270F00 note=lights probe 102CA040 captured dimmer/illumination ramp: dimmer ramp low-mid
(1780162729.538000) can0 10210040#0000800000008000
(1780162729.538000) can0 10230040#2000000020000000
(1780162729.538000) can0 1022E040#2000000020000000
(1780162729.541000) can0 10240040#83FF8A1100D70000
(1780162729.546000) can0 102CC040#0400C00000000000
(1780162729.550000) can0 102CA040#0000000000270F00
# tx t=020.239s 10210040#0000800000008000 note=native BCM/body base status from IPC_disconnected capture
# tx t=020.240s 10240040#83FE8A1100D70FFD note=lights probe night/lights-on 10240040 family from connected capture variant 3/4
# tx t=020.240s 102CA040#0000000000270F00 note=lights probe 102CA040 captured dimmer/illumination ramp: dimmer ramp low-mid
(1780162729.633000) can0 10210040#0000800000008000
(1780162729.633000) can0 10240040#83FE8A1100D70FFD
(1780162729.634000) can0 102CA040#0000000000270F00
# tx t=020.335s 10210040#0000800000008000 note=native BCM/body base status from IPC_disconnected capture
# tx t=020.335s 10240040#83FF8A1100D70FFD note=lights probe night/lights-on 10240040 family from connected capture variant 4/4
# tx t=020.335s 102CA040#0000000000270F00 note=lights probe 102CA040 captured dimmer/illumination ramp: dimmer ramp low-mid
(1780162729.729000) can0 10210040#0000800000008000
(1780162729.729000) can0 10240040#83FF8A1100D70FFD
(1780162729.729000) can0 102CA040#0000000000270F00
# tx t=020.381s 10230040#3000000030000000 note=native BCM/body 10230040 captured counter/state cycle variant 4/4
# tx t=020.382s 1022E040#3000000030000000 note=native BCM/body 1022E040 key-on counter/state cycle variant 3/3
# tx t=020.382s 102CC040#0400C00000000000 note=lights probe active 102CC040 lighting context from connected capture
(1780162729.775000) can0 10230040#3000000030000000
(1780162729.776000) can0 1022E040#3000000030000000
(1780162729.776000) can0 102CC040#0400C00000000000
# tx t=020.430s 10210040#0000800000008000 note=native BCM/body base status from IPC_disconnected capture
# tx t=020.430s 10240040#83FE8A1100D70000 note=lights probe night/lights-on 10240040 family from connected capture variant 1/4
# tx t=020.430s 102CA040#0000000000270F00 note=lights probe 102CA040 captured dimmer/illumination ramp: dimmer ramp low-mid
(1780162729.824000) can0 10210040#0000800000008000
(1780162729.824000) can0 10240040#83FE8A1100D70000
(1780162729.824000) can0 102CA040#0000000000270F00
# tx t=020.541s 10210040#0000800000008000 note=native BCM/body base status from IPC_disconnected capture
# tx t=020.541s 10240040#83FF8A1100D70000 note=lights probe night/lights-on 10240040 family from connected capture variant 2/4
# tx t=020.541s 102CA040#0000000000270F00 note=lights probe 102CA040 captured dimmer/illumination ramp: dimmer ramp low-mid
(1780162729.935000) can0 10210040#0000800000008000
(1780162729.935000) can0 10240040#83FF8A1100D70000
(1780162729.935000) can0 102CA040#0000000000270F00
# tx t=020.636s 621#0052000000000000 note=native key-on network-management context
# tx t=020.636s 10210040#0000800000008000 note=native BCM/body base status from IPC_disconnected capture
# tx t=020.636s 10264040#0000000000000000 note=native BCM/body base zero-status frame
