# cantool TX/RX capture bitrate=33333.333 fclk=170000000 brp=255 prop=1 phase1=13 phase2=5 sjw=4
# listen-only profile: adapter opened listen-only and no TX schedule is active
(1780156412.134000) can0 100#
(1780156412.224000) can0 13FFE080#
(1780156412.227000) can0 13FFE060#
(1780156412.228000) can0 13FFE040#
(1780156412.229000) can0 621#0152000000000000
(1780156412.233000) can0 1040A080#00
(1780156412.233000) can0 106D0080#0000
(1780156412.236000) can0 10320058#0000000000000000
(1780156412.239000) can0 0C2F6040#00
(1780156412.241000) can0 10244060#00
(1780156412.264000) can0 10324058#800000000000
(1780156412.265000) can0 0C2F8040#00
(1780156412.265000) can0 10330058#737373000000
(1780156412.265000) can0 0C2FA040#00
(1780156412.265000) can0 10320058#0000000000000000
(1780156412.265000) can0 0C394040#C020FFFF00
(1780156412.266000) can0 10336058#00
(1780156412.266000) can0 0C630040#81
(1780156412.286000) can0 1020C040#0000000401
(1780156412.288000) can0 10330058#737373000000
(1780156412.290000) can0 103BC060#00
(1780156412.293000) can0 10210040#0000800000008000
(1780156412.293000) can0 10448060#00
(1780156412.294000) can0 103D6060#00
(1780156412.294000) can0 10242040#01
(1780156412.295000) can0 103DA060#00
(1780156412.298000) can0 10248040#00005DA6A600
(1780156412.300000) can0 1045C060#40
(1780156412.303000) can0 10250040#0000
(1780156412.305000) can0 10774060#00
(1780156412.308000) can0 10288040#000000
(1780156412.311000) can0 10812060#00
(1780156412.313000) can0 1084A060#00
(1780156412.315000) can0 10A04060#00
(1780156412.319000) can0 102C0040#803C96B503
(1780156412.323000) can0 10ACE060#1E00200000000000
(1780156412.328000) can0 102CA040#0000000000000F00
(1780156412.332000) can0 10AE8060#030E010104050000
(1780156412.336000) can0 102CC040#0800800000000000
(1780156412.339000) can0 10424060#058585
(1780156412.342000) can0 103A6040#8329
(1780156412.344000) can0 13FFE058#
(1780156412.348000) can0 10210040#0000800000008000
(1780156412.351000) can0 10304058#96B501
(1780156412.353000) can0 13FFE060#
(1780156412.358000) can0 10220040#1000000040120000
(1780156412.360000) can0 10244060#00
(1780156412.364000) can0 1022A040#00F00080000000
(1780156412.369000) can0 10AE8060#0016010800000000
(1780156412.372000) can0 1022C040#00000000
(1780156412.374000) can0 13FFE058#
(1780156412.379000) can0 1022E040#2000000020000000
(1780156412.396000) can0 13FFE080#
(1780156412.397000) can0 62C#0040000000000000
(1780156412.397000) can0 10230040#3000000030000000
(1780156412.398000) can0 1029C080#00
(1780156412.398000) can0 10308060#96B501
(1780156412.399000) can0 10240040#8004880100000007
(1780156412.401000) can0 10340080#00
(1780156412.403000) can0 1036A080#01
(1780156412.406000) can0 10242040#01
(1780156412.408000) can0 1040A080#00
(1780156412.428000) can0 10248040#00005DA6A600
(1780156412.429000) can0 10730080#13
(1780156412.429000) can0 10250040#0000
(1780156412.429000) can0 107A0080#000000
(1780156412.430000) can0 102C0040#803C96B503
(1780156412.430000) can0 107B6080#00
(1780156412.430000) can0 107BA080#00
(1780156412.433000) can0 102CA040#0000000000000F00
(1780156412.437000) can0 108E0080#1A051E031DC0
(1780156412.441000) can0 10ACE060#2B00000000000000
(1780156412.460000) can0 10264040#000F000000000000
(1780156412.460000) can0 10424060#058585
(1780156412.461000) can0 10210040#0000800000008000
(1780156412.461000) can0 624#0120000000000000
(1780156412.461000) can0 10220040#1000000040120000
(1780156412.464000) can0 10304058#96B501
(1780156412.466000) can0 0C2F6040#00
(1780156412.469000) can0 10244060#00
(1780156412.471000) can0 0C2F8040#00
(1780156412.473000) can0 103BC060#00
(1780156412.491000) can0 0C2FA040#00
(1780156412.492000) can0 1045C060#40
(1780156412.492000) can0 0C630040#81
(1780156412.493000) can0 106D0080#0000
(1780156412.493000) can0 1022E040#1000000010000000
(1780156412.493000) can0 1040A080#00
(1780156412.495000) can0 10230040#1000000010000000
(1780156412.499000) can0 10AE8060#030E010104050000
(1780156412.503000) can0 10240040#8004880100000007
(1780156412.506000) can0 103D6060#00
(1780156412.509000) can0 10308060#96B501
(1780156412.511000) can0 10242040#01
(1780156412.513000) can0 103DA060#00
(1780156412.517000) can0 10248040#00005DA6A600
(1780156412.519000) can0 10812060#00
(1780156412.538000) can0 102C0040#803C96B503
(1780156412.539000) can0 1084A060#00
(1780156412.539000) can0 10AE8060#0016010800000000
(1780156412.540000) can0 102CA040#0000000000000F00
(1780156412.540000) can0 10AFC060#38FFFFFFFFFFFF2B
(1780156412.543000) can0 10264040#0002000000000000
(1780156412.545000) can0 13FFE060#
(1780156412.549000) can0 10210040#0000800000008000
(1780156412.552000) can0 13FFE080#
(1780156412.570000) can0 10ACE060#1E00200000000000
(1780156412.571000) can0 10220040#1000000040120000
(1780156412.571000) can0 1029C080#00
(1780156412.571000) can0 1022E040#1000000010000000
(1780156412.572000) can0 10340080#00
(1780156412.574000) can0 102CC040#0800000000000000
(1780156412.576000) can0 10244060#00
(1780156412.579000) can0 10304058#96B501
(1780156412.584000) can0 10230040#2000000020000000
(1780156412.601000) can0 1036A080#01
(1780156412.601000) can0 10730080#13
(1780156412.602000) can0 10242040#01
(1780156412.602000) can0 107A0080#000000
(1780156412.602000) can0 1022A040#00B00080000000
(1780156412.603000) can0 107B6080#00
(1780156412.603000) can0 107BA080#00
(1780156412.606000) can0 1022C040#00000000
(1780156412.610000) can0 108E0080#1A051E031DC1
(1780156412.615000) can0 10240040#83FF880100000000
(1780156412.633000) can0 10308060#96B501
(1780156412.633000) can0 10248040#00005DA6A600
(1780156412.634000) can0 102C0040#803C96B503
(1780156412.634000) can0 102CA040#0000000000000F00
(1780156412.637000) can0 10264040#0002000000000000
(1780156412.642000) can0 102CC040#0800000000000000
(1780156412.647000) can0 10210040#0000800000008000
(1780156412.664000) can0 102CE040#0700070000000000
(1780156412.665000) can0 10220040#1000000040080000
(1780156412.665000) can0 102D0040#0000000000000000
(1780156412.667000) can0 10ACE060#2B00000000000000
(1780156412.671000) can0 1022E040#3000000030000000
(1780156412.677000) can0 10230040#0000000000000000
(1780156412.696000) can0 102CE040#0700070000000000
(1780156412.696000) can0 10244060#00
(1780156412.697000) can0 102E0040#840000000000004E
(1780156412.697000) can0 10304058#96B501
(1780156412.697000) can0 10AFC060#38FFFFFFFFFFFF2B
(1780156412.701000) can0 10240040#83FF880100D70000
(1780156412.706000) can0 102C0040#803C96B503
(1780156412.710000) can0 103B4040#04
(1780156412.727000) can0 102CA040#0000000000000F00
(1780156412.727000) can0 103D4040#2424393B393B
(1780156412.727000) can0 10308060#96B501
(1780156412.728000) can0 103DC040#0585
(1780156412.730000) can0 10428040#00
(1780156412.737000) can0 10264040#0002000000000000
(1780156412.741000) can0 1062C040#000BF7BC15
(1780156412.758000) can0 10210040#0000800000008000
(1780156412.759000) can0 10632040#4000
(1780156412.760000) can0 10220040#1000000040080000
(1780156412.761000) can0 10644040#02FAFA
(1780156412.767000) can0 1022E040#1000000010000000
(1780156412.770000) can0 10646040#00
(1780156412.789000) can0 10230040#2000000020000000
(1780156412.790000) can0 1064A040#2D2D
(1780156412.790000) can0 106AA040#00
(1780156412.790000) can0 106B0040#00
(1780156412.797000) can0 10240040#83FF880100D70FFD
(1780156412.802000) can0 106B8040#0000000000000000
(1780156412.820000) can0 10304058#96B501
(1780156412.821000) can0 102C0040#803C96B503
(1780156412.821000) can0 102CA040#0000000000000F00
(1780156412.822000) can0 106B8040#0000000000000000
(1780156412.826000) can0 106C0040#00B5D1DE00
(1780156412.830000) can0 10714040#09
(1780156412.833000) can0 10308060#96B501
(1780156412.852000) can0 10264040#0002000000000000
(1780156412.876000) can0 106C0040#00B5D1DE00
(1780156412.877000) can0 10210040#0000800000008000
(1780156412.877000) can0 1022A040#00B00000000000
(1780156412.878000) can0 10220040#1000000040080000
(1780156412.878000) can0 1022C040#00000000
(1780156412.878000) can0 1022E040#3000000030000000
(1780156412.879000) can0 1062C040#000BF7BC15
(1780156412.879000) can0 10230040#0000000000000000
(1780156412.882000) can0 102CC040#0800000000000000
(1780156412.899000) can0 102CE040#0700070000000000
(1780156412.899000) can0 102D0040#0000000000000000
(1780156412.899000) can0 10240040#83FE880100D70FFD
(1780156412.901000) can0 10644040#02FAFA
(1780156412.906000) can0 102C0040#803C96B503
(1780156412.910000) can0 10728040#04
(1780156412.913000) can0 10304058#96B501
(1780156412.931000) can0 102CA040#0000000000000F00
(1780156412.931000) can0 10754040#040400
(1780156412.931000) can0 10758040#000000
(1780156412.932000) can0 1077C040#303003B9
(1780156412.934000) can0 10424060#048585
(1780156412.938000) can0 10264040#0002000000000000
(1780156412.943000) can0 10308060#96B501
(1780156412.962000) can0 10210040#0000800000008000
(1780156412.963000) can0 10714040#09
(1780156412.963000) can0 10220040#1000000040080000
(1780156412.964000) can0 10780040#0000000008000000
(1780156412.967000) can0 1022E040#1000000010000000
(1780156412.972000) can0 10788040#180A00000000
(1780156412.993000) can0 10780040#0000000008000000
(1780156412.994000) can0 10788040#180A00000000
(1780156412.994000) can0 10800040#000000000000
(1780156412.997000) can0 10240040#83FF880100D70000
(1780156413.002000) can0 106B8040#0000000000000000
(1780156413.006000) can0 102C0040#803C96B503
(1780156413.025000) can0 10800040#000000000000
(1780156413.025000) can0 102CA040#0000000000000F00
(1780156413.026000) can0 10806040#0000000000
(1780156413.026000) can0 10304058#96B501
(1780156413.028000) can0 1080A040#00000000
(1780156413.032000) can0 1080E040#0000000000000000
(1780156413.037000) can0 10264040#0002000000000000
(1780156413.057000) can0 10210040#0000800000008000
(1780156413.057000) can0 10806040#0000000000
(1780156413.058000) can0 10308060#96B501
(1780156413.059000) can0 10220040#1000000040080000
(1780156413.067000) can0 1022E040#3000000030000000
(1780156413.071000) can0 10814040#00000000
(1780156413.077000) can0 10230040#0000000000000000
(1780156413.082000) can0 10ACA040#28F0000000000000
(1780156413.086000) can0 10248040#00005DA6A600
(1780156413.103000) can0 10AEC040#082492393FFFFF28
(1780156413.104000) can0 1022A040#00B00000000000
(1780156413.104000) can0 1022C040#00000000
(1780156413.107000) can0 10240040#83FF880100D70000
(1780156413.111000) can0 102C0040#803C96B503
(1780156413.117000) can0 102CA040#0000000000000F00
(1780156413.134000) can0 10EC4040#3056305845503638
(1780156413.134000) can0 102CC040#0800000000000000
(1780156413.134000) can0 10EC8040#4B34303238383139
(1780156413.135000) can0 10304058#96B501
(1780156413.139000) can0 10264040#0002000000000000
(1780156413.147000) can0 10210040#0000800000008000
(1780156413.165000) can0 102CE040#0700070000000000
(1780156413.167000) can0 10220040#1000000040080000
(1780156413.167000) can0 10EC4040#3056305845503638
(1780156413.167000) can0 10308060#96B501
(1780156413.169000) can0 1022E040#1000000010000000
(1780156413.177000) can0 10230040#2000000020000000
(1780156413.195000) can0 10780040#0000000008000000
(1780156413.196000) can0 10800040#000000000000
(1780156413.196000) can0 10EC8040#4B34303238383139
(1780156413.197000) can0 10240040#83FE880100D70FFD
(1780156413.202000) can0 106B8040#0000000000000000
(1780156413.206000) can0 102C0040#803C96B503
(1780156413.226000) can0 10ACA040#2C811C0000000000
(1780156413.227000) can0 102CA040#0000000000000F00
(1780156413.227000) can0 10AEC040#02081E08049FFF2C
(1780156413.227000) can0 13FFE040#
(1780156413.231000) can0 621#0052000000000000
(1780156413.237000) can0 10264040#0002000000000000
(1780156413.241000) can0 1080A040#00000000
(1780156413.244000) can0 10304058#96B501
(1780156413.248000) can0 10210040#0000800000008000
(1780156413.272000) can0 10220040#1000000040080000
(1780156413.273000) can0 1080E040#0000000000000000
(1780156413.274000) can0 1022E040#3000000030000000
(1780156413.274000) can0 13FFE040#
(1780156413.274000) can0 10308060#96B501
(1780156413.278000) can0 10230040#0000000000000000
(1780156413.304000) can0 10240040#83FE880100D70FFD
(1780156413.306000) can0 102C0040#803C96B503
(1780156413.318000) can0 102CA040#0000000000000F00
(1780156413.337000) can0 10ACA040#28F0000000000000
(1780156413.337000) can0 10264040#0002000000000000
(1780156413.342000) can0 10AEC040#082492393FFFFF28
(1780156413.347000) can0 10210040#0000800000008000
(1780156413.368000) can0 10304058#96B501
(1780156413.369000) can0 10220040#1000000040080000
(1780156413.370000) can0 1022C040#00000000
(1780156413.372000) can0 1022E040#1000000010000000
(1780156413.378000) can0 10230040#2000000020000000
(1780156413.381000) can0 10250040#0000
(1780156413.400000) can0 102CC040#0800000000000000
(1780156413.401000) can0 102CE040#0700070000000000
(1780156413.402000) can0 10240040#83FF880100D70000
(1780156413.402000) can0 102D0040#0000000000000000
(1780156413.407000) can0 102C0040#803C96B503
(1780156413.414000) can0 102E0040#840000000000004E
(1780156413.417000) can0 102CA040#0000000000000F00
(1780156413.422000) can0 106B8040#0000000000000000
(1780156413.426000) can0 106C0040#00B5D1DE00
(1780156413.450000) can0 1077C040#303003B9
(1780156413.451000) can0 10264040#0002000000000000
(1780156413.452000) can0 10780040#0000000008000000
(1780156413.452000) can0 13FFE058#
(1780156413.453000) can0 10210040#0000800000008000
(1780156413.457000) can0 10220040#1000000040080000
(1780156413.477000) can0 10788040#100A00000000
(1780156413.477000) can0 10304058#96B501
(1780156413.478000) can0 1022E040#3000000030000000
(1780156413.478000) can0 10230040#0000000000000000
(1780156413.482000) can0 10800040#000000000000
(1780156413.486000) can0 10806040#0000000000
(1780156413.509000) can0 10308060#96B501
(1780156413.510000) can0 10240040#83FE880100D70000
(1780156413.510000) can0 102C0040#803C96B503
(1780156413.518000) can0 102CA040#0000000000000F00
(1780156413.541000) can0 10264040#0002000000000000
(1780156413.548000) can0 10210040#0000800000008000
(1780156413.572000) can0 10220040#1000000040080000
(1780156413.573000) can0 1022E040#1000000010000000
(1780156413.573000) can0 10304058#96B501
(1780156413.577000) can0 10230040#2000000020000000
(1780156413.603000) can0 1022A040#00B00000000000
(1780156413.603000) can0 1022C040#00000000
(1780156413.604000) can0 10308060#96B501
(1780156413.608000) can0 10240040#83FF880100D70000
(1780156413.616000) can0 102C0040#803C96B503
(1780156413.634000) can0 102CA040#0000000000000F00
(1780156413.634000) can0 102CC040#0800000000000000
(1780156413.635000) can0 106B8040#0000000000000000
(1780156413.637000) can0 10264040#0002000000000000
(1780156413.642000) can0 102CE040#0700070000000000
(1780156413.647000) can0 10210040#0000800000008000
(1780156413.668000) can0 10220040#1000000040080000
(1780156413.669000) can0 13FFE060#
(1780156413.670000) can0 1022E040#3000000030000000
(1780156413.670000) can0 106D0080#0000
(1780156413.676000) can0 10780040#0000000008000000
(1780156413.677000) can0 13FFE080#
(1780156413.697000) can0 10230040#0000000000000000
(1780156413.698000) can0 10304058#96B501
(1780156413.698000) can0 10800040#000000000000
(1780156413.698000) can0 10240040#83FF880100D70FFD
(1780156413.700000) can0 13FFE040#
(1780156413.706000) can0 102C0040#803C96B503
(1780156413.734000) can0 10308060#96B501
(1780156413.746000) can0 102CA040#0000000000000F00
(1780156413.747000) can0 10264040#0002000000000000
(1780156413.747000) can0 10210040#0000800000008000
(1780156413.757000) can0 10220040#1000000040080000
(1780156413.776000) can0 1022E040#1000000010000000
(1780156413.777000) can0 10230040#2000000020000000
(1780156413.807000) can0 10304058#96B501
(1780156413.809000) can0 10240040#83FE880100D70000
(1780156413.809000) can0 106B8040#0000000000000000
(1780156413.810000) can0 102C0040#803C96B503
(1780156413.818000) can0 102CA040#0000000000000F00
(1780156413.839000) can0 10264040#0002000000000000
(1780156413.848000) can0 10210040#0000800000008000
(1780156413.852000) can0 1022A040#00B00000000000
(1780156413.870000) can0 10220040#10000000400A0000
(1780156413.870000) can0 1022C040#00000000
(1780156413.871000) can0 1022E040#3000000030000000
(1780156413.878000) can0 10230040#0000000000000000
(1780156413.883000) can0 102CC040#0800000000000000
(1780156413.902000) can0 102CE040#0700070000000000
(1780156413.903000) can0 102D0040#0000000000000000
(1780156413.904000) can0 10240040#83FF880100D70000
(1780156413.907000) can0 10304058#96B501
(1780156413.908000) can0 102C0040#803C96B503
(1780156413.912000) can0 10806040#0000000000
(1780156413.933000) can0 10780040#0000000008000000
(1780156413.934000) can0 10788040#100A00000000
(1780156413.934000) can0 10800040#000000000000
(1780156413.934000) can0 10308060#96B501
(1780156413.939000) can0 10264040#0002000000000000
(1780156413.948000) can0 10210040#0000800000008000
(1780156413.967000) can0 10220040#10000000400A0000
(1780156413.967000) can0 1022E040#1000000010000000
(1780156413.977000) can0 10230040#2000000020000000
(1780156413.997000) can0 10240040#83FF880100D70FFD
(1780156414.003000) can0 106B8040#0000000000000000
(1780156414.007000) can0 102C0040#803C96B503
(1780156414.028000) can0 102CA040#0000000000000F00
(1780156414.040000) can0 10264040#0002000000000000
(1780156414.058000) can0 10210040#0000800000008000
(1780156414.058000) can0 10220040#1000000040080000
(1780156414.068000) can0 1022E040#3000000030000000
(1780156414.089000) can0 10230040#0000000000000000
(1780156414.090000) can0 10248040#00005DA6A600
(1780156414.097000) can0 1022A040#00B00000000000
(1780156414.101000) can0 1022C040#00000000
(1780156414.123000) can0 10240040#83FF880100D70000
(1780156414.126000) can0 102C0040#803C96B503
(1780156414.126000) can0 102CA040#0000000000000F00
(1780156414.126000) can0 10304058#96B501
(1780156414.127000) can0 102CC040#0800000000000000
(1780156414.153000) can0 102CE040#0700070000000000
(1780156414.154000) can0 10210040#0000800000008000
(1780156414.161000) can0 10308060#96B501
(1780156414.162000) can0 10220040#10000000400A0000
(1780156414.168000) can0 1022E040#1000000010000000
(1780156414.172000) can0 10780040#0000000008000000
(1780156414.177000) can0 10230040#2000000020000000
(1780156414.182000) can0 10800040#000000000000
(1780156414.197000) can0 10240040#83FF880100D70FFD
(1780156414.203000) can0 106B8040#0000000000000000
(1780156414.207000) can0 102C0040#803C96B503
(1780156414.231000) can0 102CA040#0000000000000F00
(1780156414.232000) can0 10304058#96B501
(1780156414.238000) can0 10264040#0002000000000000
(1780156414.241000) can0 1080A040#00000000
(1780156414.245000) can0 10324058#800000000000
(1780156414.263000) can0 10210040#0000800000008000
(1780156414.263000) can0 10220040#1000000040080000
(1780156414.264000) can0 1080E040#0000000000000000
(1780156414.265000) can0 10308060#96B501
(1780156414.269000) can0 1022E040#3000000030000000
(1780156414.277000) can0 10230040#0000000000000000
(1780156414.281000) can0 621#0052000000000000
(1780156414.309000) can0 10240040#83FF880100D70000
(1780156414.310000) can0 102C0040#803C96B503
(1780156414.318000) can0 102CA040#0000000000000F00
(1780156414.343000) can0 10264040#0002000000000000
(1780156414.344000) can0 10304058#96B501
(1780156414.347000) can0 10210040#0000800000008000
(1780156414.352000) can0 1022A040#00B00000000000
(1780156414.372000) can0 10220040#10000000400A0000
(1780156414.373000) can0 1022C040#00000000
(1780156414.373000) can0 1022E040#1000000010000000
(1780156414.374000) can0 10250040#0000
(1780156414.374000) can0 10308060#96B501
(1780156414.377000) can0 10230040#2000000020000000
(1780156414.382000) can0 102CC040#0800000000000000
(1780156414.391000) can0 102CE040#0700070000000000
(1780156414.392000) can0 102D0040#0000000000000000
(1780156414.397000) can0 10240040#83FF880100D70FFD
(1780156414.402000) can0 102E0040#840000000000004E
(1780156414.420000) can0 102C0040#803C96B503
(1780156414.421000) can0 106B8040#0000000000000000
(1780156414.425000) can0 102CA040#0000000000000F00
(1780156414.425000) can0 106C0040#00B5D1DE00
(1780156414.426000) can0 1077C040#303003B9
(1780156414.432000) can0 10780040#0000000008000000
(1780156414.452000) can0 10264040#0002000000000000
(1780156414.453000) can0 10788040#100A00000000
(1780156414.453000) can0 10210040#0000800000008000
(1780156414.454000) can0 10800040#000000000000
(1780156414.456000) can0 10304058#96B501
(1780156414.459000) can0 10220040#1000000040080000
(1780156414.484000) can0 10806040#0000000000
(1780156414.485000) can0 10230040#0000000000000000
(1780156414.485000) can0 10308060#96B501
(1780156414.497000) can0 10240040#83FF880100D70FFD
(1780156414.514000) can0 102C0040#803C96B503
(1780156414.517000) can0 102CA040#0000000000000F00
(1780156414.547000) can0 10264040#0002000000000000
(1780156414.548000) can0 10210040#0000800000008000
(1780156414.557000) can0 10220040#1000000040060000
(1780156414.578000) can0 1022E040#1000000010000000
(1780156414.579000) can0 10230040#2000000020000000
(1780156414.587000) can0 10248040#00005DA6A600
(1780156414.611000) can0 1022A040#00B00000000000
(1780156414.612000) can0 1022C040#00000000
(1780156414.612000) can0 10240040#83FE880100D70FFD
(1780156414.612000) can0 102C0040#803C96B503
(1780156414.617000) can0 102CA040#0000000000000F00
(1780156414.624000) can0 106B8040#0000000000000000
(1780156414.627000) can0 102CC040#0800000000000000
(1780156414.637000) can0 10264040#0002000000000000
(1780156414.660000) can0 102CE040#0700070000000000
(1780156414.661000) can0 13FFE058#
(1780156414.661000) can0 10210040#0000800000008000
(1780156414.661000) can0 10220040#1000000040080000
(1780156414.667000) can0 1022E040#3000000030000000
(1780156414.688000) can0 10304058#96B501
(1780156414.689000) can0 10230040#0000000000000000
(1780156414.689000) can0 10800040#000000000000
(1780156414.697000) can0 10240040#83FE880100D70000
(1780156414.704000) can0 10308060#96B501
(1780156414.708000) can0 102C0040#803C96B503
(1780156414.717000) can0 102CA040#0000000000000F00
(1780156414.737000) can0 10264040#0002000000000000
(1780156414.741000) can0 10814040#00000000
(1780156414.747000) can0 10210040#0000800000008000
(1780156414.766000) can0 10220040#1000000040080000
(1780156414.767000) can0 1022E040#1000000010000000
(1780156414.778000) can0 10230040#2000000020000000
(1780156414.798000) can0 10240040#83FE880100D70FFD
(1780156414.802000) can0 106B8040#0000000000000000
(1780156414.807000) can0 102C0040#803C96B503
(1780156414.832000) can0 102CA040#0000000000000F00
(1780156414.837000) can0 10264040#0002000000000000
(1780156414.864000) can0 10210040#0000800000008000
(1780156414.890000) can0 1022A040#00B00000000000
(1780156414.891000) can0 10220040#10000000400A0000
(1780156414.893000) can0 1022C040#00000000
(1780156414.893000) can0 13FFE060#
(1780156414.894000) can0 1022E040#3000000030000000
(1780156414.894000) can0 106D0080#0000
(1780156414.894000) can0 13FFE040#
(1780156414.895000) can0 13FFE080#
(1780156414.895000) can0 10230040#0000000000000000
(1780156414.895000) can0 102CC040#0800000000000000
(1780156414.896000) can0 102CE040#0700070000000000
(1780156414.896000) can0 10304058#96B501
(1780156414.899000) can0 10240040#83FF880100D70FFD
(1780156414.906000) can0 102C0040#803C96B503
(1780156414.925000) can0 102D0040#0000000000000000
(1780156414.926000) can0 102CA040#0000000000000F00
(1780156414.927000) can0 10780040#0000000000000000
(1780156414.927000) can0 10308060#96B501
(1780156414.929000) can0 10788040#100A00000000
(1780156414.937000) can0 10264040#0002000000000000
(1780156414.943000) can0 10800040#000000000000
(1780156414.947000) can0 10210040#0000800000008000
(1780156414.951000) can0 10806040#0000000000
(1780156414.971000) can0 10220040#1000000040080000
(1780156414.971000) can0 1022E040#1000000010000000
(1780156414.977000) can0 10230040#2000000020000000
(1780156415.002000) can0 10240040#83FF880100D70000
(1780156415.003000) can0 106B8040#0000000000000000
(1780156415.005000) can0 10304058#96B501
(1780156415.009000) can0 102C0040#803C96B503
(1780156415.034000) can0 10308060#96B501
(1780156415.039000) can0 10264040#0002000000000000
(1780156415.047000) can0 10210040#0000800000008000
(1780156415.067000) can0 10220040#1000000040080000
(1780156415.067000) can0 1022E040#3000000030000000
(1780156415.077000) can0 10230040#0000000000000000
(1780156415.097000) can0 10248040#00005DA6A600
(1780156415.098000) can0 1022A040#00B00000000000
(1780156415.101000) can0 1022C040#00000000
(1780156415.107000) can0 10240040#83FF880100D70000
(1780156415.111000) can0 102C0040#803C96B503
(1780156415.130000) can0 10304058#96B501
(1780156415.131000) can0 102CA040#0000000000000F00
(1780156415.131000) can0 102CC040#0800000000000000
(1780156415.137000) can0 10264040#0002000000000000
(1780156415.142000) can0 102CE040#0700070000000000
(1780156415.161000) can0 10210040#0000800000008000
(1780156415.162000) can0 10220040#1000000040080000
(1780156415.168000) can0 1022E040#1000000010000000
(1780156415.176000) can0 10780040#0000000000000000
(1780156415.177000) can0 10230040#2000000020000000
(1780156415.181000) can0 10800040#000000000000
(1780156415.207000) can0 10240040#83FF880100D70000
(1780156415.208000) can0 106B8040#0000000000000000
(1780156415.208000) can0 102C0040#803C96B503
(1780156415.217000) can0 102CA040#0000000000000F00
(1780156415.225000) can0 10304058#96B501
(1780156415.237000) can0 10264040#0002000000000000
(1780156415.241000) can0 1080A040#00000000
(1780156415.247000) can0 10210040#0000800000008000
(1780156415.252000) can0 1080E040#0000000000000000
(1780156415.273000) can0 10220040#1000000040080000
(1780156415.274000) can0 1022E040#3000000030000000
(1780156415.277000) can0 10230040#0000000000000000
(1780156415.310000) can0 10240040#83FE880100D70FFD
(1780156415.311000) can0 102C0040#803C96B503
(1780156415.317000) can0 102CA040#0000000000000F00
(1780156415.335000) can0 10304058#96B501
(1780156415.337000) can0 10264040#0002000000000000
(1780156415.347000) can0 10210040#0000800000008000
(1780156415.353000) can0 1022A040#00B00000000000
(1780156415.357000) can0 10220040#1000000040080000
(1780156415.361000) can0 1022C040#00000000
(1780156415.380000) can0 1022E040#1000000010000000
(1780156415.380000) can0 10230040#2000000020000000
(1780156415.381000) can0 10250040#0000
(1780156415.384000) can0 62C#0040000000000000
(1780156415.388000) can0 102CC040#0800000000000000
(1780156415.410000) can0 10240040#83FF880100D70000
(1780156415.411000) can0 102CE040#0700070000000000
(1780156415.411000) can0 102C0040#803C96B503
(1780156415.412000) can0 102D0040#0000000000000000
(1780156415.417000) can0 102CA040#0000000000000F00
(1780156415.422000) can0 102E0040#840000000000004E
(1780156415.445000) can0 106B8040#0000000000000000
(1780156415.446000) can0 106C0040#00B5D1DE00
(1780156415.446000) can0 10264040#0002000000000000
(1780156415.447000) can0 1077C040#303003B9
(1780156415.447000) can0 10304058#96B501
(1780156415.448000) can0 10210040#0000800000008000
(1780156415.457000) can0 10220040#1000000040080000
(1780156415.474000) can0 624#0020000000000000
(1780156415.474000) can0 10780040#0000000000000000
(1780156415.475000) can0 1022E040#3000000030000000
(1780156415.475000) can0 10308060#96B501
(1780156415.479000) can0 10230040#0000000000000000
(1780156415.487000) can0 10788040#100A00000000
(1780156415.506000) can0 10800040#000000000000
(1780156415.507000) can0 10240040#83FF880100D70000
(1780156415.508000) can0 10806040#0000000000
(1780156415.508000) can0 102C0040#803C96B503
(1780156415.517000) can0 102CA040#0000000000000F00
(1780156415.538000) can0 10264040#0002000000000000
(1780156415.547000) can0 10210040#0000800000008000
(1780156415.569000) can0 10220040#1000000040080000
(1780156415.570000) can0 1022E040#1000000010000000
(1780156415.577000) can0 10230040#2000000020000000
(1780156415.583000) can0 10308060#96B501
(1780156415.586000) can0 10248040#00005DA6A600
(1780156415.596000) can0 1022A040#00B00000000000
(1780156415.616000) can0 10240040#83FE880100D70000
(1780156415.616000) can0 102C0040#803C96B503
(1780156415.617000) can0 102CA040#0000000000000F00
(1780156415.622000) can0 106B8040#0000000000000000
(1780156415.627000) can0 102CC040#0800000000000000
(1780156415.647000) can0 10264040#0002000000000000
(1780156415.648000) can0 102CE040#0700070000000000
(1780156415.648000) can0 10210040#0000800000008000
(1780156415.657000) can0 10220040#1000000040080000
(1780156415.680000) can0 1022E040#3000000030000000
(1780156415.681000) can0 10780040#0000000000000000
(1780156415.681000) can0 10230040#0000000000000000
(1780156415.681000) can0 10800040#000000000000
(1780156415.693000) can0 10308060#96B501
(1780156415.698000) can0 10240040#83FE880100D70FFD
(1780156415.707000) can0 102C0040#803C96B503
(1780156415.719000) can0 102CA040#0000000000000F00
(1780156415.740000) can0 10264040#0002000000000000
(1780156415.747000) can0 10210040#0000800000008000
(1780156415.772000) can0 10220040#1000000040080000
(1780156415.774000) can0 1022E040#1000000010000000
(1780156415.775000) can0 10304058#96B501
(1780156415.776000) can0 10230040#2000000020000000
(1780156415.805000) can0 10240040#83FF880100D70000
(1780156415.810000) can0 106B8040#0000000000000000
(1780156415.811000) can0 10308060#96B501
(1780156415.814000) can0 102C0040#803C96B503
(1780156415.817000) can0 102CA040#0000000000000F00
(1780156415.837000) can0 10264040#0002000000000000
(1780156415.841000) can0 13FFE058#
(1780156415.846000) can0 10210040#0000800000008000
(1780156415.865000) can0 1022A040#00B00000000000
(1780156415.865000) can0 10220040#1000000040080000
(1780156415.866000) can0 1022C040#00000000
(1780156415.866000) can0 1022E040#3000000030000000
(1780156415.876000) can0 10230040#0000000000000000
(1780156415.897000) can0 102CC040#0800000000000000
(1780156415.897000) can0 10304058#96B501
(1780156415.898000) can0 102CE040#0700070000000000
(1780156415.898000) can0 10240040#83FF880100D70000
(1780156415.902000) can0 102D0040#0000000000000000
(1780156415.906000) can0 102C0040#803C96B503
(1780156415.911000) can0 10806040#0000000000
(1780156415.914000) can0 10308060#96B501
(1780156415.918000) can0 102CA040#0000000000000F00
(1780156415.927000) can0 10780040#0000000000000000
(1780156415.931000) can0 10788040#100A00000000
(1780156415.936000) can0 10264040#0002000000000000
(1780156415.941000) can0 10800040#000000000000
(1780156415.959000) can0 10210040#0000800000008000
(1780156415.959000) can0 10220040#1000000040080000
(1780156415.966000) can0 1022E040#1000000010000000
(1780156415.990000) can0 10230040#2000000020000000
(1780156415.991000) can0 10304058#96B501
(1780156415.996000) can0 10240040#83FF880100D70000
(1780156416.001000) can0 106B8040#0000000000000000
(1780156416.021000) can0 102C0040#803C96B503
(1780156416.022000) can0 102CA040#0000000000000F00
(1780156416.022000) can0 10308060#96B501
(1780156416.036000) can0 10264040#0000000000000000
(1780156416.056000) can0 10210040#0000800000008000
(1780156416.059000) can0 10220040#1000000040080000
(1780156416.062000) can0 13FFE060#
(1780156416.066000) can0 1022E040#3000000030000000
(1780156416.087000) can0 106D0080#0000
(1780156416.091000) can0 13FFE040#
(1780156416.092000) can0 13FFE080#
(1780156416.093000) can0 10230040#0000000000000000
(1780156416.094000) can0 10248040#00005DA6A600
(1780156416.101000) can0 1022A040#00B00000000000
(1780156416.103000) can0 1022C040#00000000
(1780156416.104000) can0 10304058#96B501
(1780156416.108000) can0 10240040#83FF880100D70000
(1780156416.116000) can0 102C0040#803C96B503
(1780156416.134000) can0 102CA040#0000000000000F00
(1780156416.136000) can0 102CC040#0800000000000000
(1780156416.136000) can0 10308060#96B501
(1780156416.137000) can0 10264040#0000000000000000
(1780156416.141000) can0 102CE040#0700070000000000
(1780156416.146000) can0 10210040#0000800000008000
(1780156416.165000) can0 10220040#1000000040080000
(1780156416.166000) can0 1022E040#1000000010000000
(1780156416.172000) can0 10780040#0000000000000000
(1780156416.176000) can0 10230040#2000000020000000
(1780156416.196000) can0 10800040#000000000000
(1780156416.196000) can0 10240040#83FE880100D70000
(1780156416.202000) can0 106B8040#0000000000000000
(1780156416.206000) can0 102C0040#803C96B503
(1780156416.211000) can0 10304058#96B501
(1780156416.216000) can0 102CA040#0000000000000F00
(1780156416.242000) can0 10264040#0000000000000000
(1780156416.243000) can0 1080A040#00000000
(1780156416.244000) can0 10308060#96B501
(1780156416.248000) can0 10210040#0000800000008000
(1780156416.251000) can0 10324058#800000000000
(1780156416.256000) can0 10220040#10000000400A0000
(1780156416.274000) can0 1080E040#0000000000000000
(1780156416.274000) can0 1022E040#3000000030000000
(1780156416.276000) can0 10230040#0000000000000000
(1780156416.286000) can0 621#0052000000000000
(1780156416.305000) can0 10240040#83FE880100D70FFD
(1780156416.306000) can0 102C0040#803C96B503
(1780156416.316000) can0 102CA040#0000000000000F00
(1780156416.337000) can0 10304058#96B501
(1780156416.338000) can0 10264040#0000000000000000
(1780156416.346000) can0 10210040#0000800000008000
(1780156416.352000) can0 1022A040#00B00000000000
(1780156416.354000) can0 10308060#96B501
(1780156416.358000) can0 10220040#1000000040080000
(1780156416.365000) can0 1022C040#00000000
(1780156416.384000) can0 1022E040#1000000010000000
(1780156416.384000) can0 10230040#2000000020000000
(1780156416.385000) can0 10250040#0000
(1780156416.386000) can0 102CC040#0800000000000000
(1780156416.391000) can0 102CE040#0700070000000000
(1780156416.396000) can0 10240040#83FE880100D70FFD
(1780156416.416000) can0 102D0040#0000000000000000
(1780156416.416000) can0 102C0040#803C96B503
(1780156416.417000) can0 102E0040#840000000000004E
(1780156416.417000) can0 102CA040#0000000000000F00
(1780156416.421000) can0 106B8040#0000000000000000
(1780156416.425000) can0 106C0040#00B5D1DE00
(1780156416.430000) can0 1077C040#303003B9
(1780156416.448000) can0 10304058#96B501
(1780156416.449000) can0 10264040#0000000000000000
(1780156416.450000) can0 10210040#0000800000008000
(1780156416.451000) can0 10780040#0000000000000000
(1780156416.456000) can0 10220040#1000000040080000
(1780156416.461000) can0 10788040#100A00000000
(1780156416.479000) can0 10308060#96B501
(1780156416.480000) can0 1022E040#3000000030000000
(1780156416.481000) can0 10230040#0000000000000000
(1780156416.483000) can0 10800040#000000000000
(1780156416.486000) can0 10806040#0000000000
(1780156416.511000) can0 10240040#83FE880100D70FFD
(1780156416.511000) can0 102C0040#803C96B503
(1780156416.516000) can0 102CA040#0000000000000F00
(1780156416.541000) can0 10264040#0000000000000000
(1780156416.542000) can0 10304058#96B501
(1780156416.546000) can0 10210040#0000800000008000
(1780156416.556000) can0 10220040#1000000040080000
(1780156416.566000) can0 1022E040#1000000010000000
(1780156416.573000) can0 10308060#96B501
(1780156416.577000) can0 10230040#2000000020000000
(1780156416.586000) can0 10248040#00005DA6A600
(1780156416.606000) can0 1022A040#00B00000000000
(1780156416.608000) can0 1022C040#00000000
(1780156416.608000) can0 10240040#83FE880100D70000
(1780156416.610000) can0 102C0040#803C96B503
(1780156416.617000) can0 102CA040#0000000000000F00
(1780156416.623000) can0 106B8040#0000000000000000
(1780156416.626000) can0 102CC040#0800000000000000
(1780156416.636000) can0 10264040#0000000000000000
(1780156416.641000) can0 102CE040#0700070000000000
(1780156416.646000) can0 10210040#0000800000008000
(1780156416.650000) can0 10304058#96B501
(1780156416.669000) can0 10220040#1000000040080000
(1780156416.669000) can0 1022E040#3000000030000000
(1780156416.672000) can0 10780040#0000000000000000
(1780156416.676000) can0 10230040#0000000000000000
(1780156416.681000) can0 10800040#000000000000
(1780156416.701000) can0 10240040#83FE880100D70FFD
(1780156416.706000) can0 102C0040#803C96B503
(1780156416.732000) can0 102CA040#0000000000000F00
(1780156416.736000) can0 10264040#0000000000000000
(1780156416.746000) can0 10210040#0000800000008000
(1780156416.764000) can0 10220040#1000000040080000
(1780156416.764000) can0 10304058#96B501
(1780156416.766000) can0 1022E040#1000000010000000
(1780156416.776000) can0 10230040#2000000020000000
(1780156416.794000) can0 10308060#96B501
(1780156416.797000) can0 10240040#83FE880100D70FFD
(1780156416.801000) can0 106B8040#0000000000000000
(1780156416.810000) can0 102C0040#803C96B503
(1780156416.816000) can0 102CA040#0000000000000F00
(1780156416.841000) can0 10264040#0000000000000000
(1780156416.846000) can0 10210040#0000800000008000
(1780156416.851000) can0 1022A040#00B00000000000
(1780156416.856000) can0 10220040#1000000040080000
(1780156416.860000) can0 1022C040#00000000
(1780156416.866000) can0 1022E040#3000000030000000
(1780156416.870000) can0 10304058#96B501
(1780156416.889000) can0 10230040#0000000000000000
(1780156416.895000) can0 102CC040#0800000000000000
(1780156416.896000) can0 102CE040#0700070000000000
(1780156416.896000) can0 102D0040#0000000000000000
(1780156416.897000) can0 10240040#83FF880100D70FFD
(1780156416.902000) can0 10308060#96B501
(1780156416.907000) can0 102C0040#803C96B503
(1780156416.911000) can0 10806040#0000000000
(1780156416.916000) can0 102CA040#0000000000000F00
(1780156416.935000) can0 10780040#0000000000000000
(1780156416.936000) can0 10788040#100A00000000
(1780156416.937000) can0 10800040#000000000000
(1780156416.938000) can0 10264040#0000000000000000
(1780156416.946000) can0 10210040#0000800000008000
(1780156416.966000) can0 10220040#1000000040080000
(1780156416.967000) can0 1022E040#1000000010000000
(1780156416.976000) can0 10230040#2000000020000000
(1780156416.980000) can0 10304058#96B501
(1780156416.998000) can0 10240040#83FE880100D70000
(1780156417.001000) can0 106B8040#0000000000000000
(1780156417.005000) can0 102C0040#803C96B503
(1780156417.012000) can0 10308060#96B501
(1780156417.031000) can0 102CA040#0000000000000F00
(1780156417.039000) can0 10264040#0000000000000000
(1780156417.043000) can0 13FFE058#
(1780156417.048000) can0 10210040#0000800000008000
(1780156417.056000) can0 10220040#1000000040080000
(1780156417.076000) can0 1022E040#3000000030000000
(1780156417.077000) can0 10230040#0000000000000000
(1780156417.085000) can0 10248040#00005DA6A600
(1780156417.090000) can0 10304058#96B501
(1780156417.096000) can0 1022A040#00B00000000000
(1780156417.101000) can0 1022C040#00000000
(1780156417.122000) can0 102C0040#803C96B503
(1780156417.123000) can0 102CA040#0000000000000F00
(1780156417.123000) can0 10308060#96B501
(1780156417.127000) can0 102CC040#0800000000000000
(1780156417.136000) can0 10264040#0000000000000000
(1780156417.141000) can0 102CE040#0700070000000000
(1780156417.146000) can0 10210040#0000800000008000
(1780156417.169000) can0 10220040#1000000040080000
(1780156417.169000) can0 1022E040#1000000010000000
(1780156417.171000) can0 10780040#0000000000000000
(1780156417.176000) can0 10230040#2000000020000000
(1780156417.181000) can0 10800040#000000000000
(1780156417.199000) can0 10240040#83FE880100D70FFD
(1780156417.200000) can0 10304058#96B501
(1780156417.204000) can0 106B8040#0000000000000000
(1780156417.210000) can0 102C0040#803C96B503
(1780156417.230000) can0 102CA040#0000000000000F00
(1780156417.232000) can0 10308060#96B501
(1780156417.237000) can0 10264040#0000000000000000
(1780156417.262000) can0 1080A040#00000000
(1780156417.264000) can0 10220040#1000000040080000
(1780156417.265000) can0 1080E040#0000000000000000
(1780156417.266000) can0 13FFE060#
(1780156417.268000) can0 1022E040#3000000030000000
(1780156417.271000) can0 106D0080#0000
(1780156417.273000) can0 13FFE080#
(1780156417.293000) can0 10230040#0000000000000000
(1780156417.293000) can0 10814040#00000000
(1780156417.294000) can0 13FFE040#
(1780156417.296000) can0 10240040#83FE880100D70000
(1780156417.300000) can0 621#0052000000000000
(1780156417.305000) can0 102C0040#803C96B503
(1780156417.325000) can0 10304058#96B501
(1780156417.326000) can0 102CA040#0000000000000F00
(1780156417.336000) can0 10264040#0000000000000000
(1780156417.358000) can0 10308060#96B501
(1780156417.358000) can0 10210040#0000800000008000
(1780156417.359000) can0 1022A040#00B00000000000
(1780156417.359000) can0 10220040#1000000040080000
(1780156417.360000) can0 1022C040#00000000
(1780156417.366000) can0 1022E040#1000000010000000
(1780156417.369000) can0 10250040#0000
(1780156417.387000) can0 10230040#2000000020000000
(1780156417.388000) can0 102CC040#0800000000000000
(1780156417.388000) can0 102CE040#0700070000000000
(1780156417.391000) can0 102D0040#0000000000000000
(1780156417.396000) can0 10240040#83FE880100D70000
(1780156417.401000) can0 102E0040#840000000000004E
(1780156417.419000) can0 102C0040#803C96B503
(1780156417.419000) can0 106B8040#0000000000000000
(1780156417.420000) can0 102CA040#0000000000000F00
(1780156417.420000) can0 10304058#96B501
(1780156417.423000) can0 106C0040#00B5D1DE00
(1780156417.430000) can0 1077C040#303003B9
(1780156417.452000) can0 10264040#0000000000000000
(1780156417.452000) can0 10780040#0000000000000000
(1780156417.453000) can0 10210040#0000800000008000
(1780156417.453000) can0 10788040#100A00000000
(1780156417.453000) can0 10308060#96B501
(1780156417.458000) can0 10220040#1000000040080000
(1780156417.462000) can0 10244060#00
(1780156417.466000) can0 1022E040#3000000030000000
(1780156417.471000) can0 10800040#000000000000
(1780156417.476000) can0 10230040#0000000000000000
(1780156417.480000) can0 10806040#0000000000
(1780156417.501000) can0 10240040#83FF880100D70FFD
(1780156417.507000) can0 102C0040#803C96B503
(1780156417.531000) can0 102CA040#0000000000000F00
(1780156417.531000) can0 10304058#96B501
(1780156417.537000) can0 10264040#0000000000000000
(1780156417.563000) can0 10220040#1000000040080000
(1780156417.566000) can0 10308060#96B501
(1780156417.567000) can0 1022E040#1000000010000000
(1780156417.577000) can0 10230040#2000000020000000
(1780156417.585000) can0 10242040#01
(1780156417.591000) can0 10248040#00005DA6A600
(1780156417.596000) can0 1022A040#00B00000000000
(1780156417.600000) can0 1022C040#00000000
(1780156417.606000) can0 10240040#83FE880100D70000
(1780156417.624000) can0 102C0040#803C96B503
(1780156417.625000) can0 102CA040#0000000000000F00
(1780156417.625000) can0 106B8040#0000000000000000
(1780156417.626000) can0 102CC040#0800000000000000
(1780156417.637000) can0 10264040#0000000000000000
(1780156417.639000) can0 10304058#96B501
(1780156417.658000) can0 102CE040#0700070000000000
(1780156417.659000) can0 10210040#0000800000008000
(1780156417.659000) can0 10220040#1000000040080000
(1780156417.661000) can0 10EC4040#3056305845503638
(1780156417.667000) can0 1022E040#3000000030000000
(1780156417.688000) can0 10308060#96B501
(1780156417.688000) can0 10230040#0000000000000000
(1780156417.689000) can0 10800040#000000000000
(1780156417.691000) can0 10EC8040#4B34303238383139
(1780156417.697000) can0 10240040#83FF880100D70000
(1780156417.723000) can0 102C0040#803C96B503
(1780156417.729000) can0 102CA040#0000000000000F00
(1780156417.751000) can0 10264040#0000000000000000
(1780156417.751000) can0 10210040#0000800000008000
(1780156417.752000) can0 10304058#96B501
(1780156417.756000) can0 10220040#1000000040080000
(1780156417.783000) can0 10230040#2000000020000000
(1780156417.784000) can0 10308060#96B501
(1780156417.797000) can0 10240040#83FE880100D70FFD
(1780156417.815000) can0 106B8040#0000000000000000
(1780156417.816000) can0 102C0040#803C96B503
(1780156417.817000) can0 102CA040#0000000000000F00
(1780156417.845000) can0 10264040#0000000000000000
(1780156417.846000) can0 10210040#0000800000008000
(1780156417.852000) can0 1022A040#00B00000000000
(1780156417.856000) can0 10220040#1000000040080000
(1780156417.859000) can0 10304058#96B501
(1780156417.863000) can0 1022C040#00000000
(1780156417.871000) can0 1022E040#3000000030000000
(1780156417.892000) can0 10230040#0000000000000000
(1780156417.893000) can0 102CC040#0800000000000000
(1780156417.893000) can0 102CE040#0700070000000000
(1780156417.893000) can0 102D0040#0000000000000000
(1780156417.894000) can0 10308060#96B501
(1780156417.899000) can0 10240040#83FF880100D70000
(1780156417.908000) can0 102C0040#803C96B503
(1780156417.911000) can0 10806040#0000000000
(1780156417.917000) can0 102CA040#0000000000000F00
(1780156417.943000) can0 10788040#100A00000000
(1780156417.946000) can0 10800040#000000000000
(1780156417.946000) can0 10264040#0000000000000000
(1780156417.947000) can0 10210040#0000800000008000
(1780156417.969000) can0 10220040#1000000040080000
(1780156417.969000) can0 1022E040#1000000010000000
(1780156417.970000) can0 10304058#96B501
(1780156417.976000) can0 10230040#2000000020000000
(1780156418.000000) can0 10240040#83FE880100D70FFD
(1780156418.002000) can0 106B8040#0000000000000000
(1780156418.006000) can0 10308060#96B501
(1780156418.007000) can0 102C0040#803C96B503
(1780156418.031000) can0 102CA040#0000000000000F00
(1780156418.036000) can0 10264040#0000000000000000
(1780156418.062000) can0 10210040#0000800000008000
(1780156418.063000) can0 10220040#1000000040080000
(1780156418.066000) can0 1022E040#3000000030000000
(1780156418.076000) can0 10230040#0000000000000000
(1780156418.079000) can0 10304058#96B501
(1780156418.086000) can0 10248040#00005CA6A600
(1780156418.109000) can0 1022A040#00B00000000000
(1780156418.110000) can0 1022C040#00000000
(1780156418.111000) can0 10240040#83FE880100D70000
(1780156418.112000) can0 102C0040#803C96B503
(1780156418.113000) can0 10308060#96B501
(1780156418.118000) can0 102CA040#0000000000000F00
(1780156418.140000) can0 102CC040#0800000000000000
(1780156418.141000) can0 10264040#0000000000000000
(1780156418.141000) can0 102CE040#0700070000000000
(1780156418.147000) can0 10210040#0000800000008000
(1780156418.172000) can0 1022E040#1000000010000000
(1780156418.173000) can0 10780040#0000000000000000
(1780156418.176000) can0 10230040#2000000020000000
(1780156418.181000) can0 10800040#000000000000
(1780156418.204000) can0 10240040#83FF880100D70FFD
(1780156418.205000) can0 106B8040#0000000000000000
(1780156418.207000) can0 102C0040#803C96B503
(1780156418.217000) can0 102CA040#0000000000000F00
(1780156418.237000) can0 10308060#96B501
(1780156418.240000) can0 10264040#0000000000000000
(1780156418.240000) can0 10324058#800000000000
(1780156418.243000) can0 1080A040#00000000
(1780156418.245000) can0 13FFE058#
(1780156418.276000) can0 10220040#1000000040080000
(1780156418.278000) can0 1080E040#0000000000000000
(1780156418.278000) can0 1022E040#3000000030000000
(1780156418.278000) can0 10230040#0000000000000000
(1780156418.299000) can0 10240040#83FF880100D70000
(1780156418.300000) can0 10304058#96B501
(1780156418.305000) can0 102C0040#803C96B503
(1780156418.311000) can0 621#0052000000000000
(1780156418.331000) can0 102CA040#0000000000000F00
(1780156418.332000) can0 10308060#96B501
(1780156418.337000) can0 10264040#0000000000000000
(1780156418.363000) can0 1022A040#00B00000000000
(1780156418.365000) can0 10220040#1000000040080000
(1780156418.366000) can0 1022C040#00000000
(1780156418.366000) can0 1022E040#1000000010000000
(1780156418.370000) can0 10250040#0000
(1780156418.376000) can0 10230040#2000000020000000
(1780156418.395000) can0 62C#0040000000000000
(1780156418.396000) can0 102CE040#0700070000000000
(1780156418.397000) can0 10240040#83FF880100D70000
(1780156418.402000) can0 102D0040#0000000000000000
(1780156418.405000) can0 102C0040#803C96B503
(1780156418.408000) can0 10304058#96B501
(1780156418.426000) can0 102E0040#840000000000004E
(1780156418.427000) can0 102CA040#0000000000000F00
(1780156418.428000) can0 106B8040#0000000000000000
(1780156418.430000) can0 106C0040#00B5D1DE00
(1780156418.437000) can0 10264040#0000000000000000
(1780156418.440000) can0 1077C040#303003B9
(1780156418.458000) can0 10308060#96B501
(1780156418.458000) can0 10210040#0000800000008000
(1780156418.459000) can0 10220040#1000000040080000
(1780156418.460000) can0 624#0020000000000000
(1780156418.465000) can0 10780040#0000000000000000
(1780156418.467000) can0 13FFE060#
(1780156418.471000) can0 1022E040#3000000030000000
(1780156418.475000) can0 106D0080#0000
(1780156418.486000) can0 10230040#0000000000000000
(1780156418.487000) can0 13FFE080#
(1780156418.487000) can0 10788040#100A00000000
(1780156418.504000) can0 10800040#000000000000
(1780156418.505000) can0 10240040#83FF880100D70000
(1780156418.505000) can0 10806040#0000000000
(1780156418.506000) can0 102C0040#803C96B503
(1780156418.510000) can0 13FFE040#
(1780156418.517000) can0 102CA040#0000000000000F00
(1780156418.519000) can0 10304058#96B501
(1780156418.552000) can0 10210040#0000800000008000
(1780156418.553000) can0 10308060#96B501
(1780156418.557000) can0 10220040#10000000400A0000
(1780156418.585000) can0 10230040#2000000020000000
(1780156418.585000) can0 10248040#00005CA6A600
(1780156418.596000) can0 1022A040#00B00000000000
(1780156418.614000) can0 1022C040#00000000
(1780156418.615000) can0 10240040#83FF880100D70FFD
(1780156418.615000) can0 102C0040#803C96B503
(1780156418.616000) can0 102CA040#0000000000000F00
(1780156418.624000) can0 106B8040#0000000000000000
(1780156418.626000) can0 102CC040#0800000000000000
(1780156418.645000) can0 10264040#0000000000000000
(1780156418.646000) can0 102CE040#0700070000000000
(1780156418.646000) can0 10210040#0000800000008000
(1780156418.657000) can0 10220040#1000000040080000
(1780156418.679000) can0 10308060#96B501
(1780156418.681000) can0 1022E040#3000000030000000
(1780156418.681000) can0 10780040#0000000000000000
(1780156418.682000) can0 10230040#0000000000000000
(1780156418.682000) can0 10800040#000000000000
(1780156418.708000) can0 10240040#83FE880100D70000
(1780156418.710000) can0 102C0040#803C96B503
(1780156418.716000) can0 102CA040#0000000000000F00
(1780156418.740000) can0 10264040#0000000000000000
(1780156418.740000) can0 10304058#96B501
(1780156418.746000) can0 10210040#0000800000008000
(1780156418.775000) can0 1022E040#1000000010000000
(1780156418.776000) can0 10308060#96B501
(1780156418.777000) can0 10230040#2000000020000000
(1780156418.803000) can0 10240040#83FF880100D70FFD
(1780156418.803000) can0 106B8040#0000000000000000
(1780156418.805000) can0 102C0040#803C96B503
(1780156418.816000) can0 102CA040#0000000000000F00
(1780156418.837000) can0 10264040#0000000000000000
(1780156418.846000) can0 10210040#0000800000008000
(1780156418.866000) can0 1022A040#00B00000000000
(1780156418.867000) can0 10220040#1000000040080000
(1780156418.867000) can0 1022C040#00000000
(1780156418.874000) can0 1022E040#3000000030000000
(1780156418.877000) can0 10230040#0000000000000000
(1780156418.902000) can0 10308060#96B501
(1780156418.907000) can0 102CE040#0700070000000000
(1780156418.908000) can0 10240040#83FF880100D70000
(1780156418.908000) can0 102D0040#0000000000000000
(1780156418.909000) can0 102C0040#803C96B503
(1780156418.910000) can0 10806040#0000000000
(1780156418.929000) can0 102CA040#0000000000000F00
(1780156418.930000) can0 10780040#0000000000000000
(1780156418.930000) can0 10788040#100A00000000
(1780156418.931000) can0 10800040#000000000000
(1780156418.936000) can0 10264040#0000000000000000
(1780156418.961000) can0 10210040#0000800000008000
(1780156418.961000) can0 10220040#1000000040080000
(1780156418.962000) can0 10304058#96B501
(1780156418.966000) can0 1022E040#1000000010000000
(1780156418.976000) can0 10230040#2000000020000000
(1780156419.009000) can0 10240040#83FF880100D70FFD
(1780156419.009000) can0 102C0040#803C96B503
(1780156419.012000) can0 106B8040#0000000000000000
(1780156419.016000) can0 102CA040#0000000000000F00
(1780156419.041000) can0 10264040#0000000000000000
(1780156419.046000) can0 10210040#0000800000008000
(1780156419.070000) can0 10220040#1000000040080000
(1780156419.072000) can0 1022E040#3000000030000000
(1780156419.073000) can0 10304058#96B501
(1780156419.076000) can0 10230040#0000000000000000
(1780156419.103000) can0 1022A040#00B00000000000
(1780156419.104000) can0 1022C040#00000000
(1780156419.104000) can0 10308060#96B501
(1780156419.107000) can0 10240040#83FE880100D70FFD
(1780156419.115000) can0 102C0040#803C96B503
(1780156419.146000) can0 102CA040#0000000000000F00
(1780156419.147000) can0 102CC040#0800000000000000
(1780156419.148000) can0 10264040#0000000000000000
(1780156419.148000) can0 102CE040#0700070000000000
(1780156419.149000) can0 10210040#0000800000008000
(1780156419.156000) can0 10220040#1000000040080000
(1780156419.182000) can0 1022E040#1000000010000000
(1780156419.182000) can0 10780040#0000000000000000
(1780156419.183000) can0 10230040#2000000020000000
(1780156419.183000) can0 10304058#96B501
(1780156419.183000) can0 10800040#000000000000
(1780156419.197000) can0 10240040#83FE880100D70000
(1780156419.201000) can0 106B8040#0000000000000000
(1780156419.205000) can0 102C0040#803C96B503
(1780156419.229000) can0 102CA040#0000000000000F00
(1780156419.236000) can0 10264040#0000000000000000
(1780156419.240000) can0 1080A040#00000000
(1780156419.263000) can0 10210040#0000800000008000
(1780156419.264000) can0 1080E040#0000000000000000
(1780156419.265000) can0 10220040#10000000400A0000
(1780156419.266000) can0 1022E040#3000000030000000
(1780156419.292000) can0 10304058#96B501
(1780156419.296000) can0 10240040#83FE880100D70000
(1780156419.307000) can0 102C0040#803C96B503
(1780156419.316000) can0 102CA040#0000000000000F00
(1780156419.321000) can0 621#0052000000000000
(1780156419.325000) can0 10308060#96B501
(1780156419.336000) can0 10264040#0000000000000000
(1780156419.368000) can0 10210040#0000800000008000
(1780156419.372000) can0 1022A040#00B00000000000
(1780156419.373000) can0 10220040#1000000040080000
(1780156419.373000) can0 1022C040#00000000
(1780156419.374000) can0 1022E040#1000000010000000
(1780156419.374000) can0 10250040#0000
(1780156419.376000) can0 10230040#2000000020000000
(1780156419.381000) can0 102CC040#0800000000000000
(1780156419.403000) can0 102D0040#0000000000000000
(1780156419.404000) can0 10240040#83FE880100D70FFD
(1780156419.404000) can0 10304058#96B501
(1780156419.404000) can0 102E0040#840000000000004E
(1780156419.410000) can0 102C0040#803C96B503
(1780156419.416000) can0 102CA040#0000000000000F00
(1780156419.435000) can0 106B8040#0000000000000000
(1780156419.436000) can0 106C0040#00B5D1DE00
(1780156419.436000) can0 1077C040#303003B9
(1780156419.437000) can0 10308060#96B501
(1780156419.437000) can0 10264040#0000000000000000
(1780156419.440000) can0 13FFE058#
(1780156419.446000) can0 10210040#0000800000008000
(1780156419.470000) can0 10220040#1000000040080000
(1780156419.470000) can0 10788040#100A00000000
(1780156419.471000) can0 1022E040#3000000030000000
(1780156419.475000) can0 10800040#000000000000
(1780156419.476000) can0 10230040#0000000000000000
(1780156419.480000) can0 10806040#0000000000
(1780156419.496000) can0 10240040#83FE880100D70000
(1780156419.505000) can0 102C0040#803C96B503
(1780156419.508000) can0 10304058#96B501
(1780156419.529000) can0 102CA040#0000000000000F00
(1780156419.536000) can0 10264040#0000000000000000
(1780156419.542000) can0 10308060#96B501
(1780156419.547000) can0 10210040#0000800000008000
(1780156419.556000) can0 10220040#1000000040080000
(1780156419.588000) can0 1022E040#1000000010000000
(1780156419.590000) can0 10230040#2000000020000000
(1780156419.591000) can0 10248040#00005CA6A600
(1780156419.595000) can0 1022A040#00B00000000000
(1780156419.600000) can0 1022C040#00000000
(1780156419.606000) can0 10240040#83FE880100D70000
(1780156419.610000) can0 102C0040#803C96B503
(1780156419.616000) can0 102CA040#0000000000000F00
(1780156419.619000) can0 10304058#96B501
(1780156419.639000) can0 106B8040#0000000000000000
(1780156419.640000) can0 102CC040#0800000000000000
(1780156419.641000) can0 10264040#0000000000000000
(1780156419.641000) can0 102CE040#0700070000000000
(1780156419.646000) can0 10210040#0000800000008000
(1780156419.670000) can0 10220040#1000000040080000
(1780156419.670000) can0 13FFE060#
(1780156419.671000) can0 1022E040#3000000030000000
(1780156419.671000) can0 10780040#0000000000000000
(1780156419.673000) can0 106D0080#0000
(1780156419.678000) can0 10230040#0000000000000000
(1780156419.680000) can0 13FFE080#
(1780156419.701000) can0 13FFE040#
(1780156419.702000) can0 10240040#83FF880100D70FFD
(1780156419.707000) can0 102C0040#803C96B503
(1780156419.734000) can0 10304058#96B501
(1780156419.736000) can0 10264040#0000000000000000
(1780156419.740000) can0 10814040#00000000
(1780156419.746000) can0 10210040#0000800000008000
(1780156419.763000) can0 10220040#1000000040080000
(1780156419.764000) can0 10308060#96B501
(1780156419.766000) can0 1022E040#1000000010000000
(1780156419.776000) can0 10230040#2000000020000000
(1780156419.796000) can0 10240040#83FF880100D70000
(1780156419.802000) can0 106B8040#0000000000000000
(1780156419.805000) can0 102C0040#803C96B503
(1780156419.826000) can0 102CA040#0000000000000F00
(1780156419.836000) can0 10264040#0000000000000000
(1780156419.838000) can0 10304058#96B501
(1780156419.857000) can0 10210040#0000800000008000
(1780156419.857000) can0 1022A040#00B00000000000
(1780156419.858000) can0 10220040#1000000040080000
(1780156419.859000) can0 1022C040#00000000
(1780156419.866000) can0 1022E040#3000000030000000
(1780156419.887000) can0 10230040#0000000000000000
(1780156419.888000) can0 102CC040#0800000000000000
(1780156419.890000) can0 102CE040#0700070000000000
(1780156419.895000) can0 10240040#83FE880100D70FFD
(1780156419.901000) can0 102D0040#0000000000000000
(1780156419.918000) can0 102C0040#803C96B503
(1780156419.919000) can0 10806040#0000000000
(1780156419.919000) can0 102CA040#0000000000000F00
(1780156419.921000) can0 10780040#0000000000000000
(1780156419.925000) can0 10788040#100A00000000
(1780156419.930000) can0 10800040#000000000000
(1780156419.951000) can0 10264040#0000000000000000
(1780156419.951000) can0 10210040#0000800000008000
(1780156419.951000) can0 10304058#96B501
(1780156419.955000) can0 10220040#1000000040080000
(1780156419.965000) can0 1022E040#1000000010000000
(1780156419.976000) can0 10230040#2000000020000000
(1780156419.998000) can0 10240040#83FF880100D70FFD
(1780156420.001000) can0 106B8040#0000000000000000
(1780156420.005000) can0 102C0040#803C96B503
(1780156420.029000) can0 102CA040#0000000000000F00
(1780156420.036000) can0 10264040#0000000000000000
(1780156420.061000) can0 10210040#0000800000008000
(1780156420.062000) can0 10220040#1000000040080000
(1780156420.062000) can0 10304058#96B501
(1780156420.065000) can0 1022E040#3000000030000000
(1780156420.075000) can0 10230040#0000000000000000
(1780156420.085000) can0 10248040#00005CA6A600
(1780156420.107000) can0 10308060#96B501
(1780156420.108000) can0 1022A040#00B00000000000
(1780156420.108000) can0 1022C040#00000000
(1780156420.108000) can0 10240040#83FF880100D70FFD
(1780156420.109000) can0 102C0040#803C96B503
(1780156420.116000) can0 102CA040#0000000000000F00
(1780156420.138000) can0 102CC040#0800000000000000
(1780156420.139000) can0 10264040#0000000000000000
(1780156420.140000) can0 102CE040#0700070000000000
(1780156420.145000) can0 10210040#0000800000008000
(1780156420.171000) can0 10220040#1000000040080000
(1780156420.171000) can0 1022E040#1000000010000000
(1780156420.171000) can0 10304058#96B501
(1780156420.173000) can0 10780040#0000000000000000
(1780156420.180000) can0 10230040#2000000020000000
(1780156420.185000) can0 10800040#000000000000
(1780156420.202000) can0 10240040#83FF880100D70000
(1780156420.203000) can0 106B8040#0000000000000000
(1780156420.203000) can0 10308060#96B501
(1780156420.207000) can0 102C0040#803C96B503
(1780156420.216000) can0 102CA040#0000000000000F00
(1780156420.235000) can0 10264040#0000000000000000
(1780156420.239000) can0 10324058#800000000000
(1780156420.243000) can0 1080A040#00000000
(1780156420.265000) can0 10210040#0000800000008000
(1780156420.266000) can0 10220040#1000000040080000
(1780156420.266000) can0 1080E040#0000000000000000
(1780156420.266000) can0 1022E040#3000000030000000
(1780156420.275000) can0 10230040#0000000000000000
(1780156420.278000) can0 10304058#96B501
(1780156420.296000) can0 10240040#83FE880100D70000
(1780156420.304000) can0 102C0040#803C96B503
(1780156420.328000) can0 10308060#96B501
(1780156420.329000) can0 102CA040#0000000000000F00
(1780156420.329000) can0 621#0052000000000000
(1780156420.335000) can0 10264040#0000000000000000
(1780156420.359000) can0 10210040#0000800000008000
(1780156420.360000) can0 1022A040#00B00000000000
(1780156420.360000) can0 10220040#1000000040080000
(1780156420.360000) can0 1022C040#00000000
(1780156420.365000) can0 1022E040#1000000010000000
(1780156420.369000) can0 10250040#0000
(1780156420.390000) can0 10230040#2000000020000000
(1780156420.391000) can0 102CC040#0800000000000000
(1780156420.391000) can0 102CE040#0700070000000000
(1780156420.392000) can0 10304058#96B501
(1780156420.393000) can0 102D0040#0000000000000000
(1780156420.401000) can0 10240040#83FF880100D70FFD
(1780156420.405000) can0 102C0040#803C96B503
(1780156420.422000) can0 102E0040#840000000000004E
(1780156420.422000) can0 102CA040#0000000000000F00
(1780156420.422000) can0 106B8040#0000000000000000
(1780156420.423000) can0 10308060#96B501
(1780156420.427000) can0 106C0040#00B5D1DE00
(1780156420.435000) can0 10264040#0000000000000000
(1780156420.453000) can0 1077C040#303003B9
(1780156420.454000) can0 10210040#0000800000008000
(1780156420.454000) can0 10780040#0000000000000000
(1780156420.455000) can0 10220040#10000000400A0000
(1780156420.460000) can0 10788040#100A00000000
(1780156420.465000) can0 1022E040#3000000030000000
(1780156420.484000) can0 10800040#000000000000
(1780156420.484000) can0 10230040#0000000000000000
(1780156420.485000) can0 10806040#0000000000
(1780156420.495000) can0 10240040#83FE880100D70000
(1780156420.498000) can0 10304058#96B501
(1780156420.504000) can0 102C0040#803C96B503
(1780156420.530000) can0 102CA040#0000000000000F00
(1780156420.532000) can0 10308060#96B501
(1780156420.536000) can0 10264040#0000000000000000
(1780156420.545000) can0 10210040#0000800000008000
(1780156420.562000) can0 10220040#1000000040080000
(1780156420.565000) can0 1022E040#1000000010000000
(1780156420.575000) can0 10230040#2000000020000000
(1780156420.594000) can0 10248040#00005CA6A600
(1780156420.595000) can0 1022A040#00B00000000000
(1780156420.599000) can0 1022C040#00000000
(1780156420.605000) can0 10240040#83FF880100D70FFD
(1780156420.608000) can0 10304058#96B501
(1780156420.625000) can0 102C0040#803C96B503
(1780156420.626000) can0 102CA040#0000000000000F00
(1780156420.627000) can0 102CC040#0800000000000000
(1780156420.631000) can0 106B8040#0000000000000000
(1780156420.635000) can0 10264040#0000000000000000
(1780156420.638000) can0 13FFE058#
(1780156420.657000) can0 102CE040#0700070000000000
(1780156420.658000) can0 10308060#96B501
(1780156420.658000) can0 10210040#0000800000008000
(1780156420.658000) can0 10220040#1000000040080000
(1780156420.665000) can0 1022E040#3000000030000000
(1780156420.670000) can0 10780040#0000000000000000
(1780156420.689000) can0 10230040#0000000000000000
(1780156420.689000) can0 10800040#000000000000
(1780156420.695000) can0 10240040#83FF880100D70000
(1780156420.704000) can0 102C0040#803C96B503
(1780156420.715000) can0 102CA040#0000000000000F00
(1780156420.718000) can0 10304058#96B501
(1780156420.736000) can0 10264040#0000000000000000
(1780156420.745000) can0 10210040#0000800000008000
(1780156420.770000) can0 10308060#96B501
(1780156420.770000) can0 10220040#1000000040080000
(1780156420.770000) can0 1022E040#1000000010000000
(1780156420.775000) can0 10230040#2000000020000000
(1780156420.800000) can0 10240040#83FE880100D70FFD
(1780156420.800000) can0 106B8040#0000000000000000
(1780156420.804000) can0 102C0040#803C96B503
(1780156420.831000) can0 102CA040#0000000000000F00
(1780156420.832000) can0 10304058#96B501
(1780156420.835000) can0 10264040#0000000000000000
(1780156420.845000) can0 10210040#0000800000008000
(1780156420.863000) can0 1022A040#00B00000000000
(1780156420.864000) can0 10220040#1000000040080000
(1780156420.864000) can0 1022C040#00000000
(1780156420.864000) can0 10308060#96B501
(1780156420.866000) can0 1022E040#3000000030000000
(1780156420.869000) can0 13FFE060#
(1780156420.871000) can0 106D0080#0000
(1780156420.876000) can0 10230040#0000000000000000
(1780156420.878000) can0 13FFE080#
(1780156420.882000) can0 102CC040#0800000000000000
(1780156420.890000) can0 102CE040#0700070000000000
(1780156420.910000) can0 10240040#83FF880100D70FFD
(1780156420.912000) can0 102D0040#0000000000000000
(1780156420.912000) can0 102C0040#803C96B503
(1780156420.912000) can0 10806040#0000000000
(1780156420.915000) can0 102CA040#0000000000000F00
(1780156420.921000) can0 10780040#0000000000000000
(1780156420.925000) can0 10788040#100A00000000
(1780156420.930000) can0 10800040#000000000000
(1780156420.936000) can0 10264040#0000000000000000
(1780156420.938000) can0 10304058#96B501
(1780156420.941000) can0 13FFE040#
(1780156420.945000) can0 10210040#0000800000008000
(1780156420.955000) can0 10220040#10000000400A0000
(1780156420.966000) can0 1022E040#1000000010000000
(1780156420.972000) can0 10308060#96B501
(1780156420.977000) can0 10230040#2000000020000000
(1780156421.005000) can0 10240040#83FF880100D70FFD
(1780156421.006000) can0 106B8040#0000000000000000
(1780156421.006000) can0 102C0040#803C96B503
(1780156421.015000) can0 102CA040#0000000000000F00
(1780156421.037000) can0 10264040#0000000000000000
(1780156421.045000) can0 10210040#0000800000008000
(1780156421.048000) can0 10304058#96B501
(1780156421.069000) can0 10220040#1000000040080000
(1780156421.069000) can0 1022E040#3000000030000000
(1780156421.075000) can0 10230040#0000000000000000
(1780156421.082000) can0 10308060#96B501
(1780156421.100000) can0 10248040#00005CA6A600
(1780156421.100000) can0 1022A040#00B00000000000
(1780156421.100000) can0 1022C040#00000000
(1780156421.105000) can0 10240040#83FE880100D70FFD
(1780156421.109000) can0 102C0040#803C96B503
(1780156421.131000) can0 102CC040#0800000000000000
(1780156421.136000) can0 10264040#0000000000000000
(1780156421.140000) can0 102CE040#0700070000000000
(1780156421.146000) can0 10210040#0000800000008000
(1780156421.155000) can0 10220040#1000000040080000
(1780156421.158000) can0 10304058#96B501
(1780156421.179000) can0 1022E040#1000000010000000
(1780156421.180000) can0 10780040#0000000000000000
(1780156421.181000) can0 10230040#2000000020000000
(1780156421.181000) can0 10800040#000000000000
(1780156421.192000) can0 10308060#96B501
(1780156421.209000) can0 10240040#83FE880100D70FFD
(1780156421.210000) can0 102C0040#803C96B503
(1780156421.210000) can0 106B8040#0000000000000000
(1780156421.216000) can0 102CA040#0000000000000F00
(1780156421.240000) can0 10264040#0000000000000000
(1780156421.240000) can0 1080A040#00000000
(1780156421.246000) can0 10210040#0000800000008000
(1780156421.251000) can0 1080E040#0000000000000000
(1780156421.273000) can0 1022E040#3000000030000000
(1780156421.274000) can0 10304058#96B501
(1780156421.275000) can0 10230040#0000000000000000
(1780156421.303000) can0 10240040#83FE880100D70FFD
(1780156421.303000) can0 10308060#96B501
(1780156421.305000) can0 102C0040#803C96B503
(1780156421.315000) can0 102CA040#0000000000000F00
(1780156421.339000) can0 621#0052000000000000
(1780156421.340000) can0 10264040#0000000000000000
(1780156421.345000) can0 10210040#0000800000008000
(1780156421.366000) can0 1022A040#00B00000000000
(1780156421.366000) can0 10220040#1000000040080000
(1780156421.366000) can0 1022C040#00000000
(1780156421.367000) can0 1022E040#1000000010000000
(1780156421.369000) can0 10250040#0000
(1780156421.375000) can0 10230040#2000000020000000
(1780156421.378000) can0 10304058#96B501
(1780156421.398000) can0 102CC040#0800000000000000
(1780156421.398000) can0 62C#0040000000000000
(1780156421.398000) can0 102CE040#0700070000000000
(1780156421.399000) can0 10240040#83FE880100D70000
(1780156421.400000) can0 102D0040#0000000000000000
(1780156421.404000) can0 102C0040#803C96B503
(1780156421.410000) can0 102E0040#840000000000004E
(1780156421.413000) can0 10308060#96B501
(1780156421.418000) can0 102CA040#0000000000000F00
(1780156421.425000) can0 106B8040#0000000000000000
(1780156421.446000) can0 10264040#0000000000000000
(1780156421.447000) can0 1077C040#303003B9
(1780156421.448000) can0 10210040#0000800000008000
(1780156421.450000) can0 10780040#0000000000000000
(1780156421.455000) can0 10220040#1000000040080000
(1780156421.460000) can0 10788040#100A00000000
(1780156421.478000) can0 624#0020000000000000
(1780156421.479000) can0 1022E040#3000000030000000
(1780156421.479000) can0 10230040#0000000000000000
(1780156421.480000) can0 10800040#000000000000
(1780156421.485000) can0 10806040#0000000000
(1780156421.488000) can0 10304058#96B501
(1780156421.509000) can0 10240040#83FF880100D70000
(1780156421.509000) can0 102C0040#803C96B503
(1780156421.515000) can0 102CA040#0000000000000F00
(1780156421.524000) can0 10308060#96B501
(1780156421.536000) can0 10264040#0000000000000000
(1780156421.556000) can0 10210040#0000800000008000
(1780156421.558000) can0 10220040#1000000040080000
(1780156421.565000) can0 1022E040#1000000010000000
(1780156421.586000) can0 10230040#2000000020000000
(1780156421.586000) can0 10248040#00005CA6A600
(1780156421.595000) can0 1022A040#00B00000000000
(1780156421.598000) can0 10304058#96B501
(1780156421.617000) can0 1022C040#00000000
(1780156421.618000) can0 10240040#83FE880100D70000
(1780156421.618000) can0 102C0040#803C96B503
(1780156421.621000) can0 102CA040#0000000000000F00
(1780156421.625000) can0 102CC040#0800000000000000
(1780156421.631000) can0 106B8040#0000000000000000
(1780156421.651000) can0 10308060#96B501
(1780156421.653000) can0 10264040#0000000000000000
(1780156421.653000) can0 10210040#0000800000008000
(1780156421.654000) can0 102CE040#0700070000000000
(1780156421.658000) can0 10220040#1000000040080000
(1780156421.681000) can0 1022E040#3000000030000000
(1780156421.682000) can0 10780040#0000000000000000
(1780156421.682000) can0 10230040#0000000000000000
(1780156421.682000) can0 10800040#000000000000
(1780156421.712000) can0 102C0040#803C96B503
(1780156421.713000) can0 10304058#96B501
(1780156421.715000) can0 102CA040#0000000000000F00
(1780156421.745000) can0 10264040#0000000000000000
(1780156421.746000) can0 10308060#96B501
(1780156421.746000) can0 10210040#0000800000008000
(1780156421.757000) can0 10220040#10000000400A0000
(1780156421.776000) can0 1022E040#1000000010000000
(1780156421.777000) can0 10230040#2000000020000000
(1780156421.806000) can0 10240040#83FE880100D70FFD
(1780156421.807000) can0 106B8040#0000000000000000
(1780156421.807000) can0 102C0040#803C96B503
(1780156421.815000) can0 102CA040#0000000000000F00
(1780156421.819000) can0 10304058#96B501
(1780156421.838000) can0 10264040#0000000000000000
(1780156421.838000) can0 13FFE058#
(1780156421.846000) can0 10210040#0000800000008000
(1780156421.850000) can0 1022A040#00B00000000000
(1780156421.870000) can0 10220040#1000000040080000
(1780156421.871000) can0 1022C040#00000000
(1780156421.873000) can0 1022E040#3000000030000000
(1780156421.876000) can0 10230040#0000000000000000
(1780156421.880000) can0 102CC040#0800000000000000
(1780156421.903000) can0 102CE040#0700070000000000
(1780156421.903000) can0 102D0040#0000000000000000
(1780156421.904000) can0 10240040#83FE880100D70000
(1780156421.904000) can0 102C0040#803C96B503
(1780156421.910000) can0 10806040#0000000000
(1780156421.931000) can0 10780040#0000000000000000
(1780156421.932000) can0 10788040#100A00000000
(1780156421.932000) can0 10304058#96B501
(1780156421.933000) can0 10800040#000000000000
(1780156421.940000) can0 10264040#0000000000000000
(1780156421.961000) can0 10220040#1000000040080000
(1780156421.962000) can0 10308060#96B501
(1780156421.966000) can0 1022E040#1000000010000000
(1780156421.975000) can0 10230040#2000000020000000
(1780156421.995000) can0 10240040#83FF880100D70FFD
(1780156422.000000) can0 106B8040#0000000000000000
(1780156422.005000) can0 102C0040#803C96B503
(1780156422.024000) can0 102CA040#0000000000000F00
(1780156422.035000) can0 10264040#0000000000000000
(1780156422.038000) can0 10304058#96B501
(1780156422.045000) can0 10210040#0000800000008000
(1780156422.070000) can0 10220040#1000000040080000
(1780156422.070000) can0 13FFE060#
(1780156422.070000) can0 1022E040#3000000030000000
(1780156422.072000) can0 13FFE040#
(1780156422.072000) can0 106D0080#0000
(1780156422.073000) can0 10308060#96B501
(1780156422.078000) can0 10230040#0000000000000000
(1780156422.080000) can0 13FFE080#
(1780156422.101000) can0 1022A040#00B00000000000
(1780156422.102000) can0 1022C040#00000000
(1780156422.107000) can0 10240040#83FE880100D70FFD
(1780156422.110000) can0 102C0040#803C96B503
(1780156422.133000) can0 102CC040#0800000000000000
(1780156422.135000) can0 10264040#0000000000000000
(1780156422.140000) can0 102CE040#0700070000000000
(1780156422.145000) can0 10210040#0000800000008000
(1780156422.164000) can0 10220040#1000000040080000
(1780156422.165000) can0 1022E040#1000000010000000
(1780156422.171000) can0 10780040#0000000000000000
(1780156422.175000) can0 10230040#2000000020000000
(1780156422.198000) can0 10308060#96B501
(1780156422.198000) can0 10240040#83FE880100D70FFD
(1780156422.200000) can0 106B8040#0000000000000000
(1780156422.204000) can0 102C0040#803C96B503
(1780156422.238000) can0 102CA040#0000000000000F00
(1780156422.239000) can0 10264040#0000000000000000
(1780156422.240000) can0 10324058#800000000000
(1780156422.242000) can0 1080A040#00000000
(1780156422.250000) can0 10210040#0000800000008000
(1780156422.255000) can0 10220040#1000000040080000
(1780156422.258000) can0 10304058#96B501
(1780156422.262000) can0 1080E040#0000000000000000
(1780156422.270000) can0 1022E040#3000000030000000
(1780156422.290000) can0 10230040#0000000000000000
(1780156422.291000) can0 10814040#00000000
(1780156422.292000) can0 10308060#96B501
(1780156422.296000) can0 10240040#83FE880100D70000
(1780156422.308000) can0 102C0040#803C96B503
(1780156422.315000) can0 102CA040#0000000000000F00
(1780156422.340000) can0 10264040#0000000000000000
(1780156422.346000) can0 10210040#0000800000008000
(1780156422.350000) can0 1022A040#00B00000000000
(1780156422.370000) can0 1022C040#00000000
(1780156422.371000) can0 1022E040#1000000010000000
(1780156422.373000) can0 10304058#96B501
(1780156422.373000) can0 10250040#0000
(1780156422.375000) can0 10230040#2000000020000000
(1780156422.381000) can0 102CC040#0800000000000000
(1780156422.402000) can0 102D0040#0000000000000000
(1780156422.403000) can0 10240040#83FF880100D70FFD
(1780156422.404000) can0 102E0040#840000000000004E
(1780156422.404000) can0 10308060#96B501
(1780156422.407000) can0 102C0040#803C96B503
(1780156422.415000) can0 102CA040#0000000000000F00
(1780156422.449000) can0 106B8040#0000000000000000
(1780156422.450000) can0 106C0040#00B5D1DE00
(1780156422.450000) can0 1077C040#303003B9
(1780156422.451000) can0 10264040#0000000000000000
(1780156422.451000) can0 10780040#0000000000000000
(1780156422.452000) can0 10210040#0000800000008000
(1780156422.452000) can0 10788040#100A00000000
(1780156422.455000) can0 10220040#1000000040080000
(1780156422.459000) can0 10800040#000000000000
(1780156422.463000) can0 10244060#00
(1780156422.467000) can0 1022E040#3000000030000000
(1780156422.475000) can0 10230040#0000000000000000
(1780156422.494000) can0 10806040#0000000000
(1780156422.495000) can0 10240040#83FF880100D70000
(1780156422.505000) can0 102C0040#803C96B503
(1780156422.526000) can0 10308060#96B501
(1780156422.527000) can0 102CA040#0000000000000F00
(1780156422.527000) can0 1062C040#000BF7BD15
(1780156422.536000) can0 10264040#0000000000000000
(1780156422.557000) can0 10210040#0000800000008000
(1780156422.558000) can0 10220040#1000000040080000
(1780156422.565000) can0 1022E040#1000000010000000
(1780156422.593000) can0 10230040#2000000020000000
(1780156422.595000) can0 10242040#01
(1780156422.596000) can0 10304058#96B501
(1780156422.597000) can0 10248040#00005CA6A600
(1780156422.598000) can0 1022A040#00B00000000000
(1780156422.601000) can0 1022C040#00000000
(1780156422.623000) can0 102C0040#803C96B503
(1780156422.625000) can0 102CA040#0000000000000F00
(1780156422.627000) can0 106B8040#0000000000000000
(1780156422.627000) can0 10308060#96B501
(1780156422.627000) can0 102CC040#0800000000000000
(1780156422.652000) can0 102CE040#0700070000000000
(1780156422.652000) can0 10210040#0000800000008000
(1780156422.656000) can0 10220040#1000000040080000
(1780156422.660000) can0 10EC4040#3056305845503638
(1780156422.665000) can0 1022E040#3000000030000000
(1780156422.682000) can0 10780040#0000000000000000
(1780156422.683000) can0 10230040#0000000000000000
(1780156422.683000) can0 10800040#000000000000
(1780156422.685000) can0 10EC8040#4B34303238383139
(1780156422.695000) can0 10240040#83FE880100D70000
(1780156422.714000) can0 102C0040#803C96B503
(1780156422.715000) can0 102CA040#0000000000000F00
(1780156422.746000) can0 10308060#96B501
(1780156422.747000) can0 10264040#0000000000000000
(1780156422.748000) can0 10210040#0000800000008000
(1780156422.757000) can0 10220040#1000000040080000
(1780156422.777000) can0 1022E040#1000000010000000
(1780156422.778000) can0 10230040#2000000020000000
(1780156422.807000) can0 10240040#83FE880100D70FFD
(1780156422.809000) can0 106B8040#0000000000000000
(1780156422.809000) can0 10304058#96B501
(1780156422.810000) can0 102C0040#803C96B503
(1780156422.815000) can0 102CA040#0000000000000F00
(1780156422.839000) can0 10264040#0000000000000000
(1780156422.841000) can0 10308060#96B501
(1780156422.846000) can0 10210040#0000800000008000
(1780156422.872000) can0 10220040#1000000040080000
(1780156422.884000) can0 1022A040#00B00000000000
(1780156422.885000) can0 1022C040#00000000
(1780156422.885000) can0 1022E040#3000000030000000
(1780156422.886000) can0 10230040#0000000000000000
(1780156422.886000) can0 102CC040#0800000000000000
(1780156422.887000) can0 102CE040#0700070000000000
(1780156422.891000) can0 102D0040#0000000000000000
(1780156422.895000) can0 10240040#83FF880100D70FFD
(1780156422.918000) can0 102C0040#803C96B503
(1780156422.928000) can0 10806040#0000000000
(1780156422.930000) can0 10304058#96B501
(1780156422.930000) can0 102CA040#0000000000000F00
(1780156422.931000) can0 10780040#0000000000000000
(1780156422.931000) can0 10788040#100A00000000
(1780156422.950000) can0 10264040#0000000000000000
(1780156422.951000) can0 10800040#000000000000
(1780156422.952000) can0 10210040#0000800000008000
(1780156422.952000) can0 10308060#96B501
(1780156422.956000) can0 10220040#1000000040080000
(1780156422.983000) can0 10230040#2000000020000000
(1780156422.996000) can0 10240040#83FF880100D70000
(1780156423.016000) can0 106B8040#0000000000000000
(1780156423.016000) can0 102C0040#803C96B503
(1780156423.017000) can0 102CA040#0000000000000F00
(1780156423.023000) can0 10304058#96B501
(1780156423.046000) can0 13FFE058#
(1780156423.046000) can0 10264040#0000000000000000
(1780156423.047000) can0 10210040#0000800000008000
(1780156423.057000) can0 10220040#1000000040080000
(1780156423.079000) can0 1022E040#3000000030000000
(1780156423.080000) can0 10230040#0000000000000000
(1780156423.084000) can0 10248040#00005CA6A600
(1780156423.109000) can0 1022C040#00000000
(1780156423.110000) can0 10240040#83FE880100D70000
(1780156423.111000) can0 102C0040#803C96B503
(1780156423.115000) can0 102CA040#0000000000000F00
(1780156423.142000) can0 10304058#96B501
(1780156423.144000) can0 10264040#0000000000000000
(1780156423.146000) can0 10210040#0000800000008000
(1780156423.150000) can0 102CE040#0700070000000000
(1780156423.158000) can0 10220040#1000000040080000
(1780156423.165000) can0 1022E040#1000000010000000
(1780156423.170000) can0 10780040#0000000000000000
(1780156423.173000) can0 10308060#96B501
(1780156423.178000) can0 10230040#2000000020000000
(1780156423.185000) can0 10800040#000000000000
(1780156423.206000) can0 10240040#83FE880100D70000
(1780156423.208000) can0 106B8040#0000000000000000
(1780156423.209000) can0 102C0040#803C96B503
(1780156423.215000) can0 102CA040#0000000000000F00
(1780156423.235000) can0 10264040#0000000000000000
(1780156423.239000) can0 1080A040#00000000
(1780156423.244000) can0 10304058#96B501
(1780156423.248000) can0 10210040#0000800000008000
(1780156423.266000) can0 10220040#1000000040060000
(1780156423.267000) can0 1080E040#0000000000000000
(1780156423.267000) can0 13FFE060#
(1780156423.268000) can0 1022E040#3000000030000000
(1780156423.270000) can0 106D0080#0000
(1780156423.273000) can0 13FFE080#
(1780156423.277000) can0 10230040#0000000000000000
(1780156423.282000) can0 10308060#96B501
(1780156423.283000) can0 13FFE040#
(1780156423.295000) can0 10240040#83FF880100D70000
(1780156423.316000) can0 102C0040#803C96B503
(1780156423.316000) can0 102CA040#0000000000000F00
(1780156423.324000) can0 621#0052000000000000
(1780156423.345000) can0 10264040#0000000000000000
(1780156423.345000) can0 10210040#0000800000008000
(1780156423.350000) can0 1022A040#00B00000000000
(1780156423.353000) can0 10304058#96B501
(1780156423.358000) can0 10220040#1000000040080000
(1780156423.377000) can0 1022C040#00000000
(1780156423.378000) can0 1022E040#1000000010000000
(1780156423.378000) can0 10230040#2000000020000000
(1780156423.378000) can0 10250040#0000
(1780156423.385000) can0 102CC040#0800000000000000
(1780156423.390000) can0 102CE040#0700070000000000
(1780156423.409000) can0 10308060#96B501
(1780156423.410000) can0 10240040#83FF880100D70FFD
(1780156423.410000) can0 102C0040#803C96B503
(1780156423.410000) can0 102D0040#0000000000000000
(1780156423.415000) can0 102CA040#0000000000000F00
(1780156423.420000) can0 102E0040#840000000000004E
(1780156423.440000) can0 106B8040#0000000000000000
(1780156423.441000) can0 106C0040#00B5D1DE00
(1780156423.442000) can0 10264040#0000000000000000
(1780156423.442000) can0 1077C040#303003B9
(1780156423.445000) can0 10210040#0000800000008000
(1780156423.451000) can0 10780040#0000000000000000
(1780156423.470000) can0 10788040#100A00000000
(1780156423.471000) can0 10304058#96B501
(1780156423.472000) can0 1022E040#3000000030000000
(1780156423.475000) can0 10230040#0000000000000000
(1780156423.479000) can0 10800040#000000000000
(1780156423.484000) can0 10806040#0000000000
(1780156423.503000) can0 10240040#83FF880100D70000
(1780156423.503000) can0 10308060#96B501
(1780156423.507000) can0 102C0040#803C96B503
(1780156423.515000) can0 102CA040#0000000000000F00
(1780156423.535000) can0 10264040#0000000000000000
(1780156423.550000) can0 10210040#0000800000008000
(1780156423.555000) can0 10220040#1000000040080000
(1780156423.581000) can0 10304058#96B501
(1780156423.582000) can0 10230040#2000000020000000
(1780156423.585000) can0 10248040#00005CA6A600
(1780156423.595000) can0 1022A040#00B00000000000
(1780156423.612000) can0 1022C040#00000000
(1780156423.613000) can0 10240040#83FF880100D70000
(1780156423.614000) can0 102C0040#803C96B503
(1780156423.614000) can0 10308060#96B501
(1780156423.616000) can0 102CA040#0000000000000F00
(1780156423.625000) can0 102CC040#0800000000000000
(1780156423.644000) can0 10264040#0000000000000000
(1780156423.645000) can0 102CE040#0700070000000000
(1780156423.646000) can0 10210040#0000800000008000
(1780156423.655000) can0 10220040#1000000040080000
(1780156423.674000) can0 1022E040#3000000030000000
(1780156423.675000) can0 10780040#0000000000000000
(1780156423.675000) can0 10230040#0000000000000000
(1780156423.679000) can0 10800040#000000000000
(1780156423.682000) can0 10304058#96B501
(1780156423.706000) can0 10240040#83FE880100D70FFD
(1780156423.707000) can0 102C0040#803C96B503
(1780156423.715000) can0 102CA040#0000000000000F00
(1780156423.722000) can0 10308060#96B501
(1780156423.736000) can0 10264040#0000000000000000
(1780156423.767000) can0 10210040#0000800000008000
(1780156423.767000) can0 10220040#1000000040080000
(1780156423.768000) can0 1022E040#1000000010000000
(1780156423.775000) can0 10230040#2000000020000000
(1780156423.799000) can0 10304058#96B501
(1780156423.800000) can0 10240040#83FF880100D70000
(1780156423.804000) can0 102C0040#803C96B503
(1780156423.810000) can0 106B8040#0000000000000000
(1780156423.831000) can0 10308060#96B501
(1780156423.836000) can0 10264040#0000000000000000
(1780156423.845000) can0 10210040#0000800000008000
(1780156423.864000) can0 1022A040#00B00000000000
(1780156423.865000) can0 10220040#1000000040080000
(1780156423.866000) can0 1022C040#00000000
(1780156423.867000) can0 1022E040#3000000030000000
(1780156423.875000) can0 10230040#0000000000000000
(1780156423.894000) can0 102CC040#0800000000000000
(1780156423.896000) can0 102CE040#0700070000000000
(1780156423.897000) can0 102D0040#0000000000000000
(1780156423.897000) can0 10240040#83FF880100D70000
(1780156423.902000) can0 10304058#96B501
(1780156423.906000) can0 102C0040#803C96B503
(1780156423.924000) can0 102CA040#0000000000000F00
(1780156423.925000) can0 10780040#0000000000000000
(1780156423.925000) can0 10788040#100A00000000
(1780156423.929000) can0 10800040#000000000000
(1780156423.935000) can0 10264040#0000000000000000
(1780156423.939000) can0 10806040#0000000000
(1780156423.957000) can0 10308060#96B501
(1780156423.958000) can0 10210040#0000800000008000
(1780156423.959000) can0 10220040#1000000040080000
(1780156423.965000) can0 1022E040#1000000010000000
(1780156423.989000) can0 10230040#2000000020000000
(1780156423.994000) can0 10240040#83FF880100D70FFD
(1780156424.000000) can0 106B8040#0000000000000000
(1780156424.020000) can0 102C0040#803C96B503
(1780156424.020000) can0 10304058#96B501
(1780156424.020000) can0 102CA040#0000000000000F00
(1780156424.035000) can0 10264040#0000000000000000
(1780156424.047000) can0 10210040#0000800000008000
(1780156424.067000) can0 10220040#1000000040080000
(1780156424.068000) can0 1022E040#3000000030000000
(1780156424.075000) can0 10230040#0000000000000000
(1780156424.099000) can0 10248040#00005CA6A600
(1780156424.099000) can0 1022A040#00B00000000000
(1780156424.100000) can0 1022C040#00000000
(1780156424.105000) can0 10240040#83FF880100D70000
(1780156424.109000) can0 102C0040#803C96B503
(1780156424.131000) can0 102CA040#0000000000000F00
(1780156424.131000) can0 10304058#96B501
(1780156424.131000) can0 102CC040#0800000000000000
(1780156424.135000) can0 10264040#0000000000000000
(1780156424.139000) can0 102CE040#0700070000000000
(1780156424.145000) can0 10210040#0000800000008000
(1780156424.162000) can0 10220040#1000000040080000
(1780156424.162000) can0 10308060#96B501
(1780156424.165000) can0 1022E040#1000000010000000
(1780156424.174000) can0 10230040#2000000020000000
(1780156424.193000) can0 10780040#0000000000000000
(1780156424.194000) can0 10800040#000000000000
(1780156424.195000) can0 10240040#83FE880100D70000
(1780156424.200000) can0 106B8040#0000000000000000
(1780156424.204000) can0 102C0040#803C96B503
(1780156424.225000) can0 102CA040#0000000000000F00
(1780156424.232000) can0 10304058#96B501
(1780156424.237000) can0 10264040#0000000000000000
(1780156424.256000) can0 10210040#0000800000008000
(1780156424.256000) can0 13FFE058#
(1780156424.256000) can0 1080A040#00000000
(1780156424.257000) can0 10220040#1000000040080000
(1780156424.260000) can0 1080E040#0000000000000000
(1780156424.264000) can0 1022E040#3000000030000000
(1780156424.287000) can0 10308060#96B501
(1780156424.287000) can0 10230040#0000000000000000
(1780156424.294000) can0 10240040#83FE880100D70000
(1780156424.318000) can0 102C0040#803C96B503
(1780156424.319000) can0 102CA040#0000000000000F00
(1780156424.324000) can0 621#0052000000000000
(1780156424.352000) can0 10264040#0000000000000000
(1780156424.353000) can0 10304058#96B501
(1780156424.354000) can0 10210040#0000800000008000
(1780156424.355000) can0 10220040#1000000040080000
(1780156424.359000) can0 1022A040#00B00000000000
(1780156424.363000) can0 1022C040#00000000
(1780156424.382000) can0 1022E040#1000000010000000
(1780156424.383000) can0 10230040#2000000020000000
(1780156424.383000) can0 10250040#0000
(1780156424.383000) can0 62C#0040000000000000
(1780156424.386000) can0 102CC040#0800000000000000
(1780156424.389000) can0 10308060#96B501
(1780156424.394000) can0 10240040#83FF880100D70FFD
(1780156424.413000) can0 102CE040#0700070000000000
(1780156424.414000) can0 102C0040#803C96B503
(1780156424.414000) can0 102D0040#0000000000000000
(1780156424.415000) can0 102CA040#0000000000000F00
(1780156424.419000) can0 102E0040#840000000000004E
(1780156424.425000) can0 106B8040#0000000000000000
(1780156424.429000) can0 106C0040#00B5D1DE00
(1780156424.445000) can0 10264040#0000000000000000
(1780156424.445000) can0 1077C040#303003B9
(1780156424.446000) can0 10210040#0000800000008000
(1780156424.450000) can0 10780040#0000000000000000
(1780156424.453000) can0 10304058#96B501
(1780156424.457000) can0 10220040#1000000040080000
(1780156424.476000) can0 624#0020000000000000
(1780156424.477000) can0 1022E040#3000000030000000
(1780156424.477000) can0 13FFE060#
(1780156424.477000) can0 106D0080#0000
(1780156424.478000) can0 10230040#0000000000000000
(1780156424.478000) can0 13FFE080#
(1780156424.480000) can0 10788040#100A00000000
(1780156424.489000) can0 10800040#000000000000
(1780156424.507000) can0 10240040#83FE880100D70000
(1780156424.508000) can0 10806040#0000000000
(1780156424.508000) can0 10308060#96B501
(1780156424.508000) can0 102C0040#803C96B503
(1780156424.508000) can0 13FFE040#
(1780156424.514000) can0 102CA040#0000000000000F00
(1780156424.539000) can0 10264040#0000000000000000
(1780156424.544000) can0 10210040#0000800000008000
(1780156424.554000) can0 10220040#1000000040080000
(1780156424.561000) can0 10304058#96B501
(1780156424.566000) can0 1022E040#1000000010000000
(1780156424.587000) can0 10230040#2000000020000000
(1780156424.588000) can0 10248040#00005CA6A600
(1780156424.594000) can0 1022A040#00B00000000000
(1780156424.598000) can0 1022C040#00000000
(1780156424.619000) can0 10240040#83FE880100D70FFD
(1780156424.620000) can0 102C0040#803C96B503
(1780156424.620000) can0 10308060#96B501
(1780156424.620000) can0 102CA040#0000000000000F00
(1780156424.624000) can0 102CC040#0800000000000000
(1780156424.629000) can0 106B8040#0000000000000000
(1780156424.634000) can0 10264040#0000000000000000
(1780156424.639000) can0 102CE040#0700070000000000
(1780156424.644000) can0 10210040#0000800000008000
(1780156424.668000) can0 10220040#1000000040080000
(1780156424.668000) can0 1022E040#3000000030000000
(1780156424.669000) can0 10780040#0000000000000000
(1780156424.672000) can0 10304058#96B501
(1780156424.677000) can0 10230040#0000000000000000
(1780156424.698000) can0 10800040#000000000000
(1780156424.698000) can0 10240040#83FF880100D70000
(1780156424.703000) can0 102C0040#803C96B503
(1780156424.730000) can0 102CA040#0000000000000F00
(1780156424.730000) can0 10308060#96B501
(1780156424.734000) can0 10264040#0000000000000000
(1780156424.738000) can0 10814040#00000000
(1780156424.744000) can0 10210040#0000800000008000
(1780156424.754000) can0 10220040#1000000040080000
(1780156424.776000) can0 1022E040#1000000010000000
(1780156424.776000) can0 10230040#2000000020000000
(1780156424.781000) can0 10304058#96B501
(1780156424.807000) can0 10240040#83FE880100D70000
(1780156424.807000) can0 106B8040#0000000000000000
(1780156424.808000) can0 102C0040#803C96B503
(1780156424.814000) can0 102CA040#0000000000000F00
(1780156424.838000) can0 10308060#96B501
(1780156424.838000) can0 10264040#0000000000000000
(1780156424.844000) can0 10210040#0000800000008000
(1780156424.849000) can0 1022A040#00B00000000000
(1780156424.868000) can0 10220040#1000000040080000
(1780156424.869000) can0 1022C040#00000000
(1780156424.869000) can0 1022E040#3000000030000000
(1780156424.874000) can0 10230040#0000000000000000
(1780156424.879000) can0 102CC040#0800000000000000
(1780156424.898000) can0 102CE040#0700070000000000
(1780156424.899000) can0 102D0040#0000000000000000
(1780156424.899000) can0 10304058#96B501
(1780156424.899000) can0 10240040#83FE880100D70000
(1780156424.903000) can0 102C0040#803C96B503
(1780156424.909000) can0 10806040#0000000000
(1780156424.930000) can0 102CA040#0000000000000F00
(1780156424.931000) can0 10780040#0000000000000000
(1780156424.931000) can0 10788040#100A00000000
(1780156424.931000) can0 10800040#000000000000
(1780156424.934000) can0 10264040#0000000000000000
(1780156424.941000) can0 10308060#96B501
(1780156424.945000) can0 10210040#0000800000008000
(1780156424.954000) can0 10220040#1000000040080000
(1780156424.978000) can0 1022E040#1000000010000000
(1780156424.979000) can0 10230040#2000000020000000
(1780156425.010000) can0 10240040#83FF880100D70FFD
(1780156425.010000) can0 106B8040#0000000000000000
(1780156425.011000) can0 10304058#96B501
(1780156425.011000) can0 102C0040#803C96B503
(1780156425.014000) can0 102CA040#0000000000000F00
(1780156425.041000) can0 10264040#0000000000000000
(1780156425.045000) can0 10210040#0000800000008000
(1780156425.052000) can0 10308060#96B501
(1780156425.055000) can0 10220040#1000000040080000
(1780156425.072000) can0 1022E040#3000000030000000
(1780156425.074000) can0 10230040#0000000000000000
(1780156425.084000) can0 10248040#00005CA6A600
(1780156425.103000) can0 1022A040#00B00000000000
(1780156425.103000) can0 1022C040#00000000
(1780156425.104000) can0 10240040#83FE880100D70FFD
(1780156425.108000) can0 102C0040#803C96B503
(1780156425.112000) can0 10304058#96B501
(1780156425.116000) can0 102CA040#0000000000000F00
(1780156425.139000) can0 102CC040#0800000000000000
(1780156425.139000) can0 10264040#0000000000000000
(1780156425.140000) can0 102CE040#0700070000000000
(1780156425.144000) can0 10210040#0000800000008000
(1780156425.166000) can0 10220040#1000000040080000
(1780156425.167000) can0 10308060#96B501
(1780156425.167000) can0 1022E040#1000000010000000
(1780156425.175000) can0 10230040#2000000020000000
(1780156425.180000) can0 10780040#0000000000000000
(1780156425.199000) can0 10800040#000000000000
(1780156425.199000) can0 10240040#83FE880100D70000
(1780156425.200000) can0 106B8040#0000000000000000
(1780156425.204000) can0 102C0040#803C96B503
(1780156425.231000) can0 102CA040#0000000000000F00
(1780156425.231000) can0 10304058#96B501
(1780156425.234000) can0 10264040#0000000000000000
(1780156425.238000) can0 1080A040#00000000
(1780156425.245000) can0 10210040#0000800000008000
(1780156425.262000) can0 1080E040#0000000000000000
(1780156425.262000) can0 10220040#1000000040080000
(1780156425.265000) can0 1022E040#3000000030000000
(1780156425.273000) can0 10308060#96B501
(1780156425.278000) can0 10230040#0000000000000000
(1780156425.307000) can0 10240040#83FF880100D70FFD
(1780156425.308000) can0 102C0040#803C96B503
(1780156425.314000) can0 102CA040#0000000000000F00
(1780156425.339000) can0 10304058#96B501
(1780156425.340000) can0 10264040#0000000000000000
(1780156425.344000) can0 10210040#0000800000008000
(1780156425.350000) can0 1022A040#00B00000000000
(1780156425.372000) can0 10220040#1000000040080000
(1780156425.372000) can0 1022C040#00000000
(1780156425.374000) can0 1022E040#1000000010000000
(1780156425.374000) can0 10250040#0000
(1780156425.374000) can0 10230040#2000000020000000
(1780156425.380000) can0 102CC040#0800000000000000
(1780156425.383000) can0 10308060#96B501
(1780156425.402000) can0 102CE040#0700070000000000
(1780156425.403000) can0 10240040#83FF880100D70FFD
(1780156425.404000) can0 102D0040#0000000000000000
(1780156425.404000) can0 102C0040#803C96B503
(1780156425.410000) can0 102E0040#840000000000004E
(1780156425.414000) can0 102CA040#0000000000000F00
(1780156425.433000) can0 106B8040#0000000000000000
(1780156425.439000) can0 106C0040#00B5D1DE00
(1780156425.441000) can0 1077C040#303003B9
(1780156425.441000) can0 13FFE058#
(1780156425.442000) can0 10264040#0000000000000000
(1780156425.442000) can0 10780040#0000000000000000
(1780156425.442000) can0 10304058#96B501
(1780156425.447000) can0 10210040#0000800000008000
(1780156425.454000) can0 10220040#1000000040080000
(1780156425.459000) can0 10788040#100A00000000
(1780156425.480000) can0 1022E040#3000000030000000
(1780156425.481000) can0 10800040#000000000000
(1780156425.482000) can0 10230040#0000000000000000
(1780156425.482000) can0 10806040#0000000000
(1780156425.491000) can0 10308060#96B501
(1780156425.514000) can0 102C0040#803C96B503
(1780156425.526000) can0 102CA040#0000000000000F00
(1780156425.544000) can0 10264040#0000000000000000
(1780156425.544000) can0 10210040#0000800000008000
(1780156425.551000) can0 10304058#96B501
(1780156425.555000) can0 10220040#1000000040080000
(1780156425.576000) can0 1022E040#1000000010000000
(1780156425.577000) can0 10230040#2000000020000000
(1780156425.584000) can0 10248040#00005CA6A600
(1780156425.608000) can0 1022A040#00B00000000000
(1780156425.610000) can0 1022C040#00000000
(1780156425.610000) can0 10308060#96B501
(1780156425.611000) can0 10240040#83FF880100D70FFD
(1780156425.614000) can0 102C0040#803C96B503
(1780156425.619000) can0 102CA040#0000000000000F00
(1780156425.639000) can0 106B8040#0000000000000000
(1780156425.640000) can0 10264040#0000000000000000
(1780156425.641000) can0 102CE040#0700070000000000
(1780156425.645000) can0 10210040#0000800000008000
(1780156425.670000) can0 10220040#1000000040080000
(1780156425.670000) can0 10304058#96B501
(1780156425.673000) can0 1022E040#3000000030000000
(1780156425.673000) can0 13FFE060#
(1780156425.674000) can0 10780040#0000000000000000
(1780156425.674000) can0 106D0080#0000
(1780156425.676000) can0 13FFE080#
(1780156425.681000) can0 10230040#0000000000000000
(1780156425.702000) can0 10800040#000000000000
(1780156425.702000) can0 10240040#83FE880100D70FFD
(1780156425.703000) can0 13FFE040#
(1780156425.703000) can0 102C0040#803C96B503
(1780156425.711000) can0 10308060#96B501
(1780156425.716000) can0 102CA040#0000000000000F00
(1780156425.748000) can0 10264040#0000000000000000
(1780156425.751000) can0 10210040#0000800000008000
(1780156425.754000) can0 10220040#1000000040080000
(1780156425.779000) can0 1022E040#1000000010000000
(1780156425.780000) can0 10304058#96B501
(1780156425.780000) can0 10230040#2000000020000000
(1780156425.794000) can0 10240040#83FE880100D70000
(1780156425.799000) can0 106B8040#0000000000000000
(1780156425.803000) can0 102C0040#803C96B503
(1780156425.827000) can0 102CA040#0000000000000F00
(1780156425.829000) can0 10308060#96B501
(1780156425.834000) can0 10264040#0000000000000000
(1780156425.858000) can0 10210040#0000800000008000
(1780156425.858000) can0 1022A040#00B00000000000
(1780156425.859000) can0 10220040#1000000040080000
(1780156425.859000) can0 1022C040#00000000
(1780156425.864000) can0 1022E040#3000000030000000
(1780156425.890000) can0 10230040#0000000000000000
(1780156425.891000) can0 102CC040#0800000000000000
(1780156425.892000) can0 10304058#96B501
(1780156425.892000) can0 102CE040#0700070000000000
(1780156425.894000) can0 10240040#83FF880100D70FFD
(1780156425.900000) can0 102D0040#0000000000000000
(1780156425.920000) can0 10806040#0000000000
(1780156425.921000) can0 102CA040#0000000000000F00
(1780156425.923000) can0 10780040#0000000000000000
(1780156425.924000) can0 10788040#100A00000000
(1780156425.929000) can0 10800040#000000000000
(1780156425.932000) can0 10308060#96B501
(1780156425.951000) can0 10210040#0000800000008000
(1780156425.954000) can0 10220040#1000000040080000
(1780156425.964000) can0 1022E040#1000000010000000
(1780156425.982000) can0 10230040#2000000020000000
(1780156425.990000) can0 10304058#96B501
(1780156425.995000) can0 10240040#83FF880100D70000
(1780156426.015000) can0 106B8040#0000000000000000
(1780156426.015000) can0 102C0040#803C96B503
(1780156426.016000) can0 102CA040#0000000000000F00
(1780156426.047000) can0 10264040#0000000000000000
(1780156426.047000) can0 10308060#96B501
(1780156426.048000) can0 10210040#0000800000008000
(1780156426.057000) can0 10220040#1000000040060000
(1780156426.077000) can0 1022E040#3000000030000000
(1780156426.078000) can0 10230040#0000000000000000
(1780156426.084000) can0 10248040#00005CA6A600
(1780156426.108000) can0 1022A040#00B00000000000
(1780156426.109000) can0 1022C040#00000000
(1780156426.110000) can0 10304058#96B501
(1780156426.110000) can0 10240040#83FF880100D70000
(1780156426.114000) can0 102C0040#803C96B503
(1780156426.119000) can0 102CA040#0000000000000F00
(1780156426.140000) can0 102CC040#0800000000000000
(1780156426.141000) can0 10264040#0000000000000000
(1780156426.142000) can0 102CE040#0700070000000000
(1780156426.145000) can0 10210040#0000800000008000
(1780156426.151000) can0 10308060#96B501
(1780156426.172000) can0 1022E040#1000000010000000
