# gs_usb direct capture bitrate=33333.333 fclk=170000000 brp=255 prop=1 phase1=13 phase2=5 sjw=4
(1780006150.919654) can0 10244060#06
(1780006150.919771) can0 10424060#009964
(1780006150.919871) can0 10ACE060#1E00000000000000
(1780006150.919961) can0 13FFE060#
(1780006150.923431) can0 10AE8060#030E010104050000
(1780006150.925866) can0 10244060#02
(1780006150.928822) can0 10B0A060#001E04
(1780006150.931211) can0 103BC060#00
(1780006150.935588) can0 10AFC060#38FFFFFFFFFFFF2B
(1780006150.938098) can0 103D6060#00
(1780006150.942331) can0 10600060#01609370015B00
(1780006150.944688) can0 103DA060#00
(1780006150.950628) can0 10424060#079964
(1780006150.957302) can0 10444060#00
(1780006150.963693) can0 10448060#00
(1780006150.964154) can0 10AE8060#030E010104050000
(1780006150.966304) can0 1045C060#44
(1780006150.968736) can0 10774060#00
(1780006150.971169) can0 10812060#00
(1780006150.973549) can0 1084A060#00
(1780006150.976010) can0 10A04060#00
(1780006150.980243) can0 10ACE060#2B00000000000000
(1780006150.990894) can0 10AE8060#0016010800000000
(1780006150.994040) can0 10B0A060#001E04
(1780006150.996494) can0 13FFE060#
(1780006151.000248) can0 62C#0040000000000000
(1780006151.018061) can0 10AE8060#030E010104050000
(1780006151.018819) can0 10424060#009964
(1780006151.018915) can0 10AE8060#030E010104050000
(1780006151.028084) can0 1084A060#00
(1780006151.036630) can0 10244060#02
(1780006151.046214) can0 103D6060#00
(1780006151.047136) can0 10ACE060#1E00000000000000
(1780006151.047244) can0 10B0A060#001E04
(1780006151.050583) can0 10AE8060#0016010800000000
(1780006151.057800) can0 10424060#079964
(1780006151.077102) can0 1045C060#44
(1780006151.077598) can0 10AE8060#030E010104050000
(1780006151.088121) can0 10ACE060#1E00200000000000
(1780006151.106666) can0 10B0A060#002B04
(1780006151.176193) can0 10774060#00
(1780006151.177502) can0 10424060#009964
(1780006151.177610) can0 10ACE060#1E00000000000000
(1780006151.177699) can0 10AE8060#030E010104050000
(1780006151.179525) can0 10B0A060#001E04
(1780006151.196659) can0 10424060#079964
(1780006151.201019) can0 10ACE060#2B00000000000000
(1780006151.218009) can0 10AFC060#38FFFFFFFFFFFF2B
(1780006151.335042) can0 10424060#009964
(1780006151.335137) can0 10ACE060#1E00000000000000
(1780006151.335221) can0 10AE8060#030E010104050000
(1780006151.337144) can0 10B0A060#001E04
(1780006151.396574) can0 10424060#079964
(1780006151.397120) can0 10AE8060#030E010104050000
(1780006151.508266) can0 10424060#009964
(1780006151.508363) can0 10ACE060#1E00000000000000
(1780006151.508627) can0 10AE8060#030E010104050000
(1780006151.510578) can0 10B0A060#001E04
(1780006151.546497) can0 10424060#079964
(1780006151.547272) can0 10AE8060#030E010104050000
(1780006151.625855) can0 13FFE060#
(1780006151.626994) can0 10424060#009964
(1780006151.627083) can0 10ACE060#1E00000000000000
(1780006151.627168) can0 10AE8060#030E010104050000
(1780006151.629117) can0 10B0A060#001E04
(1780006151.656478) can0 10424060#079964
(1780006151.656941) can0 10AE8060#030E010104050000
(1780006151.761105) can0 10424060#009964
(1780006151.761199) can0 10ACE060#1E00000000000000
(1780006151.761283) can0 10AE8060#030E010104050000
(1780006151.763429) can0 10B0A060#001E04
(1780006151.796480) can0 10424060#079964
(1780006151.797282) can0 10AE8060#030E010104050000
(1780006151.903395) can0 10424060#009964
(1780006151.903490) can0 10ACE060#1E00000000000000
(1780006151.903575) can0 10AE8060#030E010104050000
(1780006151.905689) can0 10B0A060#001E04
(1780006151.946284) can0 10424060#079964
(1780006151.946995) can0 10AE8060#030E010104050000
(1780006152.061487) can0 10424060#009964
(1780006152.061585) can0 10ACE060#1E00000000000000
(1780006152.061670) can0 10AE8060#030E010104050000
(1780006152.063804) can0 10B0A060#001E04
(1780006152.096193) can0 10424060#079964
(1780006152.096796) can0 10AE8060#030E010104050000
(1780006152.203767) can0 10424060#009964
(1780006152.203865) can0 10ACE060#1E00000000000000
(1780006152.203949) can0 10AE8060#030E010104050000
(1780006152.205998) can0 10B0A060#001E04
(1780006152.246130) can0 10424060#079964
(1780006152.246618) can0 10AE8060#030E010104050000
(1780006152.361026) can0 10424060#009964
(1780006152.361127) can0 10ACE060#1E00000000000000
(1780006152.361211) can0 10AE8060#030E010104050000
(1780006152.363184) can0 10B0A060#001E04
(1780006152.396042) can0 10424060#079964
(1780006152.396497) can0 10AE8060#030E010104050000
(1780006152.503345) can0 10424060#209964
(1780006152.503482) can0 10ACE060#1E00000000000000
(1780006152.503569) can0 10AE8060#030E010104050000
(1780006152.505566) can0 10B0A060#001E04
(1780006152.545815) can0 10424060#279964
(1780006152.546298) can0 10AE8060#030E010104050000
(1780006152.661243) can0 10424060#209964
(1780006152.661342) can0 10ACE060#1E00000000000000
(1780006152.661480) can0 10AE8060#030E010104050000
(1780006152.663368) can0 10B0A060#001E04
(1780006152.695707) can0 10424060#279964
(1780006152.696173) can0 10AE8060#030E010104050000
(1780006152.803483) can0 10424060#209964
(1780006152.803586) can0 10ACE060#1E00000000000000
(1780006152.803671) can0 10AE8060#030E010104050000
(1780006152.805069) can0 10B0A060#001E04
(1780006152.825020) can0 13FFE060#
(1780006152.845645) can0 10424060#279964
(1780006152.846110) can0 10AE8060#030E010104050000
(1780006152.961840) can0 10424060#209964
(1780006152.961945) can0 10ACE060#1E00000000000000
(1780006152.962034) can0 10AE8060#030E010104050000
(1780006152.963656) can0 10B0A060#001E04
(1780006152.995576) can0 10424060#279964
(1780006152.996111) can0 10AE8060#030E010104050000
(1780006153.103781) can0 10424060#209964
(1780006153.103879) can0 10ACE060#1E00000000000000
(1780006153.103963) can0 10AE8060#030E010104050000
(1780006153.106063) can0 10B0A060#001E04
(1780006153.145480) can0 10424060#279964
(1780006153.145956) can0 10AE8060#030E010104050000
(1780006153.262077) can0 10424060#209964
(1780006153.262176) can0 10ACE060#1E00000000000000
(1780006153.262261) can0 10AE8060#030E010104050000
(1780006153.263960) can0 10B0A060#001E04
(1780006153.295405) can0 10424060#279964
(1780006153.295885) can0 10AE8060#030E010104050000
(1780006153.403489) can0 10424060#209964
(1780006153.403595) can0 10ACE060#1E00000000000000
(1780006153.403685) can0 10AE8060#030E010104050000
(1780006153.405108) can0 10B0A060#001E04
(1780006153.420439) can0 62C#0040000000000000
(1780006153.445338) can0 10424060#279964
(1780006153.445791) can0 10AE8060#030E010104050000
(1780006153.562480) can0 10424060#209964
(1780006153.562587) can0 10ACE060#1E00000000000000
(1780006153.562674) can0 10AE8060#030E010104050000
(1780006153.564282) can0 10B0A060#001E04
(1780006153.595433) can0 10424060#279964
(1780006153.596087) can0 10AE8060#030E010104050000
(1780006153.703598) can0 10424060#209964
(1780006153.703710) can0 10ACE060#1E00000000000000
(1780006153.703796) can0 10AE8060#030E010104050000
(1780006153.705210) can0 10B0A060#001E04
(1780006153.745273) can0 10424060#279964
(1780006153.745736) can0 10AE8060#030E010104050000
(1780006153.862685) can0 10424060#209964
(1780006153.862788) can0 10ACE060#1E00000000000000
(1780006153.862873) can0 10AE8060#030E010104050000
(1780006153.864414) can0 10B0A060#001E04
(1780006153.895246) can0 10424060#279964
(1780006153.895704) can0 10AE8060#030E010104050000
(1780006153.984612) can0 10244060#06
(1780006153.985641) can0 10424060#209964
(1780006153.985729) can0 10ACE060#1E00000000000000
(1780006153.985811) can0 10AE8060#030E010104050000
(1780006153.987878) can0 10B0A060#001E04
(1780006154.024511) can0 13FFE060#
(1780006154.025017) can0 10AE8060#030E010104050000
(1780006154.045194) can0 10424060#279964
(1780006154.159492) can0 10424060#409964
(1780006154.159592) can0 10ACE060#1E00000000000000
(1780006154.159677) can0 10AE8060#030E010104050000
(1780006154.161777) can0 10B0A060#001E04
(1780006154.194978) can0 10424060#479964
(1780006154.195692) can0 10AE8060#030E010104050000
(1780006154.302023) can0 10424060#409964
(1780006154.302120) can0 10ACE060#1E00000000000000
(1780006154.302202) can0 10AE8060#030E010104050000
(1780006154.304266) can0 10B0A060#001E04
(1780006154.344898) can0 10424060#479964
(1780006154.345510) can0 10AE8060#030E010104050000
(1780006154.460210) can0 10424060#409964
(1780006154.460311) can0 10ACE060#1E00000000000000
(1780006154.460403) can0 10AE8060#030E010104050000
(1780006154.462455) can0 10B0A060#001E04
(1780006154.494685) can0 10424060#479964
(1780006154.495354) can0 10AE8060#030E010104050000
(1780006154.601203) can0 10424060#409964
(1780006154.601299) can0 10ACE060#1E00000000000000
(1780006154.601381) can0 10AE8060#030E010104050000
(1780006154.603524) can0 10B0A060#001E04
(1780006154.644601) can0 10424060#479964
(1780006154.645241) can0 10AE8060#030E010104050000
(1780006154.759194) can0 10424060#409964
(1780006154.759292) can0 10ACE060#1E00000000000000
(1780006154.759375) can0 10AE8060#030E010104050000
(1780006154.761136) can0 10B0A060#001E04
(1780006154.794533) can0 10424060#479964
(1780006154.795013) can0 10AE8060#030E010104050000
(1780006154.900931) can0 10424060#409964
(1780006154.901031) can0 10ACE060#1E00000000000000
(1780006154.901113) can0 10AE8060#030E010104050000
(1780006154.902539) can0 10B0A060#001E04
(1780006154.944425) can0 10424060#479964
(1780006154.944914) can0 10AE8060#030E010104050000
(1780006155.054387) can0 10424060#479964
(1780006155.055551) can0 10424060#409964
(1780006155.055639) can0 10ACE060#1E00000000000000
(1780006155.055722) can0 10AE8060#030E010104050000
(1780006155.057685) can0 10B0A060#001E04
(1780006155.164300) can0 10424060#479964
(1780006155.164989) can0 10424060#409964
(1780006155.165084) can0 10AE8060#030E010104050000
(1780006155.223696) can0 13FFE060#
(1780006155.224673) can0 10ACE060#1E00000000000000
(1780006155.224853) can0 10AE8060#030E010104050000
(1780006155.225010) can0 10B0A060#001E04
(1780006155.274255) can0 10424060#479964
(1780006155.275051) can0 10424060#409964
(1780006155.275222) can0 10AE8060#030E010104050000
(1780006155.384957) can0 10424060#479964
(1780006155.386065) can0 10424060#409964
(1780006155.386152) can0 10ACE060#1E00000000000000
(1780006155.386234) can0 10AE8060#030E010104050000
(1780006155.388358) can0 10B0A060#001E04
(1780006155.423752) can0 10244060#06
(1780006155.424248) can0 10AE8060#030E010104050000
(1780006155.494225) can0 10424060#479964
(1780006155.495014) can0 10424060#409964
(1780006155.495105) can0 10AE8060#030E010104050000
(1780006155.543795) can0 1045C060#40
(1780006155.544867) can0 10ACE060#1E00000000000000
(1780006155.544971) can0 10AE8060#030E010104050000
(1780006155.545057) can0 10B0A060#001E04
(1780006155.604232) can0 10424060#479964
(1780006155.605467) can0 10424060#609964
(1780006155.605592) can0 10AE8060#030E010104050000
(1780006155.714168) can0 10424060#679964
(1780006155.715291) can0 10424060#609964
(1780006155.715377) can0 10ACE060#1E00000000000000
(1780006155.715461) can0 10AE8060#030E010104050000
(1780006155.717666) can0 10B0A060#001E04
(1780006155.824666) can0 10424060#679964
(1780006155.826482) can0 10424060#609964
(1780006155.826583) can0 10ACE060#1E00000000000000
(1780006155.826667) can0 10AE8060#030E010104050000
(1780006155.827997) can0 10B0A060#001E04
(1780006155.934077) can0 10424060#679964
(1780006155.935744) can0 10244060#06
(1780006155.935834) can0 10424060#609964
(1780006155.935918) can0 10AE8060#030E010104050000
(1780006155.936948) can0 10AFC060#38FFFFFFFFFFFF2B
(1780006155.939873) can0 10600060#01609370015B00
(1780006156.043978) can0 10424060#679964
(1780006156.045081) can0 10424060#609964
(1780006156.045167) can0 10ACE060#1E00000000000000
(1780006156.045271) can0 10AE8060#030E010104050000
(1780006156.047414) can0 10B0A060#001E04
(1780006156.153920) can0 10424060#679964
(1780006156.154696) can0 10424060#609964
(1780006156.154785) can0 10AE8060#030E010104050000
(1780006156.256871) can0 10424060#609964
(1780006156.256968) can0 10ACE060#1E00000000000000
(1780006156.257051) can0 10AE8060#030E010104050000
(1780006156.258835) can0 10B0A060#001E04
(1780006156.266152) can0 10424060#609964
(1780006156.373816) can0 10424060#679964
(1780006156.374942) can0 10424060#609964
(1780006156.375028) can0 10ACE060#1E00000000000000
(1780006156.375111) can0 10AE8060#030E010104050000
(1780006156.377118) can0 10B0A060#001E04
(1780006156.414605) can0 62C#0040000000000000
(1780006156.415113) can0 10AE8060#030E010104050000
(1780006156.423113) can0 13FFE060#
(1780006156.483744) can0 10424060#679964
(1780006156.484625) can0 10424060#609964
(1780006156.484918) can0 10AE8060#030E010104050000
(1780006156.589727) can0 10424060#609964
(1780006156.589993) can0 10ACE060#1E00000000000000
(1780006156.590127) can0 10AE8060#030E010104050000
(1780006156.591369) can0 10B0A060#001E04
(1780006156.594263) can0 10424060#679964
(1780006156.699234) can0 10424060#609964
(1780006156.699327) can0 10ACE060#1E00000000000000
(1780006156.699452) can0 10AE8060#030E010104050000
(1780006156.701359) can0 10B0A060#001E04
(1780006156.704240) can0 10424060#679964
(1780006156.809950) can0 10424060#609964
(1780006156.810074) can0 10ACE060#1E00000000000000
(1780006156.810229) can0 10AE8060#030E010104050000
(1780006156.811880) can0 10B0A060#001E04
(1780006156.814825) can0 10424060#679964
(1780006156.919461) can0 10424060#609964
(1780006156.919565) can0 10AE8060#030E010104050000
(1780006156.924335) can0 10424060#679964
(1780006157.029747) can0 10424060#609964
(1780006157.029843) can0 10ACE060#1E00000000000000
(1780006157.029925) can0 10AE8060#030E010104050000
(1780006157.031867) can0 10B0A060#001E04
(1780006157.034731) can0 10424060#679964
(1780006157.141327) can0 10424060#809964
(1780006157.141450) can0 10ACE060#1E00000000000000
(1780006157.141538) can0 10AE8060#030E010104050000
(1780006157.143198) can0 10424060#679964
(1780006157.146111) can0 10B0A060#001E04
(1780006157.249361) can0 10424060#809964
(1780006157.249457) can0 10AE8060#030E010104050000
(1780006157.254788) can0 10424060#879964
(1780006157.361454) can0 10424060#809964
(1780006157.361554) can0 10ACE060#1E00000000000000
(1780006157.361637) can0 10AE8060#030E010104050000
(1780006157.363062) can0 10424060#879964
(1780006157.365985) can0 10B0A060#001E04
(1780006157.470450) can0 10424060#809964
(1780006157.470546) can0 10AE8060#030E010104050000
(1780006157.475889) can0 10424060#879964
(1780006157.579894) can0 10424060#809964
(1780006157.579990) can0 10ACE060#1E00000000000000
(1780006157.580072) can0 10AE8060#030E010104050000
(1780006157.582095) can0 10B0A060#001E04
(1780006157.584898) can0 10424060#879964
(1780006157.622519) can0 13FFE060#
(1780006157.623295) can0 10AE8060#030E010104050000
(1780006157.693039) can0 10424060#879964
(1780006157.694730) can0 10424060#809964
(1780006157.695033) can0 10ACE060#1E00000000000000
(1780006157.695162) can0 10AE8060#030E010104050000
(1780006157.696371) can0 10B0A060#001E04
(1780006157.800776) can0 10424060#809964
(1780006157.800874) can0 10AE8060#030E010104050000
(1780006157.802947) can0 10424060#879964
(1780006157.911557) can0 10424060#809964
(1780006157.911695) can0 10ACE060#1E00000000000000
(1780006157.911834) can0 10AE8060#030E010104050000
(1780006157.912874) can0 10424060#879964
(1780006157.915775) can0 10B0A060#001E04
(1780006158.021446) can0 10424060#809964
(1780006158.021543) can0 10ACE060#1E00000000000000
(1780006158.021625) can0 10AE8060#030E010104050000
(1780006158.022765) can0 10424060#879964
(1780006158.025681) can0 10B0A060#001E04
(1780006158.132910) can0 10424060#809964
(1780006158.133021) can0 10ACE060#1E00000000000000
(1780006158.133106) can0 10AE8060#030E010104050000
(1780006158.133187) can0 10424060#879964
(1780006158.135591) can0 10B0A060#001E04
(1780006158.242897) can0 10424060#809964
(1780006158.242994) can0 10ACE060#1E00000000000000
(1780006158.243076) can0 10AE8060#030E010104050000
(1780006158.243157) can0 10424060#879964
(1780006158.245579) can0 10B0A060#001E04
(1780006158.354238) can0 10424060#879964
(1780006158.354348) can0 10424060#809964
(1780006158.354446) can0 10ACE060#1E00000000000000
(1780006158.354532) can0 10AE8060#030E010104050000
(1780006158.355876) can0 10B0A060#001E04
(1780006158.462516) can0 10424060#879964
(1780006158.463291) can0 10424060#809964
(1780006158.463377) can0 10AE8060#030E010104050000
(1780006158.573108) can0 10424060#879964
(1780006158.573205) can0 10424060#809964
(1780006158.573287) can0 10ACE060#1E00000000000000
(1780006158.573367) can0 10AE8060#030E010104050000
(1780006158.575291) can0 10B0A060#001E04
(1780006158.682421) can0 10424060#879964
(1780006158.684443) can0 10424060#A09964
(1780006158.684544) can0 10ACE060#1E00000000000000
(1780006158.684628) can0 10AE8060#030E010104050000
(1780006158.685928) can0 10B0A060#001E04
(1780006158.792289) can0 10424060#A79964
(1780006158.793315) can0 10424060#A09964
(1780006158.793438) can0 10AE8060#030E010104050000
(1780006158.821688) can0 13FFE060#
(1780006158.822469) can0 10ACE060#1E00000000000000
(1780006158.822556) can0 10B0A060#001E04
(1780006158.903146) can0 10424060#A79964
(1780006158.904580) can0 10424060#A09964
(1780006158.904678) can0 10AE8060#030E010104050000
(1780006159.012214) can0 10424060#A79964
(1780006159.013959) can0 10424060#A09964
(1780006159.014059) can0 10ACE060#1E00000000000000
(1780006159.014144) can0 10AE8060#030E010104050000
(1780006159.015615) can0 10B0A060#001E04
(1780006159.122084) can0 10424060#A79964
(1780006159.122873) can0 10424060#A09964
(1780006159.122960) can0 10AE8060#030E010104050000
(1780006159.232057) can0 10424060#A79964
(1780006159.234054) can0 10424060#A09964
(1780006159.234179) can0 10ACE060#1E00000000000000
(1780006159.234314) can0 10AE8060#030E010104050000
(1780006159.235451) can0 10B0A060#001E04
(1780006159.342035) can0 10424060#A79964
(1780006159.343172) can0 10424060#A09964
(1780006159.343293) can0 10AE8060#030E010104050000
(1780006159.412925) can0 62C#0040000000000000
(1780006159.414343) can0 10ACE060#1E00000000000000
(1780006159.414440) can0 10AE8060#030E010104050000
(1780006159.414523) can0 10B0A060#001E04
(1780006159.451962) can0 10424060#A79964
(1780006159.452778) can0 10424060#A09964
(1780006159.452864) can0 10AE8060#030E010104050000
(1780006159.562645) can0 10424060#A79964
(1780006159.564623) can0 10424060#A09964
(1780006159.564717) can0 10ACE060#1E00000000000000
(1780006159.564800) can0 10AE8060#030E010104050000
(1780006159.566019) can0 10B0A060#001E04
(1780006159.671958) can0 10424060#A79964
(1780006159.672809) can0 10424060#A09964
(1780006159.672900) can0 10AE8060#030E010104050000
(1780006159.781872) can0 10424060#A79964
(1780006159.783157) can0 10424060#A09964
(1780006159.783243) can0 10ACE060#1E00000000000000
(1780006159.783325) can0 10AE8060#030E010104050000
(1780006159.785197) can0 10B0A060#001E04
(1780006159.891799) can0 10424060#A79964
(1780006159.893179) can0 10424060#A09964
(1780006159.893289) can0 10AE8060#030E010104050000
(1780006160.001743) can0 10424060#A79964
(1780006160.003018) can0 10424060#A09964
(1780006160.003157) can0 10ACE060#1E00000000000000
(1780006160.003323) can0 10AE8060#030E010104050000
(1780006160.005319) can0 10B0A060#001E04
(1780006160.021131) can0 13FFE060#
(1780006160.111685) can0 10424060#A79964
(1780006160.112516) can0 10424060#A09964
(1780006160.112605) can0 10AE8060#030E010104050000
(1780006160.221643) can0 10424060#A79964
(1780006160.223434) can0 10424060#C09964
(1780006160.223531) can0 10ACE060#1E00000000000000
(1780006160.223614) can0 10AE8060#030E010104050000
(1780006160.225054) can0 10B0A060#001E04
(1780006160.331637) can0 10424060#C79964
(1780006160.332428) can0 10424060#C09964
(1780006160.332514) can0 10AE8060#030E010104050000
(1780006160.421061) can0 10244060#06
(1780006160.422777) can0 10ACE060#1E00000000000000
(1780006160.422875) can0 10AE8060#030E010104050000
(1780006160.422958) can0 10B0A060#001E04
(1780006160.441537) can0 10424060#C79964
(1780006160.543806) can0 10424060#C09964
(1780006160.543974) can0 10ACE060#1E00000000000000
(1780006160.544108) can0 10AE8060#030E010104050000
(1780006160.545195) can0 10B0A060#001E04
(1780006160.591336) can0 10424060#C79964
(1780006160.591911) can0 10AE8060#030E010104050000
(1780006160.700305) can0 10424060#C09964
(1780006160.700426) can0 10ACE060#1E00000000000000
(1780006160.700509) can0 10AE8060#030E010104050000
(1780006160.702327) can0 10B0A060#001E04
(1780006160.741271) can0 10424060#C79964
(1780006160.741813) can0 10AE8060#030E010104050000
(1780006160.857633) can0 10424060#C09964
(1780006160.857730) can0 10ACE060#1E00000000000000
(1780006160.857813) can0 10AE8060#030E010104050000
(1780006160.859661) can0 10B0A060#001E04
(1780006160.891158) can0 10424060#C79964
(1780006160.891687) can0 10AE8060#030E010104050000
(1780006161.000427) can0 10244060#06
(1780006161.000525) can0 10424060#C09964
(1780006161.000613) can0 10ACE060#1E00000000000000
(1780006161.001123) can0 10AE8060#030E010104050000
(1780006161.004062) can0 10B0A060#001E04
(1780006161.008461) can0 10AFC060#38FFFFFFFFFFFF2B
(1780006161.012689) can0 10600060#01609370015B00
(1780006161.041087) can0 10424060#C79964
(1780006161.041630) can0 10AE8060#030E010104050000
(1780006161.157005) can0 10424060#C09964
(1780006161.157103) can0 10ACE060#1E00000000000000
(1780006161.157186) can0 10AE8060#030E010104050000
(1780006161.158853) can0 10B0A060#001E04
(1780006161.191008) can0 10424060#C79964
(1780006161.191548) can0 10AE8060#030E010104050000
(1780006161.220327) can0 13FFE060#
(1780006161.332586) can0 10424060#C09964
(1780006161.332684) can0 10ACE060#1E00000000000000
(1780006161.332768) can0 10AE8060#030E010104050000
(1780006161.333925) can0 10B0A060#001E04
(1780006161.390942) can0 10424060#C79964
(1780006161.391515) can0 10AE8060#030E010104050000
(1780006161.505109) can0 10424060#C09964
(1780006161.505206) can0 10ACE060#1E00000000000000
(1780006161.505288) can0 10AE8060#030E010104050000
(1780006161.507117) can0 10B0A060#001E04
(1780006161.542141) can0 10424060#C79964
(1780006161.542719) can0 10AE8060#030E010104050000
(1780006161.646238) can0 10424060#C09964
(1780006161.646334) can0 10ACE060#1E00000000000000
(1780006161.646419) can0 10AE8060#030E010104050000
(1780006161.648250) can0 10B0A060#001E04
(1780006161.690851) can0 10424060#C79964
(1780006161.691420) can0 10AE8060#030E010104050000
(1780006161.711886) can0 10600060#01609370015B00
(1780006161.820652) can0 10424060#E09964
(1780006161.820747) can0 10ACE060#1E00000000000000
(1780006161.820830) can0 10AE8060#030E010104050000
(1780006161.822004) can0 10B0A060#001E04
(1780006161.840752) can0 10424060#E79964
(1780006161.946671) can0 10424060#E09964
(1780006161.946768) can0 10ACE060#1E00000000000000
(1780006161.946861) can0 10AE8060#030E010104050000
(1780006161.948571) can0 10B0A060#001E04
(1780006161.990693) can0 10424060#E79964
(1780006161.991273) can0 10AE8060#030E010104050000
(1780006162.104870) can0 10424060#E09964
(1780006162.104970) can0 10ACE060#1E00000000000000
(1780006162.105054) can0 10AE8060#030E010104050000
(1780006162.106964) can0 10B0A060#001E04
(1780006162.140629) can0 10424060#E79964
(1780006162.141312) can0 10AE8060#030E010104050000
(1780006162.246800) can0 10424060#E09964
(1780006162.246897) can0 10ACE060#1E00000000000000
(1780006162.246980) can0 10AE8060#030E010104050000
(1780006162.248973) can0 10B0A060#001E04
(1780006162.290545) can0 10424060#E79964
(1780006162.291342) can0 10AE8060#030E010104050000
(1780006162.406023) can0 10424060#E09964
(1780006162.406119) can0 10ACE060#1E00000000000000
(1780006162.406201) can0 10AE8060#030E010104050000
(1780006162.408111) can0 10B0A060#001E04
(1780006162.423459) can0 62C#0040000000000000
(1780006162.425609) can0 13FFE060#
(1780006162.440489) can0 10424060#E79964
(1780006162.441265) can0 10AE8060#030E010104050000
(1780006162.548124) can0 10424060#E09964
(1780006162.548220) can0 10ACE060#1E00000000000000
(1780006162.548303) can0 10AE8060#030E010104050000
(1780006162.550207) can0 10B0A060#001E04
(1780006162.591203) can0 10424060#E79964
(1780006162.592012) can0 10AE8060#030E010104050000
(1780006162.706510) can0 10424060#E09964
(1780006162.706612) can0 10ACE060#1E00000000000000
(1780006162.706701) can0 10AE8060#030E010104050000
(1780006162.708484) can0 10B0A060#001E04
(1780006162.740153) can0 10424060#E79964
(1780006162.740880) can0 10AE8060#030E010104050000
(1780006162.848141) can0 10424060#E09964
(1780006162.848260) can0 10ACE060#1E00000000000000
(1780006162.848351) can0 10AE8060#030E010104050000
(1780006162.850105) can0 10B0A060#001E04
(1780006162.890049) can0 10424060#E79964
(1780006162.890672) can0 10AE8060#030E010104050000
